(1790243624.748454) can0 18A#FE2401DB06
(1790243624.758839) can0 28A#0000000000000000
(1790243624.759243) can0 18A#FE2401DC06
(1790243624.768509) can0 18A#FE2401DC06
(1790243624.778570) can0 28A#0000000000000000
(1790243624.779020) can0 18A#FE2401DC06
(1790243624.788868) can0 38A#000005
(1790243624.789311) can0 18A#FD2401DC06
(1790243624.798763) can0 28A#0000000000000000
(1790243624.799413) can0 18A#FE2401DC06
(1790243624.808595) can0 18A#FE2401DC06
(1790243624.819171) can0 28A#0000000000000000
(1790243624.819722) can0 18A#FE2401DC06
(1790243624.828649) can0 18A#FE2401DC06
(1790243624.838890) can0 38A#000005
(1790243624.839489) can0 28A#0000000000000000
(1790243624.839865) can0 18A#FE2401DC06
(1790243624.849340) can0 18A#FD2401DC06
(1790243624.858996) can0 28A#0000000000000000
(1790243624.859582) can0 18A#FE2401DC06
(1790243624.869109) can0 18A#FE2401DC06
(1790243624.879455) can0 28A#0000000000000000
(1790243624.880201) can0 18A#FE2401DC06
(1790243624.889038) can0 38A#000005
(1790243624.889696) can0 18A#FE2401DC06
(1790243624.899187) can0 28A#0000000000000000
(1790243624.899933) can0 18A#FE2401DC06
(1790243624.909465) can0 18A#FE2401DC06
(1790243624.919225) can0 28A#0000000000000000
(1790243624.920003) can0 18A#FE2401DC06
(1790243624.929172) can0 18A#FE2401DC06
(1790243624.939495) can0 38A#000005
(1790243624.940042) can0 28A#0000000000000000
(1790243624.940424) can0 18A#FE2401DC06
(1790243624.949224) can0 18A#FE2401DC06
(1790243624.959196) can0 28A#0000000000000000
(1790243624.959622) can0 18A#FE2401DC06
(1790243624.969567) can0 18A#FE2401DC06
(1790243624.979247) can0 28A#0000000000000000
(1790243624.979646) can0 18A#FE2401DC06
(1790243624.989173) can0 38A#000005
(1790243624.989697) can0 18A#FE2401DC06
(1790243624.999770) can0 28A#0000000000000000
(1790243625.000256) can0 18A#FE2401DC06
(1790243625.009329) can0 18A#FE2401DC06
(1790243625.019475) can0 28A#0000000000000000
(1790243625.019956) can0 18A#FE2401DB06
(1790243625.029661) can0 18A#FE2501DB06
(1790243625.039405) can0 38A#000005
(1790243625.039890) can0 28A#0000000000000000
(1790243625.040184) can0 18A#FE2501DB06
(1790243625.049459) can0 18A#FE2501DB06
(1790243625.059819) can0 28A#0000000000000000
(1790243625.060273) can0 18A#FE2501DB06
(1790243625.069730) can0 18A#FE2501DB06
(1790243625.079553) can0 28A#0000000000000000
(1790243625.080037) can0 18A#FE2501DB06
(1790243625.089845) can0 38A#000005
(1790243625.090511) can0 18A#FE2501DB06
(1790243625.099871) can0 28A#0000000000000000
(1790243625.100543) can0 18A#FE2501DB06
(1790243625.109462) can0 18A#FE2501DB06
(1790243625.119956) can0 28A#0000000000000000
(1790243625.120493) can0 18A#FD2501DB06
(1790243625.129562) can0 18A#FE2501DB06
(1790243625.139605) can0 38A#000005
(1790243625.140084) can0 28A#0000000000000000
(1790243625.140370) can0 18A#FE2501DB06
(1790243625.150021) can0 18A#FE2501DB06
(1790243625.159673) can0 28A#0000000000000000
(1790243625.160072) can0 18A#FE2501DB06
(1790243625.169652) can0 18A#FE2501DB06
(1790243625.180139) can0 28A#0000000000000000
(1790243625.181106) can0 18A#FE2501DB06
(1790243625.189663) can0 38A#000005
(1790243625.190157) can0 18A#FE2501DB06
(1790243625.199831) can0 28A#0000000000000000
(1790243625.200393) can0 18A#FE2501DB06
(1790243625.210013) can0 18A#FE2501DB06
(1790243625.219846) can0 28A#0000000000000000
(1790243625.220325) can0 18A#FE2501DB06
(1790243625.229706) can0 18A#FE2501DB06
(1790243625.240263) can0 70A#05
(1790243625.240836) can0 38A#000005
(1790243625.241279) can0 28A#0000000000000000
(1790243625.249837) can0 18A#FE2501DB06
(1790243625.259795) can0 28A#0000000000000000
(1790243625.260204) can0 18A#FD2501DB06
(1790243625.270191) can0 18A#FE2501DB06
(1790243625.279887) can0 28A#0000000000000000
(1790243625.280270) can0 18A#FD2501DB06
(1790243625.289864) can0 38A#000005
(1790243625.290335) can0 18A#FD2502DB06
(1790243625.300359) can0 28A#0000000000000000
(1790243625.300897) can0 18A#FE2601DB06
(1790243625.309842) can0 18A#FE2601DB06
(1790243625.320078) can0 28A#0000000000000000
(1790243625.320585) can0 18A#FD2601DB06
(1790243625.331084) can0 18A#FE2601DB06
(1790243625.340747) can0 38A#000005
(1790243625.342543) can0 28A#0000000000000000
(1790243625.344527) can0 18A#FE2701DB06
(1790243625.350125) can0 18A#FD2601DB06
(1790243625.360523) can0 28A#0000000000000000
(1790243625.362343) can0 18A#FE2600DB06
(1790243625.370103) can0 18A#FE2600DB06
(1790243625.380112) can0 28A#0000000000000000
(1790243625.380961) can0 18A#FE2600DB06
(1790243625.390514) can0 38A#000005
(1790243625.391238) can0 18A#FD2600DB06
(1790243625.400358) can0 28A#0000000000000000
(1790243625.402521) can0 18A#FE2600DB06
(1790243625.410448) can0 18A#FE2600DB06
(1790243625.421944) can0 28A#0000000000000000
(1790243625.423722) can0 18A#FE2600DB06
(1790243625.431509) can0 18A#FE2600DB06
(1790243625.441599) can0 38A#000005
(1790243625.443711) can0 28A#0000000000000000
(1790243625.444277) can0 18A#FE2600DB06
(1790243625.450749) can0 18A#FE2600DB06
(1790243625.460420) can0 28A#0000000000000000
(1790243625.461000) can0 18A#FE2600DB06
(1790243625.470424) can0 18A#FE2600DB06
(1790243625.480755) can0 28A#0000000000000000
(1790243625.481500) can0 18A#FE2600DB06
(1790243625.490289) can0 38A#000005
(1790243625.491094) can0 18A#FD2600DB06
(1790243625.500409) can0 28A#0000000000000000
(1790243625.501085) can0 18A#FE2600DB06
(1790243625.510688) can0 18A#FE2600DB06
(1790243625.520413) can0 28A#0000000000000000
(1790243625.521070) can0 18A#FD2600DB06
(1790243625.530247) can0 18A#FE2600DB06
(1790243625.540884) can0 38A#000005
(1790243625.541688) can0 28A#0000000000000000
(1790243625.542251) can0 18A#FD2600DB06
(1790243625.550534) can0 18A#FD2600DB06
(1790243625.560673) can0 28A#0000000000000000
(1790243625.561472) can0 18A#FE2701DB06
(1790243625.570831) can0 18A#FE2700DB06
(1790243625.580498) can0 28A#0000000000000000
(1790243625.581043) can0 18A#FD2700DB06
(1790243625.590498) can0 38A#000005
(1790243625.591183) can0 18A#FD2700DB06
(1790243625.601082) can0 28A#0000000000000000
(1790243625.602317) can0 18A#FD2801DB06
(1790243625.610510) can0 18A#FE2800DB06
(1790243625.620693) can0 28A#0000000000000000
(1790243625.621388) can0 18A#FD2800DB06
(1790243625.630857) can0 18A#FE2800DB06
(1790243625.640448) can0 38A#000005
(1790243625.640983) can0 28A#0000000000000000
(1790243625.641447) can0 18A#FE2800DB06
(1790243625.650559) can0 18A#FE2800DB06
(1790243625.660936) can0 28A#0000000000000000
(1790243625.661533) can0 18A#FD2800DB06
(1790243625.670623) can0 18A#FE2800DB06
(1790243625.680841) can0 28A#0000000000000000
(1790243625.682376) can0 18A#FE2800DB06
(1790243625.690984) can0 38A#000005
(1790243625.691485) can0 18A#FD2800DB06
(1790243625.700679) can0 28A#0000000000000000
(1790243625.701151) can0 18A#FE2800DB06
(1790243625.710536) can0 18A#FE2800DB06
(1790243625.721031) can0 28A#0000000000000000
(1790243625.721469) can0 18A#FE2800DB06
(1790243625.730577) can0 18A#FE2800DB06
(1790243625.740839) can0 38A#000005
(1790243625.741642) can0 28A#0000000000000000
(1790243625.742221) can0 18A#FE2800DB06
(1790243625.751097) can0 18A#FD2800DB06
(1790243625.760756) can0 28A#0000000000000000
(1790243625.761285) can0 18A#FD2800DB06
(1790243625.770814) can0 18A#FE2800DB06
(1790243625.781099) can0 28A#0000000000000000
(1790243625.781527) can0 18A#FE2800DB06
(1790243625.790682) can0 38A#000005
(1790243625.791104) can0 18A#FE2800DB06
(1790243625.800819) can0 28A#0000000000000000
(1790243625.801197) can0 18A#FD2800DB06
(1790243625.811090) can0 18A#FD2801DB06
(1790243625.820882) can0 28A#0000000000000000
(1790243625.821311) can0 18A#FE2800DB06
(1790243625.830792) can0 18A#FE2800DB06
(1790243625.841238) can0 38A#000005
(1790243625.841931) can0 28A#0000000000000000
(1790243625.842484) can0 18A#FE2800DB06
(1790243625.850923) can0 18A#FE2900DB06
(1790243625.860991) can0 28A#0000000000000000
(1790243625.861576) can0 18A#FE2900DB06
(1790243625.871294) can0 18A#FE2900DB06
(1790243625.880987) can0 28A#0000000000000000
(1790243625.881458) can0 18A#FE2900DB06
(1790243625.890830) can0 38A#000005
(1790243625.891290) can0 18A#FE2900DB06
(1790243625.901400) can0 28A#0000000000000000
(1790243625.901854) can0 18A#FE2900DB06
(1790243625.910886) can0 18A#FE2900DB06
(1790243625.921148) can0 28A#0000000000000000
(1790243625.921728) can0 18A#FE2900DB06
(1790243625.931381) can0 18A#FE2900DB06
(1790243625.941085) can0 38A#000005
(1790243625.941761) can0 28A#0000000000000000
(1790243625.942314) can0 18A#FE2900DB06
(1790243625.955679) can0 18A#FE2900DA06
(1790243625.961505) can0 28A#0000000000000000
(1790243625.962098) can0 18A#FE2900DA06
(1790243625.971090) can0 18A#FE2900DB06
(1790243625.981242) can0 28A#0000000000000000
(1790243625.981880) can0 18A#FE2900DB06
(1790243625.991488) can0 38A#000005
(1790243625.992141) can0 18A#FE2900DB06
(1790243626.001195) can0 28A#0000000000000000
(1790243626.001645) can0 18A#FE2900DB06
(1790243626.012918) can0 18A#FE2900DB06
(1790243626.022990) can0 28A#0000000000000000
(1790243626.024910) can0 18A#FE2900DB06
(1790243626.032384) can0 18A#FE2900DB06
(1790243626.041142) can0 38A#000005
(1790243626.041755) can0 28A#0000000000000000
(1790243626.043605) can0 18A#FE2900DB06
(1790243626.051705) can0 18A#FE2900DB06
(1790243626.061201) can0 28A#0000000000000000
(1790243626.062057) can0 18A#FE2900DB06
(1790243626.071201) can0 18A#FE2900DB06
(1790243626.082497) can0 28A#0000000000000000
(1790243626.083228) can0 18A#FE2900DA06
(1790243626.092903) can0 38A#000005
(1790243626.094805) can0 18A#FE2900DA06
(1790243626.102781) can0 28A#0000000000000000
(1790243626.104685) can0 18A#FE2900DB06
(1790243626.112819) can0 18A#FE2A00DB06
(1790243626.121288) can0 28A#0000000000000000
(1790243626.121868) can0 18A#FE2A00DB06
(1790243626.131228) can0 18A#FE2A00DB06
(1790243626.143068) can0 38A#000005
(1790243626.144960) can0 28A#0000000000000000
(1790243626.146921) can0 18A#FE2A00DB06
(1790243626.151823) can0 18A#FE2A00DB06
(1790243626.162742) can0 28A#0000000000000000
(1790243626.164814) can0 18A#FE2AFFDB06
(1790243626.171622) can0 18A#FE2AFFDB06
(1790243626.181341) can0 28A#0000000000000000
(1790243626.182432) can0 18A#FE2AFFDB06
(1790243626.191246) can0 38A#000005
(1790243626.192427) can0 18A#FE2AFFDB06
(1790243626.203159) can0 28A#0000000000000000
(1790243626.204961) can0 18A#FE2AFFDB06
(1790243626.211150) can0 18A#FE2AFFDB06
(1790243626.221308) can0 28A#0000000000000000
(1790243626.221794) can0 18A#FE2AFFDB06
(1790243626.231638) can0 18A#FE2AFFDB06
(1790243626.241244) can0 70A#05
(1790243626.241865) can0 38A#000005
(1790243626.242517) can0 28A#0000000000000000
(1790243626.251369) can0 18A#FE2AFFDB06
(1790243626.261739) can0 28A#0000000000000000
(1790243626.262882) can0 18A#FE2AFFDB06
(1790243626.271322) can0 18A#FE2AFFDB06
(1790243626.281378) can0 28A#0000000000000000
(1790243626.282037) can0 18A#FE2AFFDB06
(1790243626.291666) can0 38A#000005
(1790243626.292499) can0 18A#FE2AFFDB06
(1790243626.301458) can0 28A#0000000000000000
(1790243626.302185) can0 18A#FE2AFFDB06
(1790243626.311265) can0 18A#FE2AFFDB06
(1790243626.321759) can0 28A#0000000000000000
(1790243626.322456) can0 18A#FE2AFFDB06
(1790243626.331321) can0 18A#FE2AFFDB06
(1790243626.341367) can0 38A#000005
(1790243626.341946) can0 28A#0000000000000000
(1790243626.342415) can0 18A#FE2AFFDB06
(1790243626.351666) can0 18A#FE2AFFDB06
(1790243626.361443) can0 28A#0000000000000000
(1790243626.362108) can0 18A#FE2AFFDB06
(1790243626.371388) can0 18A#FE2AFFDB06
(1790243626.381712) can0 28A#0000000000000000
(1790243626.382203) can0 18A#FE2AFFDB06
(1790243626.391298) can0 38A#000005
(1790243626.391819) can0 18A#FE2BFFDB06
(1790243626.401499) can0 28A#0000000000000000
(1790243626.402180) can0 18A#FE2BFFDB06
(1790243626.411678) can0 18A#FE2BFFDB06
(1790243626.421479) can0 28A#0000000000000000
(1790243626.422065) can0 18A#FE2BFFDB06
(1790243626.431313) can0 18A#FE2BFFDB06
(1790243626.441704) can0 38A#000005
(1790243626.442406) can0 28A#0000000000000000
(1790243626.442937) can0 18A#FE2BFFDB06
(1790243626.451396) can0 18A#FE2BFFDB06
(1790243626.461358) can0 28A#0000000000000000
(1790243626.461800) can0 18A#FE2BFFDB06
(1790243626.471883) can0 18A#FE2BFFDB06
(1790243626.481353) can0 28A#0000000000000000
(1790243626.481759) can0 18A#FE2BFFDB06
(1790243626.491354) can0 38A#000005
(1790243626.492090) can0 18A#FE2BFFDB06
(1790243626.501784) can0 28A#0000000000000000
(1790243626.502301) can0 18A#FE2BFFDB06
(1790243626.511334) can0 18A#FE2BFFDB06
(1790243626.521459) can0 28A#0000000000000000
(1790243626.521968) can0 18A#FE2BFFDB06
(1790243626.531734) can0 18A#FE2BFFDB06
(1790243626.541323) can0 38A#000005
(1790243626.541788) can0 28A#0000000000000000
(1790243626.542114) can0 18A#FE2BFFDB06
(1790243626.551392) can0 18A#FE2BFFDB06
(1790243626.561761) can0 28A#0000000000000000
(1790243626.562310) can0 18A#FE2BFFDB06
(1790243626.571411) can0 18A#FE2BFFDB06
(1790243626.581773) can0 28A#0000000000000000
(1790243626.583087) can0 18A#FE2BFFDB06
(1790243626.592204) can0 38A#000005
(1790243626.593168) can0 18A#FE2BFFDB06
(1790243626.601482) can0 28A#0000000000000000
(1790243626.602014) can0 18A#FE2BFFDB06
(1790243626.611331) can0 18A#FE2BFFDB06
(1790243626.621926) can0 28A#0000000000000000
(1790243626.622477) can0 18A#FE2BFFDB06
(1790243626.631350) can0 18A#FE2BFFDB06
(1790243626.641399) can0 38A#000005
(1790243626.641887) can0 28A#0000000000000000
(1790243626.642258) can0 18A#FE2BFEDB06
(1790243626.651778) can0 18A#FE2CFEDB06
(1790243626.661523) can0 28A#0000000000000000
(1790243626.662142) can0 18A#FE2CFDDB06
(1790243626.671496) can0 18A#FE2CFEDC06
(1790243626.682005) can0 28A#0000000000000000
(1790243626.683963) can0 18A#FE2CFDDB06
(1790243626.691402) can0 38A#000005
(1790243626.691885) can0 18A#FE2CFDDB06
(1790243626.701578) can0 28A#0000000000000000
(1790243626.702054) can0 18A#FE2CFDDB06
(1790243626.711812) can0 18A#FE2CFDDC06
(1790243626.721462) can0 28A#0000000000000000
(1790243626.722002) can0 18A#FE2CFDDC06
(1790243626.731371) can0 18A#FE2CFDDC06
(1790243626.741748) can0 38A#000005
(1790243626.742299) can0 28A#0000000000000000
(1790243626.742674) can0 18A#FE2CFDDC06
(1790243626.751545) can0 18A#FE2CFDDC06
(1790243626.761599) can0 28A#0000000000000000
(1790243626.762350) can0 18A#FE2CFDDC06
(1790243626.774307) can0 18A#FE2CFDDC06
(1790243626.781587) can0 28A#0000000000000000
(1790243626.782199) can0 18A#FE2CFDDC06
(1790243626.792166) can0 38A#000005
(1790243626.793677) can0 18A#FE2CFDDC06
(1790243626.802050) can0 28A#0000000000000000
(1790243626.802715) can0 18A#FE2CFDDC06
(1790243626.811581) can0 18A#FE2CFDDC06
(1790243626.821715) can0 28A#0000000000000000
(1790243626.822349) can0 18A#FE2CFDDC06
(1790243626.831788) can0 18A#FE2CFDDC06
(1790243626.841468) can0 38A#000005
(1790243626.841966) can0 28A#0000000000000000
(1790243626.842319) can0 18A#FE2CFDDC06
(1790243626.851516) can0 18A#FE2CFDDC06
(1790243626.861902) can0 28A#0000000000000000
(1790243626.862393) can0 18A#FE2CFDDC06
(1790243626.871584) can0 18A#FE2CFDDC06
(1790243626.881671) can0 28A#0000000000000000
(1790243626.882256) can0 18A#FE2CFDDC06
(1790243626.891801) can0 38A#000005
(1790243626.892237) can0 18A#FE2CFDDC06
(1790243626.901597) can0 28A#0000000000000000
(1790243626.902229) can0 18A#FE2DFDDB06
(1790243626.911497) can0 18A#FE2DFDDC06
(1790243626.922016) can0 28A#0000000000000000
(1790243626.922672) can0 18A#FE2DFDDC06
(1790243626.931545) can0 18A#FE2DFDDB06
(1790243626.941648) can0 38A#000005
(1790243626.942275) can0 28A#0000000000000000
(1790243626.942771) can0 18A#FE2DFDDC06
(1790243626.952061) can0 18A#FE2DFDDC06
(1790243626.961659) can0 28A#0000000000000000
(1790243626.962306) can0 18A#FE2EFDDC06
(1790243626.971743) can0 18A#FE2EFDDC06
(1790243626.981934) can0 28A#0000000000000000
(1790243626.982357) can0 18A#FE2EFCDC06
(1790243626.991634) can0 38A#000005
(1790243626.992437) can0 18A#FE2EFCDC06
(1790243627.001611) can0 28A#0000000000000000
(1790243627.002070) can0 18A#FE2EFCDC06
(1790243627.011931) can0 18A#FE2EFCDC06
(1790243627.021677) can0 28A#0000000000000000
(1790243627.022236) can0 18A#FE2EFCDC06
(1790243627.031508) can0 18A#FE2EFCDC06
(1790243627.041861) can0 38A#000005
(1790243627.042337) can0 28A#0000000000000000
(1790243627.042713) can0 18A#FE2EFCDC06
(1790243627.051553) can0 18A#FE2EFDDC06
(1790243627.061573) can0 28A#0000000000000000
(1790243627.062004) can0 18A#FE2EFCDC06
(1790243627.071981) can0 18A#FE2EFCDC06
(1790243627.081519) can0 28A#0000000000000000
(1790243627.081898) can0 18A#FE2EFCDC06
(1790243627.091543) can0 38A#000005
(1790243627.092034) can0 18A#FE2EFCDC06
(1790243627.102022) can0 28A#0000000000000000
(1790243627.102512) can0 18A#FE2EFCDC06
(1790243627.111433) can0 18A#FE2EFCDC06
(1790243627.121559) can0 28A#0000000000000000
(1790243627.122027) can0 18A#FE2EFCDC06
(1790243627.131748) can0 18A#FE2EFCDC06
(1790243627.141410) can0 38A#000005
(1790243627.142054) can0 28A#0000000000000000
(1790243627.142508) can0 18A#FE2EFCDC06
(1790243627.151547) can0 18A#FE2EFCDC06
(1790243627.161820) can0 28A#0000000000000000
(1790243627.162210) can0 18A#FE2EFCDC06
(1790243627.171449) can0 18A#FE2EFCDC06
(1790243627.181435) can0 28A#0000000000000000
(1790243627.181871) can0 18A#FF2EFBDC06
(1790243627.191756) can0 38A#000005
(1790243627.192238) can0 18A#FF2FFBDC06
(1790243627.201540) can0 28A#0000000000000000
(1790243627.201996) can0 18A#FF2FFBDC06
(1790243627.211346) can0 18A#FF2FFBDC06
(1790243627.221860) can0 28A#0000000000000000
(1790243627.222306) can0 18A#FF2FFBDC06
(1790243627.231734) can0 18A#FF2FFBDC06
(1790243627.241343) can0 70A#05
(1790243627.242720) can0 38A#000005
(1790243627.243795) can0 28A#0000000000000000
(1790243627.251822) can0 18A#FF2FFBDC06
(1790243627.261386) can0 28A#0000000000000000
(1790243627.261803) can0 18A#FF2FFBDC06
(1790243627.271402) can0 18A#FF2FFBDC06
(1790243627.281947) can0 28A#0000000000000000
(1790243627.282804) can0 18A#FF2FFBDC06
(1790243627.291404) can0 38A#000005
(1790243627.292061) can0 18A#FF2FFBDC06
(1790243627.301551) can0 28A#0000000000000000
(1790243627.302186) can0 18A#FF2FFBDC06
(1790243627.311842) can0 18A#FF2FFBDC06
(1790243627.321535) can0 28A#0000000000000000
(1790243627.322170) can0 18A#FF2FFBDC06
(1790243627.331464) can0 18A#FF2FFBDC06
(1790243627.341753) can0 38A#000005
(1790243627.342402) can0 28A#0000000000000000
(1790243627.342904) can0 18A#FF2FFBDC06
(1790243627.351501) can0 18A#FF2FFBDC06
(1790243627.361480) can0 28A#0000000000000000
(1790243627.362162) can0 18A#FF2FFBDC06
(1790243627.371784) can0 18A#FF2FFBDC06
(1790243627.381408) can0 28A#0000000000000000
(1790243627.381928) can0 18A#FF2FFBDC06
(1790243627.391231) can0 38A#000005
(1790243627.391749) can0 18A#FF2FFBDC06
(1790243627.401737) can0 28A#0000000000000000
(1790243627.402288) can0 18A#FF2FFBDC06
(1790243627.411261) can0 18A#FF2FFBDC06
(1790243627.421423) can0 28A#0000000000000000
(1790243627.421973) can0 18A#FF2FFBDC06
(1790243627.431673) can0 18A#FF30FBDC06
(1790243627.441255) can0 38A#000005
(1790243627.441755) can0 28A#0000000000000000
(1790243627.442102) can0 18A#FF30FBDC06
(1790243627.451266) can0 18A#FF30FBDC06
(1790243627.461639) can0 28A#0000000000000000
(1790243627.462088) can0 18A#FF30FADC06
(1790243627.471300) can0 18A#FF30FBDC06
(1790243627.481444) can0 28A#0000000000000000
(1790243627.482076) can0 18A#FF30F9DC06
(1790243627.491692) can0 38A#000005
(1790243627.492369) can0 18A#FF30F9DC06
(1790243627.501427) can0 28A#0000000000000000
(1790243627.501951) can0 18A#FF30F9DC06
(1790243627.511206) can0 18A#FF30F9DC06
(1790243627.521624) can0 28A#0000000000000000
(1790243627.522138) can0 18A#FF30F9DC06
(1790243627.531110) can0 18A#FF30F9DC06
(1790243627.541324) can0 38A#000005
(1790243627.541932) can0 28A#0000000000000000
(1790243627.542318) can0 18A#FF30F9DC06
(1790243627.551737) can0 18A#FF30F9DC06
(1790243627.561389) can0 28A#0000000000000000
(1790243627.562053) can0 18A#FF30F9DC06
(1790243627.571348) can0 18A#FF30F9DC06
(1790243627.581708) can0 28A#0000000000000000
(1790243627.582467) can0 18A#FF30F9DC06
(1790243627.591309) can0 38A#000005
(1790243627.592087) can0 18A#FF30F9DC06
(1790243627.601387) can0 28A#0000000000000000
(1790243627.602070) can0 18A#FF30F9DC06
(1790243627.611585) can0 18A#FF30F9DC06
(1790243627.621338) can0 28A#0000000000000000
(1790243627.621942) can0 18A#FF30F9DC06
(1790243627.631214) can0 18A#FF30F8DC06
(1790243627.641557) can0 38A#000005
(1790243627.642197) can0 28A#0000000000000000
(1790243627.642656) can0 18A#FF30F8DC06
(1790243627.651221) can0 18A#FF30F9DC06
(1790243627.661306) can0 28A#0000000000000000
(1790243627.661939) can0 18A#FF30F9DC06
(1790243627.671572) can0 18A#FF30F9DC06
(1790243627.681210) can0 28A#0000000000000000
(1790243627.681792) can0 18A#FF30F9DC06
(1790243627.691211) can0 38A#000005
(1790243627.691866) can0 18A#FF31F9DC06
(1790243627.701677) can0 28A#0000000000000000
(1790243627.702365) can0 18A#FF31F9DC06
(1790243627.711154) can0 18A#FF31F9DC06
(1790243627.721265) can0 28A#0000000000000000
(1790243627.721852) can0 18A#FF31F8DC06
(1790243627.731439) can0 18A#FF31F8DC06
(1790243627.741184) can0 38A#000005
(1790243627.741823) can0 28A#0000000000000000
(1790243627.742272) can0 18A#FF31F8DC06
(1790243627.751273) can0 18A#FF32F8DC06
(1790243627.761384) can0 28A#0000000000000000
(1790243627.761877) can0 18A#FF32F8DC06
(1790243627.771206) can0 18A#FF32F8DC06
(1790243627.781099) can0 28A#0000000000000000
(1790243627.781631) can0 18A#FF32F8DC06
(1790243627.791366) can0 38A#000005
(1790243627.792010) can0 18A#FF32F8DC06
(1790243627.801223) can0 28A#0000000000000000
(1790243627.801898) can0 18A#FF32F8DC06
(1790243627.810998) can0 18A#FF32F8DC06
(1790243627.821479) can0 28A#0000000000000000
(1790243627.822050) can0 18A#FF32F8DC06
(1790243627.830952) can0 18A#FF32F8DC06
(1790243627.840988) can0 38A#000005
(1790243627.841754) can0 28A#0000000000000000
(1790243627.842312) can0 18A#FF32F8DC06
(1790243627.851389) can0 18A#FF32F8DC06
(1790243627.860985) can0 28A#0000000000000000
(1790243627.861430) can0 18A#FF32F8DC06
(1790243627.871056) can0 18A#FF32F8DC06
(1790243627.881355) can0 28A#0000000000000000
(1790243627.881838) can0 18A#FF32F8DC06
(1790243627.890916) can0 38A#000005
(1790243627.891401) can0 18A#FF32F8DC06
(1790243627.900992) can0 28A#0000000000000000
(1790243627.901504) can0 18A#FF32F8DC06
(1790243627.911131) can0 18A#FF32F8DC06
(1790243627.920980) can0 28A#0000000000000000
(1790243627.921438) can0 18A#FF32F8DC06
(1790243627.930777) can0 18A#FF32F8DC06
(1790243627.941262) can0 38A#000005
(1790243627.941803) can0 28A#0000000000000000
(1790243627.942156) can0 18A#FF32F8DC06
(1790243627.950881) can0 18A#FF32F8DC06
(1790243627.960864) can0 28A#0000000000000000
(1790243627.961371) can0 18A#0032F8DC06
(1790243627.971256) can0 18A#FF32F8DC06
(1790243627.980857) can0 28A#0000000000000000
(1790243627.981220) can0 18A#0032F8DC06
(1790243627.990828) can0 38A#000005
(1790243627.991302) can0 18A#0033F8DC06
(1790243628.001312) can0 28A#0000000000000000
(1790243628.001855) can0 18A#0033F7DC06
(1790243628.010693) can0 18A#0033F7DC06
(1790243628.020801) can0 28A#0000000000000000
(1790243628.021188) can0 18A#0033F7DC06
(1790243628.031008) can0 18A#0033F7DC06
(1790243628.040636) can0 38A#000005
(1790243628.041083) can0 28A#0000000000000000
(1790243628.041408) can0 18A#0033F7DC06
(1790243628.050787) can0 18A#0033F7DC06
(1790243628.061091) can0 28A#0000000000000000
(1790243628.061484) can0 18A#0033F7DC06
(1790243628.070680) can0 18A#0033F7DC06
(1790243628.080627) can0 28A#0000000000000000
(1790243628.080972) can0 18A#0033F7DC06
(1790243628.090981) can0 38A#000005
(1790243628.091519) can0 18A#0033F7DC06
(1790243628.100688) can0 28A#0000000000000000
(1790243628.101390) can0 18A#0033F7DC06
(1790243628.110582) can0 18A#0033F7DC06
(1790243628.121035) can0 28A#0000000000000000
(1790243628.121542) can0 18A#0033F7DC06
(1790243628.130507) can0 18A#0033F7DC06
(1790243628.140585) can0 38A#000005
(1790243628.141181) can0 28A#0000000000000000
(1790243628.141529) can0 18A#0033F7DC06
(1790243628.151014) can0 18A#0033F7DC06
(1790243628.160588) can0 28A#0000000000000000
(1790243628.161045) can0 18A#0033F7DC06
(1790243628.170581) can0 18A#0033F7DC06
(1790243628.181247) can0 28A#0000000000000000
(1790243628.181677) can0 18A#0033F7DC06
(1790243628.190475) can0 38A#000005
(1790243628.190945) can0 18A#0033F7DC06
(1790243628.200557) can0 28A#0000000000000000
(1790243628.201014) can0 18A#0033F7DC06
(1790243628.210697) can0 18A#0033F7DC06
(1790243628.220534) can0 28A#0000000000000000
(1790243628.221077) can0 18A#0033F7DC06
(1790243628.230339) can0 18A#0033F6DC06
(1790243628.240775) can0 70A#05
(1790243628.241459) can0 38A#000005
(1790243628.242122) can0 28A#0000000000000000
(1790243628.250529) can0 18A#0033F6DC06
(1790243628.260452) can0 28A#0000000000000000
(1790243628.260984) can0 18A#0034F6DC06
(1790243628.270695) can0 18A#0034F6DC06
(1790243628.280323) can0 28A#0000000000000000
(1790243628.280703) can0 18A#0034F6DC06
(1790243628.290306) can0 38A#000005
(1790243628.290766) can0 18A#0034F6DC06
(1790243628.300705) can0 28A#0000000000000000
(1790243628.301114) can0 18A#0034F5DC06
(1790243628.310145) can0 18A#0034F5DC06
(1790243628.320243) can0 28A#0000000000000000
(1790243628.320655) can0 18A#0035F5DC06
(1790243628.330438) can0 18A#0034F5DC06
(1790243628.340120) can0 38A#000005
(1790243628.340510) can0 28A#0000000000000000
(1790243628.340830) can0 18A#0034F5DC06
(1790243628.350184) can0 18A#0035F5DC06
(1790243628.360534) can0 28A#0000000000000000
(1790243628.360947) can0 18A#0035F5DC06
(1790243628.370236) can0 18A#0035F5DC06
(1790243628.380182) can0 28A#0000000000000000
(1790243628.380621) can0 18A#0035F5DC06
(1790243628.390413) can0 38A#000005
(1790243628.390830) can0 18A#0035F5DC06
(1790243628.400222) can0 28A#0000000000000000
(1790243628.400681) can0 18A#0034F5DC06
(1790243628.409997) can0 18A#0035F5DC06
(1790243628.420454) can0 28A#0000000000000000
(1790243628.420882) can0 18A#0035F5DC06
(1790243628.431476) can0 18A#0034F5DC06
(1790243628.441292) can0 38A#000005
(1790243628.443223) can0 28A#0000000000000000
(1790243628.445073) can0 18A#0035F5DC06
(1790243628.450335) can0 18A#0035F5DC06
(1790243628.459969) can0 28A#0000000000000000
(1790243628.460337) can0 18A#0034F5DC06
(1790243628.469971) can0 18A#0034F5DC06
(1790243628.480325) can0 28A#0000000000000000
(1790243628.480752) can0 18A#0034F5DC06
(1790243628.489945) can0 38A#000005
(1790243628.490440) can0 18A#0035F5DC06
(1790243628.500038) can0 28A#0000000000000000
(1790243628.500601) can0 18A#0035F5DC06
(1790243628.510162) can0 18A#0035F5DC06
(1790243628.519978) can0 28A#0000000000000000
(1790243628.520438) can0 18A#0035F5DC06
(1790243628.529814) can0 18A#0036F5DB06
(1790243628.545586) can0 38A#000005
(1790243628.546121) can0 28A#0000000000000000
(1790243628.546448) can0 18A#0036F5DB06
(1790243628.549847) can0 18A#0036F5DB06
(1790243628.559781) can0 28A#0000000000000000
(1790243628.560141) can0 18A#0036F5DB06
(1790243628.570067) can0 18A#0036F5DB06
(1790243628.579744) can0 28A#0000000000000000
(1790243628.580118) can0 18A#0036F5DB06
(1790243628.589654) can0 38A#000005
(1790243628.590090) can0 18A#0036F5DB06
(1790243628.600312) can0 28A#0000000000000000
(1790243628.600772) can0 18A#0036F5DB06
(1790243628.609666) can0 18A#0036F5DB06
(1790243628.619922) can0 28A#0000000000000000
(1790243628.622415) can0 18A#0036F5DB06
(1790243628.629983) can0 18A#0036F5DB06
(1790243628.639757) can0 38A#000005
(1790243628.640364) can0 28A#0000000000000000
(1790243628.640719) can0 18A#0036F5DB06
(1790243628.649656) can0 18A#0036F5DB06
(1790243628.659985) can0 28A#0000000000000000
(1790243628.660376) can0 18A#0036F5DB06
(1790243628.669596) can0 18A#0036F5DB06
(1790243628.679603) can0 28A#0000000000000000
(1790243628.679993) can0 18A#0036F5DB06
(1790243628.689890) can0 38A#000005
(1790243628.690335) can0 18A#0036F5DB06
(1790243628.699657) can0 28A#0000000000000000
(1790243628.700116) can0 18A#0036F5DB06
(1790243628.709621) can0 18A#0036F5DB06
(1790243628.719935) can0 28A#0000000000000000
(1790243628.720348) can0 18A#0036F5DB06
(1790243628.729432) can0 18A#0036F5DB06
(1790243628.739502) can0 38A#000005
(1790243628.739969) can0 28A#0000000000000000
(1790243628.740301) can0 18A#0036F5DB06
(1790243628.749812) can0 18A#0037F5DB06
(1790243628.759478) can0 28A#0000000000000000
(1790243628.759869) can0 18A#0037F5DB06
(1790243628.769401) can0 18A#0037F5DA06
(1790243628.779732) can0 28A#0000000000000000
(1790243628.780104) can0 18A#0037F4DB06
(1790243628.789431) can0 38A#000005
(1790243628.789921) can0 18A#0037F4DB06
(1790243628.799505) can0 28A#0000000000000000
(1790243628.799943) can0 18A#0037F4DB06
(1790243628.809579) can0 18A#0037F4DB06
(1790243628.819401) can0 28A#0000000000000000
(1790243628.819796) can0 18A#0037F4DB06
(1790243628.829233) can0 18A#0037F4DB06
(1790243628.839532) can0 38A#000005
(1790243628.839992) can0 28A#0000000000000000
(1790243628.840310) can0 18A#0037F4DB06
(1790243628.849421) can0 18A#0037F4DB06
(1790243628.859276) can0 28A#0000000000000000
(1790243628.859667) can0 18A#0037F4DB06
(1790243628.869673) can0 18A#0037F4DB06
(1790243628.879228) can0 28A#0000000000000000
(1790243628.879616) can0 18A#0037F4DB06
(1790243628.889198) can0 38A#000005
(1790243628.889683) can0 18A#0037F4DB06
(1790243628.899683) can0 28A#0000000000000000
(1790243628.900246) can0 18A#0037F4DB06
(1790243628.909121) can0 18A#0037F4DB06
(1790243628.919234) can0 28A#0000000000000000
(1790243628.919682) can0 18A#0037F4DB06
(1790243628.929461) can0 18A#0037F4DB06
(1790243628.939137) can0 38A#000005
(1790243628.939684) can0 28A#0000000000000000
(1790243628.940107) can0 18A#0037F4DB06
(1790243628.949127) can0 18A#0037F4DB06
(1790243628.959439) can0 28A#0000000000000000
(1790243628.959823) can0 18A#0037F4DB06
(1790243628.969093) can0 18A#0037F4DB06
(1790243628.979060) can0 28A#0000000000000000
(1790243628.979418) can0 18A#0037F4DB06
(1790243628.989352) can0 38A#000005
(1790243628.989780) can0 18A#0037F4DB06
(1790243628.999139) can0 28A#0000000000000000
(1790243628.999695) can0 18A#0037F4DC06
(1790243629.008980) can0 18A#0038F4DC06
(1790243629.019391) can0 28A#0000000000000000
(1790243629.019893) can0 18A#0038F4DC06
(1790243629.028912) can0 18A#0038F4DC06
(1790243629.038873) can0 38A#000005
(1790243629.039323) can0 28A#0000000000000000
(1790243629.039670) can0 18A#0038F4DC06
(1790243629.049252) can0 18A#0038F4DD06
(1790243629.059007) can0 28A#0000000000000000
(1790243629.059850) can0 18A#0038F4DD06
(1790243629.068749) can0 18A#0138F3DD06
(1790243629.079144) can0 28A#0000000000000000
(1790243629.079523) can0 18A#0038F4DD06
(1790243629.088666) can0 38A#000005
(1790243629.089128) can0 18A#0038F4DD06
(1790243629.098803) can0 28A#0000000000000000
(1790243629.099195) can0 18A#0038F4DD06
(1790243629.108986) can0 18A#0038F4DD06
(1790243629.118910) can0 28A#0000000000000000
(1790243629.119359) can0 18A#0138F3DD06
(1790243629.128633) can0 18A#0038F4DD06
(1790243629.139019) can0 38A#000005
(1790243629.139551) can0 28A#0000000000000000
(1790243629.139948) can0 18A#0138F3DD06
(1790243629.148588) can0 18A#0138F3DD06
(1790243629.158620) can0 28A#0000000000000000
(1790243629.158997) can0 18A#0138F3DD06
(1790243629.168882) can0 18A#0138F3DD06
(1790243629.178630) can0 28A#0000000000000000
(1790243629.179079) can0 18A#0138F3DD06
(1790243629.188613) can0 38A#000005
(1790243629.189142) can0 18A#0038F4DD06
(1790243629.198952) can0 28A#0000000000000000
(1790243629.199513) can0 18A#0138F3DD06
(1790243629.208420) can0 18A#0138F3DD06
(1790243629.218565) can0 28A#0000000000000000
(1790243629.219040) can0 18A#0038F4DD06
(1790243629.228711) can0 18A#0038F4DD06
(1790243629.238362) can0 70A#05
(1790243629.238827) can0 38A#000005
(1790243629.239201) can0 28A#0000000000000000
(1790243629.248468) can0 18A#0038F4DD06
(1790243629.258720) can0 28A#0000000000000000
(1790243629.259162) can0 18A#0038F4DD06
(1790243629.268348) can0 18A#0038F4DD06
(1790243629.278257) can0 28A#0000000000000000
(1790243629.278664) can0 18A#0038F4DD06
(1790243629.288558) can0 38A#000005
(1790243629.289037) can0 18A#0038F4DD06
(1790243629.298356) can0 28A#0000000000000000
(1790243629.298881) can0 18A#0038F4DD06
(1790243629.308175) can0 18A#0038F4DD06
(1790243629.318593) can0 28A#0000000000000000
(1790243629.319070) can0 18A#0138F3DD06
(1790243629.328099) can0 18A#0138F3DE06
(1790243629.338121) can0 38A#000005
(1790243629.338607) can0 28A#0000000000000000
(1790243629.338945) can0 18A#0138F3DE06
(1790243629.348473) can0 18A#0138F3DE06
(1790243629.358073) can0 28A#0000000000000000
(1790243629.358451) can0 18A#0138F3DE06
(1790243629.368102) can0 18A#0138F3DF06
(1790243629.378350) can0 28A#0000000000000000
(1790243629.378768) can0 18A#0138F3DF06
(1790243629.387880) can0 38A#000005
(1790243629.388347) can0 18A#0138F3DF06
(1790243629.398103) can0 28A#0000000000000000
(1790243629.398745) can0 18A#0138F3DF06
(1790243629.408170) can0 18A#0138F3DF06
(1790243629.417993) can0 28A#0000000000000000
(1790243629.418451) can0 18A#0138F3DF06
(1790243629.427827) can0 18A#0138F3DF06
(1790243629.438243) can0 38A#000005
(1790243629.438760) can0 28A#0000000000000000
(1790243629.439099) can0 18A#0138F3DF06
(1790243629.447873) can0 18A#0138F3DF06
(1790243629.457845) can0 28A#0000000000000000
(1790243629.458254) can0 18A#0138F3DF06
(1790243629.468175) can0 18A#0138F3DF06
(1790243629.477775) can0 28A#0000000000000000
(1790243629.478386) can0 18A#0138F3DF06
(1790243629.487710) can0 38A#000005
(1790243629.488303) can0 18A#0138F3DF06
(1790243629.498207) can0 28A#0000000000000000
(1790243629.498695) can0 18A#0138F3DF06
(1790243629.507535) can0 18A#0138F3DF06
(1790243629.517735) can0 28A#0000000000000000
(1790243629.518179) can0 18A#0138F3DF06
(1790243629.527867) can0 18A#0138F3DF06
(1790243629.537454) can0 38A#000005
(1790243629.537878) can0 28A#0000000000000000
(1790243629.538191) can0 18A#0138F3DF06
(1790243629.547549) can0 18A#0138F3DF06
(1790243629.557930) can0 28A#0000000000000000
(1790243629.558349) can0 18A#0138F3DF06
(1790243629.567506) can0 18A#0138F3DF06
(1790243629.579209) can0 28A#0000000000000000
(1790243629.579915) can0 18A#0138F3DF06
(1790243629.587697) can0 38A#000005
(1790243629.588115) can0 18A#0138F3DF06
(1790243629.597451) can0 28A#0000000000000000
(1790243629.597861) can0 18A#0138F3DF06
(1790243629.607292) can0 18A#0138F3E006
(1790243629.617726) can0 28A#0000000000000000
(1790243629.618168) can0 18A#0138F3E006
(1790243629.627284) can0 18A#0139F3E006
(1790243629.637403) can0 38A#000005
(1790243629.638103) can0 28A#0000000000000000
(1790243629.638510) can0 18A#0139F3E006
(1790243629.648602) can0 18A#0139F3E006
(1790243629.657303) can0 28A#0000000000000000
(1790243629.657702) can0 18A#0139F3E006
(1790243629.667145) can0 18A#0139F3E006
(1790243629.677521) can0 28A#0000000000000000
(1790243629.677913) can0 18A#0139F3E006
(1790243629.687183) can0 38A#000005
(1790243629.687674) can0 18A#0139F3E006
(1790243629.697259) can0 28A#0000000000000000
(1790243629.697758) can0 18A#0139F3E006
(1790243629.707387) can0 18A#0139F3E006
(1790243629.717167) can0 28A#0000000000000000
(1790243629.717620) can0 18A#0139F3E006
(1790243629.726985) can0 18A#0139F3E006
(1790243629.737396) can0 38A#000005
(1790243629.737917) can0 28A#0000000000000000
(1790243629.738292) can0 18A#0139F3E006
(1790243629.747064) can0 18A#0139F3E006
(1790243629.757005) can0 28A#0000000000000000
(1790243629.757436) can0 18A#0139F3E006
(1790243629.767392) can0 18A#0139F3E006
(1790243629.776954) can0 28A#0000000000000000
(1790243629.777347) can0 18A#0139F3E006
(1790243629.786905) can0 38A#000005
(1790243629.787407) can0 18A#0139F3E006
(1790243629.797331) can0 28A#0000000000000000
(1790243629.797815) can0 18A#0139F3E006
(1790243629.806772) can0 18A#0139F3E006
(1790243629.816927) can0 28A#0000000000000000
(1790243629.817387) can0 18A#0139F3E006
(1790243629.827099) can0 18A#0139F3E106
(1790243629.836761) can0 38A#000005
(1790243629.837257) can0 28A#0000000000000000
(1790243629.837636) can0 18A#0139F3E106
(1790243629.846827) can0 18A#0139F3E106
(1790243629.857128) can0 28A#0000000000000000
(1790243629.857543) can0 18A#0139F3E106
(1790243629.866750) can0 18A#0139F3E206
(1790243629.876746) can0 28A#0000000000000000
(1790243629.877200) can0 18A#0139F3E206
(1790243629.887050) can0 38A#000005
(1790243629.887594) can0 18A#0139F3E206
(1790243629.896752) can0 28A#0000000000000000
(1790243629.897256) can0 18A#0139F3E206
(1790243629.906552) can0 18A#0139F3E306
(1790243629.916932) can0 28A#0000000000000000
(1790243629.917410) can0 18A#0139F3E306
(1790243629.926404) can0 18A#0139F3E306
(1790243629.936434) can0 38A#000005
(1790243629.936888) can0 28A#0000000000000000
(1790243629.937436) can0 18A#0139F3E306
(1790243629.946782) can0 18A#0139F3E306
(1790243629.956460) can0 28A#0000000000000000
(1790243629.956831) can0 18A#0139F3E306
(1790243629.966394) can0 18A#0139F3E306
(1790243629.976729) can0 28A#0000000000000000
(1790243629.977133) can0 18A#0139F3E306
(1790243629.986388) can0 38A#000005
(1790243629.986938) can0 18A#0139F3E306
(1790243629.996440) can0 28A#0000000000000000
(1790243629.996910) can0 18A#0139F3E306
(1790243630.006592) can0 18A#0139F3E306
(1790243630.016366) can0 28A#0000000000000000
(1790243630.016809) can0 18A#0139F3E306
(1790243630.026156) can0 18A#0139F3E306
(1790243630.036487) can0 38A#000005
(1790243630.036947) can0 28A#0000000000000000
(1790243630.037308) can0 18A#0139F3E306
(1790243630.046133) can0 18A#0139F3E306
(1790243630.056050) can0 28A#0000000000000000
(1790243630.056392) can0 18A#0139F3E306
(1790243630.066440) can0 18A#0139F3E306
(1790243630.076041) can0 28A#0000000000000000
(1790243630.076437) can0 18A#0139F3E306
(1790243630.085950) can0 38A#000005
(1790243630.086393) can0 18A#0139F3E306
(1790243630.096744) can0 28A#0000000000000000
(1790243630.097523) can0 18A#0139F3E306
(1790243630.105923) can0 18A#0139F3E306
(1790243630.116007) can0 28A#0000000000000000
(1790243630.116469) can0 18A#0139F3E406
(1790243630.126205) can0 18A#0139F3E406
(1790243630.135871) can0 38A#000005
(1790243630.136390) can0 28A#0000000000000000
(1790243630.136748) can0 18A#0139F3E406
(1790243630.145827) can0 18A#0139F3E406
(1790243630.156097) can0 28A#0000000000000000
(1790243630.156503) can0 18A#0139F3E506
(1790243630.165683) can0 18A#0139F3E506
(1790243630.175716) can0 28A#0000000000000000
(1790243630.176122) can0 18A#0139F3E506
(1790243630.185914) can0 38A#000005
(1790243630.186318) can0 18A#0139F3E506
(1790243630.195671) can0 28A#0000000000000000
(1790243630.196102) can0 18A#0139F3E506
(1790243630.205540) can0 18A#0139F3E506
(1790243630.215980) can0 28A#0000000000000000
(1790243630.216389) can0 18A#0139F3E506
(1790243630.225491) can0 18A#0139F3E506
(1790243630.235454) can0 70A#05
(1790243630.236006) can0 38A#000005
(1790243630.236385) can0 28A#0000000000000000
(1790243630.245771) can0 18A#0139F3E506
(1790243630.255426) can0 28A#0000000000000000
(1790243630.255791) can0 18A#0139F3E506
(1790243630.265387) can0 18A#0139F3E506
(1790243630.275780) can0 28A#0000000000000000
(1790243630.276191) can0 18A#0139F3E506
(1790243630.285356) can0 38A#000005
(1790243630.285858) can0 18A#0139F3E506
(1790243630.295413) can0 28A#0000000000000000
(1790243630.295823) can0 18A#0139F3E506
(1790243630.305513) can0 18A#0139F3E506
(1790243630.315311) can0 28A#0000000000000000
(1790243630.315750) can0 18A#0139F3E506
(1790243630.325147) can0 18A#0139F3E506
(1790243630.335531) can0 38A#000005
(1790243630.336087) can0 28A#0000000000000000
(1790243630.336507) can0 18A#0139F3E506
(1790243630.345202) can0 18A#0139F3E506
(1790243630.355102) can0 28A#0000000000000000
(1790243630.355611) can0 18A#0139F3E506
(1790243630.365506) can0 18A#0139F3E506
(1790243630.375096) can0 28A#0000000000000000
(1790243630.375538) can0 18A#0139F3E506
(1790243630.385020) can0 38A#000005
(1790243630.385531) can0 18A#0139F3E506
(1790243630.395322) can0 28A#0000000000000000
(1790243630.395730) can0 18A#0139F3E506
(1790243630.404883) can0 18A#0139F3E506
(1790243630.415014) can0 28A#0000000000000000
(1790243630.415613) can0 18A#0139F3E606
(1790243630.425388) can0 18A#0139F4E606
(1790243630.434918) can0 38A#000005
(1790243630.435696) can0 28A#0000000000000000
(1790243630.436348) can0 18A#013AF4E606
(1790243630.444798) can0 18A#013AF4E606
(1790243630.455061) can0 28A#0000000000000000
(1790243630.455442) can0 18A#013AF4E706
(1790243630.464625) can0 18A#013AF4E706
(1790243630.474667) can0 28A#0000000000000000
(1790243630.475097) can0 18A#013AF4E706
(1790243630.484879) can0 38A#000005
(1790243630.485389) can0 18A#013AF4E706
(1790243630.494816) can0 28A#0000000000000000
(1790243630.495483) can0 18A#013AF4E706
(1790243630.504675) can0 18A#013AF4E706
(1790243630.515091) can0 28A#0000000000000000
(1790243630.515677) can0 18A#013AF4E706
(1790243630.524694) can0 18A#013AF4E706
(1790243630.534604) can0 38A#000005
(1790243630.535246) can0 28A#0000000000000000
(1790243630.535637) can0 18A#013AF4E706
(1790243630.544983) can0 18A#013AF4E706
(1790243630.554640) can0 28A#0000000000000000
(1790243630.555301) can0 18A#013AF4E706
(1790243630.564493) can0 18A#013AF4E706
(1790243630.574800) can0 28A#0000000000000000
(1790243630.575359) can0 18A#013AF4E706
(1790243630.584410) can0 38A#000005
(1790243630.584997) can0 18A#013AF4E706
(1790243630.594414) can0 28A#0000000000000000
(1790243630.595030) can0 18A#013AF4E706
(1790243630.605121) can0 18A#013AF4E706
(1790243630.614364) can0 28A#0000000000000000
(1790243630.614955) can0 18A#013AF4E706
(1790243630.624195) can0 18A#013AF4E706
(1790243630.634555) can0 38A#000005
(1790243630.635140) can0 28A#0000000000000000
(1790243630.635567) can0 18A#013AF4E706
(1790243630.644217) can0 18A#013AF4E706
(1790243630.654109) can0 28A#0000000000000000
(1790243630.654565) can0 18A#013AF4E706
(1790243630.664536) can0 18A#013AF4E706
(1790243630.674097) can0 28A#0000000000000000
(1790243630.674583) can0 18A#013AF4E706
(1790243630.684067) can0 38A#000005
(1790243630.684660) can0 18A#013AF4E806
(1790243630.694556) can0 28A#0000000000000000
(1790243630.695287) can0 18A#013AF4E806
(1790243630.703940) can0 18A#013AF4E806
(1790243630.713983) can0 28A#0000000000000000
(1790243630.714541) can0 18A#013AF4E806
(1790243630.724157) can0 18A#013AF4E806
(1790243630.733749) can0 38A#000005
(1790243630.734296) can0 28A#0000000000000000
(1790243630.734709) can0 18A#013AF4E806
(1790243630.743949) can0 18A#013AF4E806
(1790243630.754246) can0 28A#0000000000000000
(1790243630.754880) can0 18A#013AF4E806
(1790243630.763889) can0 18A#013AF4E806
(1790243630.773797) can0 28A#0000000000000000
(1790243630.774337) can0 18A#013AF4E806
(1790243630.784022) can0 38A#000005
(1790243630.784673) can0 18A#013AF4E806
(1790243630.793816) can0 28A#0000000000000000
(1790243630.794532) can0 18A#013AF4E806
(1790243630.803644) can0 18A#013AF4E806
(1790243630.814010) can0 28A#0000000000000000
(1790243630.814610) can0 18A#013AF4E806
(1790243630.823404) can0 18A#013AF4E806
(1790243630.833520) can0 38A#000005
(1790243630.834201) can0 28A#0000000000000000
(1790243630.834610) can0 18A#013AF4E806
(1790243630.843860) can0 18A#013AF4E806
(1790243630.853420) can0 28A#0000000000000000
(1790243630.853928) can0 18A#013AF4E806
(1790243630.863462) can0 18A#013AF4E806
(1790243630.873759) can0 28A#0000000000000000
(1790243630.874302) can0 18A#013AF4E806
(1790243630.883331) can0 38A#000005
(1790243630.883877) can0 18A#013AF4E806
(1790243630.893394) can0 28A#0000000000000000
(1790243630.894043) can0 18A#013AF4E906
(1790243630.903561) can0 18A#013AF4E906
(1790243630.913323) can0 28A#0000000000000000
(1790243630.914121) can0 18A#013AF4E906
(1790243630.923239) can0 18A#013AF4E906
(1790243630.933541) can0 38A#000005
(1790243630.934373) can0 28A#0CFE520000000000
(1790243630.935015) can0 18A#013AF5EA0E
(1790243630.943257) can0 18A#013AF5EA0E
(1790243630.953123) can0 28A#0CFE500000000000
(1790243630.953923) can0 18A#013AF5EA0E
(1790243630.963299) can0 18A#013AF5EB0E
(1790243630.972897) can0 28A#0CFE500000000000
(1790243630.973306) can0 18A#013AF5EB0E
(1790243630.982851) can0 38A#000005
(1790243630.983309) can0 18A#013AF5EB0E
(1790243630.993298) can0 28A#0CFE500000000000
(1790243630.994008) can0 18A#013AF5EB0E
(1790243631.002833) can0 18A#013AF5EB0E
(1790243631.012893) can0 28A#0CFE500000000000
(1790243631.013387) can0 18A#013AF5EB0E
(1790243631.023013) can0 18A#013AF5EB0E
(1790243631.032709) can0 38A#000005
(1790243631.033206) can0 28A#0CFE500000000000
(1790243631.033552) can0 18A#013AF5EB0E
(1790243631.042760) can0 18A#013AF5EB0E
(1790243631.052984) can0 28A#0CFE500000000000
(1790243631.053430) can0 18A#013AF5EB0E
(1790243631.062573) can0 18A#013AF5EB0E
(1790243631.072557) can0 28A#0CFE500000000000
(1790243631.072943) can0 18A#013AF5EB0E
(1790243631.082831) can0 38A#000005
(1790243631.083352) can0 18A#013AF5EB0E
(1790243631.092870) can0 28A#0CFE500000000000
(1790243631.094852) can0 18A#013AF5EB0E
(1790243631.102334) can0 18A#013AF5EB0E
(1790243631.112813) can0 28A#0CFE500000000000
(1790243631.113312) can0 18A#013AF5EB0E
(1790243631.122213) can0 18A#013AF5EB0E
(1790243631.135927) can0 38A#000005
(1790243631.136469) can0 28A#12FE500000000000
(1790243631.136814) can0 18A#013AF5EB0E
(1790243631.142634) can0 18A#013AF5EB0E
(1790243631.152465) can0 28A#12FE4F0000000000
(1790243631.153195) can0 18A#013AF5EB0E
(1790243631.162239) can0 18A#013AF5EB0E
(1790243631.172482) can0 28A#12FE4C0000000000
(1790243631.172916) can0 18A#013AF5EC0E
(1790243631.182124) can0 38A#000005
(1790243631.182676) can0 18A#013AF5EC0E
(1790243631.192201) can0 28A#12FE4A0000000000
(1790243631.192784) can0 18A#013AF5EC0E
(1790243631.202313) can0 18A#013AF5EC0E
(1790243631.212112) can0 28A#12FE480000000000
(1790243631.212612) can0 18A#013AF5ED0E
(1790243631.221812) can0 18A#013AF6ED0E
(1790243631.232043) can0 70A#05
(1790243631.232441) can0 38A#000005
(1790243631.232832) can0 28A#12FE460000000000
(1790243631.241852) can0 18A#013AF6ED0E
(1790243631.251818) can0 28A#12FE470000000000
(1790243631.252189) can0 18A#013AF7ED0E
(1790243631.262084) can0 18A#013AF7EE0E
(1790243631.271759) can0 28A#12FE470000000000
(1790243631.272170) can0 18A#013AF6EE0E
(1790243631.281657) can0 38A#000005
(1790243631.282110) can0 18A#013AF7EE0E
(1790243631.292062) can0 28A#12FE470000000000
(1790243631.292636) can0 18A#013AF6EE0E
(1790243631.301520) can0 18A#013AF6EE0E
(1790243631.311655) can0 28A#12FE470000000000
(1790243631.312147) can0 18A#013AF7EE0E
(1790243631.321794) can0 18A#013AF6EE0E
(1790243631.331430) can0 38A#000005
(1790243631.331892) can0 28A#12FE470000000000
(1790243631.332265) can0 18A#013AF6EE0E
(1790243631.341525) can0 18A#013AF7EE0E
(1790243631.351768) can0 28A#12FE470000000000
(1790243631.352303) can0 18A#013AF6EE0E
(1790243631.361562) can0 18A#013AF7EE0E
(1790243631.371440) can0 28A#12FE470000000000
(1790243631.371986) can0 18A#013AF6EE0E
(1790243631.381516) can0 38A#000005
(1790243631.381988) can0 18A#013AF6EE0E
(1790243631.391430) can0 28A#12FE470000000000
(1790243631.391861) can0 18A#013AF7EE0E
(1790243631.401110) can0 18A#013AF6EE0E
(1790243631.411593) can0 28A#12FE470000000000
(1790243631.412203) can0 18A#013AF7EE0E
(1790243631.421095) can0 18A#013AF6EE0E
(1790243631.431143) can0 38A#000005
(1790243631.431889) can0 28A#12FE470000000000
(1790243631.432432) can0 18A#013AF6EE0E
(1790243631.441655) can0 18A#013AF7EE0E
(1790243631.451158) can0 28A#12FE450000000000
(1790243631.451904) can0 18A#003AF7EE0E
(1790243631.461030) can0 18A#013AF7EE0E
(1790243631.471382) can0 28A#17FE420000000000
(1790243631.472102) can0 18A#013AF7EE0E
(1790243631.480858) can0 38A#000005
(1790243631.481453) can0 18A#003AF7EE0E
(1790243631.491122) can0 28A#17FE3F0000000000
(1790243631.491741) can0 18A#003BF7EF0E
(1790243631.501036) can0 18A#003BF7EF0E
(1790243631.510775) can0 28A#17FE3C0000000000
(1790243631.511257) can0 18A#003BF7EF0E
(1790243631.520622) can0 18A#003BF7F00E
(1790243631.530889) can0 38A#000005
(1790243631.531369) can0 28A#17FE3B0000000000
(1790243631.531777) can0 18A#003BF7F00E
(1790243631.540573) can0 18A#003BF7F00E
(1790243631.550515) can0 28A#17FE3C0000000000
(1790243631.551008) can0 18A#003BF7F00E
(1790243631.560855) can0 18A#003BF7F00E
(1790243631.570549) can0 28A#17FE3C0000000000
(1790243631.571324) can0 18A#003BF7F00E
(1790243631.580415) can0 38A#000005
(1790243631.581033) can0 18A#003BF7F00E
(1790243631.590869) can0 28A#17FE3B0000000000
(1790243631.591638) can0 18A#003BF7F00E
(1790243631.600327) can0 18A#003BF7F00E
(1790243631.611676) can0 28A#17FE3C0000000000
(1790243631.612353) can0 18A#003BF7F00E
(1790243631.620526) can0 18A#003BF7F00E
(1790243631.630175) can0 38A#000005
(1790243631.630636) can0 28A#17FE3B0000000000
(1790243631.630897) can0 18A#003BF7F00E
(1790243631.640182) can0 18A#003BF7F00E
(1790243631.650437) can0 28A#17FE3C0000000000
(1790243631.650817) can0 18A#003BF7F00E
(1790243631.660090) can0 18A#003BF7F00E
(1790243631.670008) can0 28A#17FE3B0000000000
(1790243631.670520) can0 18A#003BF7F00E
(1790243631.682451) can0 38A#000005
(1790243631.684861) can0 18A#003BF7F00E
(1790243631.689978) can0 28A#17FE3B0000000000
(1790243631.690397) can0 18A#003BF7F00E
(1790243631.699925) can0 18A#003BF7F00E
(1790243631.710338) can0 28A#17FE370000000000
(1790243631.710982) can0 18A#003BF8F00E
(1790243631.719877) can0 18A#003BF8F10E
(1790243631.729882) can0 38A#000005
(1790243631.730629) can0 28A#17FE340000000000
(1790243631.731280) can0 18A#003BF8F10E
(1790243631.740215) can0 18A#003BF8F20E
(1790243631.749801) can0 28A#17FE310000000000
(1790243631.750759) can0 18A#003BF8F20E
(1790243631.759697) can0 18A#003BF8F20E
(1790243631.769923) can0 28A#17FE2E0000000000
(1790243631.770325) can0 18A#003BF8F30E
(1790243631.779443) can0 38A#000005
(1790243631.779824) can0 18A#003BF8F30E
(1790243631.789573) can0 28A#1CFE2E0000000000
(1790243631.790180) can0 18A#003BF8F30E
(1790243631.799717) can0 18A#003BF8F30E
(1790243631.809508) can0 28A#1CFE2E0000000000
(1790243631.809974) can0 18A#003BF8F30E
(1790243631.819358) can0 18A#003BF8F30E
(1790243631.829615) can0 38A#000005
(1790243631.829991) can0 28A#17FE2E0000000000
(1790243631.830319) can0 18A#003BF8F30E
(1790243631.839294) can0 18A#003BF8F30E
(1790243631.849381) can0 28A#1CFE2E0000000000
(1790243631.849937) can0 18A#003BF8F30E
(1790243631.859770) can0 18A#003BF8F30E
(1790243631.869276) can0 28A#17FE2E0000000000
(1790243631.869872) can0 18A#003BF8F30E
(1790243631.879240) can0 38A#000005
(1790243631.879768) can0 18A#003BF8F30E
(1790243631.889523) can0 28A#1CFE2E0000000000
(1790243631.890103) can0 18A#003BF8F30E
(1790243631.898984) can0 18A#003BF8F30E
(1790243631.909107) can0 28A#1CFE2E0000000000
(1790243631.909603) can0 18A#003BF8F30E
(1790243631.919275) can0 18A#003BF8F30E
(1790243631.928944) can0 38A#000005
(1790243631.929495) can0 28A#1CFE2E0000000000
(1790243631.929930) can0 18A#003BF8F30E
(1790243631.939196) can0 18A#003BF8F30E
(1790243631.949312) can0 28A#1CFE2B0000000000
(1790243631.950046) can0 18A#003BF9F30E
(1790243631.958856) can0 18A#003BF9F30E
(1790243631.968924) can0 28A#1CFE270000000000
(1790243631.969706) can0 18A#003BF9F40E
(1790243631.979143) can0 38A#000005
(1790243631.979763) can0 18A#003BF9F40E
(1790243631.988898) can0 28A#1CFE240000000000
(1790243631.989689) can0 18A#003BFAF40E
(1790243631.998779) can0 18A#003BFAF50E
(1790243632.008990) can0 28A#1CFE1F0000000000
(1790243632.009455) can0 18A#003BFAF50E
(1790243632.018502) can0 18A#003BFBF60E
(1790243632.028381) can0 38A#000005
(1790243632.028906) can0 28A#1CFE1E0000000000
(1790243632.029547) can0 18A#003BFBF60E
(1790243632.038898) can0 18A#003BFBF60E
(1790243632.048444) can0 28A#1CFE1E0000000000
(1790243632.048891) can0 18A#003BFBF60E
(1790243632.058395) can0 18A#003BFBF60E
(1790243632.068816) can0 28A#1CFE1E0000000000
(1790243632.069507) can0 18A#003BFBF60E
(1790243632.078402) can0 38A#000005
(1790243632.079217) can0 18A#003BFBF60E
(1790243632.088763) can0 28A#1CFE1E0000000000
(1790243632.089592) can0 18A#003BFBF60E
(1790243632.098603) can0 18A#003BFBF60E
(1790243632.108487) can0 28A#1CFE1E0000000000
(1790243632.109211) can0 18A#003BFBF60E
(1790243632.118082) can0 18A#003BFBF60E
(1790243632.128348) can0 38A#000005
(1790243632.128891) can0 28A#1CFE1E0000000000
(1790243632.129264) can0 18A#003BFBF60E
(1790243632.138039) can0 18A#003BFBF60E
(1790243632.147960) can0 28A#1CFE1E0000000000
(1790243632.148406) can0 18A#003BFBF60E
(1790243632.164521) can0 18A#003BFBF60E
(1790243632.167867) can0 28A#1CFE1E0000000000
(1790243632.168251) can0 18A#003BFBF60E
(1790243632.177693) can0 38A#000005
(1790243632.178237) can0 18A#003BFBF60E
(1790243632.188294) can0 28A#1CFE1E0000000000
(1790243632.189009) can0 18A#003BFBF60E
(1790243632.197713) can0 18A#003BFBF60E
(1790243632.207798) can0 28A#1CFE1C0000000000
(1790243632.208397) can0 18A#003BFBF60E
(1790243632.218354) can0 18A#003BFBF70E
(1790243632.227556) can0 70A#05
(1790243632.228087) can0 38A#000005
(1790243632.228568) can0 28A#1CFE180000000000
(1790243632.237745) can0 18A#003BFBF70E
(1790243632.247943) can0 28A#1CFE130000000000
(1790243632.248557) can0 18A#003BFBF80E
(1790243632.257506) can0 18A#003BFBF80E
(1790243632.267507) can0 28A#1CFE0E0000000000
(1790243632.268116) can0 18A#003BFBF80E
(1790243632.277723) can0 38A#000005
(1790243632.278345) can0 18A#003BFBF90E
(1790243632.287391) can0 28A#1CFE0C0000000000
(1790243632.287825) can0 18A#003BFBF90E
(1790243632.297108) can0 18A#003BFBF90E
(1790243632.307498) can0 28A#1CFE0C0000000000
(1790243632.307944) can0 18A#003BFBFA0E
(1790243632.317011) can0 18A#003BFBFA0E
(1790243632.327076) can0 38A#000005
(1790243632.327564) can0 28A#1CFE0C0000000000
(1790243632.327876) can0 18A#003BFBFA0E
(1790243632.337415) can0 18A#003BFBFA0E
(1790243632.346971) can0 28A#1CFE0C0000000000
(1790243632.347374) can0 18A#003BFBFA0E
(1790243632.356899) can0 18A#003BFBFA0E
(1790243632.367264) can0 28A#1CFE0C0000000000
(1790243632.367841) can0 18A#003BFBFA0E
(1790243632.376870) can0 38A#000005
(1790243632.377424) can0 18A#003BFBFA0E
(1790243632.387012) can0 28A#1CFE0C0000000000
(1790243632.387512) can0 18A#003BFBFA0E
(1790243632.397031) can0 18A#003BFBFA0E
(1790243632.406714) can0 28A#1CFE0C0000000000
(1790243632.407225) can0 18A#003BFBFA0E
(1790243632.416607) can0 18A#003BFBFA0E
(1790243632.426963) can0 38A#000005
(1790243632.427541) can0 28A#1CFE0C0000000000
(1790243632.427944) can0 18A#003BFBFA0E
(1790243632.436593) can0 18A#003BFBFA0E
(1790243632.446537) can0 28A#1CFE0C0000000000
(1790243632.447024) can0 18A#003BFBFA0E
(1790243632.456833) can0 18A#003BFBFA0E
(1790243632.466437) can0 28A#1CFE0C0000000000
(1790243632.466864) can0 18A#003BFBFA0E
(1790243632.476330) can0 38A#000005
(1790243632.476787) can0 18A#003BFBFA0E
(1790243632.486736) can0 28A#1CFE0C0000000000
(1790243632.487283) can0 18A#003BFBFA0E
(1790243632.496175) can0 18A#003BFBFA0E
(1790243632.506251) can0 28A#1CFE0C0000000000
(1790243632.506694) can0 18A#003BFBFA0E
(1790243632.516518) can0 18A#003BFBFA0E
(1790243632.526168) can0 38A#000005
(1790243632.526974) can0 28A#1CFE070000000000
(1790243632.527537) can0 18A#003BFBFA0E
(1790243632.536138) can0 18A#003BFCFA0E
(1790243632.546442) can0 28A#1CFE020000000000
(1790243632.546942) can0 18A#003BFCFB0E
(1790243632.555987) can0 18A#003BFCFB0E
(1790243632.565965) can0 28A#22FEFFFF00000000
(1790243632.566421) can0 18A#003BFDFC0E
(1790243632.576274) can0 38A#000005
(1790243632.576845) can0 18A#003BFDFD0E
(1790243632.585915) can0 28A#22FEFBFF00000000
(1790243632.586653) can0 18A#003BFDFD0E
(1790243632.595658) can0 18A#003BFDFD0E
(1790243632.606093) can0 28A#22FEFBFF00000000
(1790243632.606538) can0 18A#003BFDFD0E
(1790243632.615625) can0 18A#003BFDFD0E
(1790243632.625591) can0 38A#000005
(1790243632.626092) can0 28A#22FEFBFF00000000
(1790243632.626472) can0 18A#003BFDFD0E
(1790243632.635917) can0 18A#003BFDFD0E
(1790243632.645527) can0 28A#22FEFBFF00000000
(1790243632.645993) can0 18A#003BFDFD0E
(1790243632.655533) can0 18A#003BFDFD0E
(1790243632.666159) can0 28A#22FEFBFF00000000
(1790243632.667741) can0 18A#003BFDFD0E
(1790243632.676599) can0 38A#000005
(1790243632.677085) can0 18A#003BFDFD0E
(1790243632.685431) can0 28A#22FEFBFF00000000
(1790243632.685898) can0 18A#003BFDFD0E
(1790243632.695579) can0 18A#003BFDFD0E
(1790243632.705338) can0 28A#22FEFBFF00000000
(1790243632.705770) can0 18A#003BFDFD0E
(1790243632.715220) can0 18A#003BFDFD0E
(1790243632.725555) can0 38A#000005
(1790243632.726290) can0 28A#22FEFBFF00000000
(1790243632.726964) can0 18A#003BFDFD0E
(1790243632.735355) can0 18A#003BFDFD0E
(1790243632.745158) can0 28A#22FEFBFF00000000
(1790243632.746227) can0 18A#003BFDFD0E
(1790243632.755349) can0 18A#003BFDFD0E
(1790243632.764965) can0 28A#22FEF9FF00000000
(1790243632.765367) can0 18A#003BFDFD0E
(1790243632.774837) can0 38A#000005
(1790243632.775222) can0 18A#003BFDFE0E
(1790243632.792873) can0 28A#22FEF4FF00000000
(1790243632.793684) can0 18A#003BFDFF0E
(1790243632.794842) can0 18A#003BFDFF0E
(1790243632.804922) can0 28A#1CFEF0FF00000000
(1790243632.805454) can0 18A#003BFDFF0E
(1790243632.814998) can0 18A#003BFD000E
(1790243632.824733) can0 38A#000005
(1790243632.825205) can0 28A#1CFEECFF00000000
(1790243632.825553) can0 18A#003BFD000E
(1790243632.834589) can0 18A#003BFD000E
(1790243632.844876) can0 28A#1CFEE9FF00000000
(1790243632.845218) can0 18A#003BFD000E
(1790243632.854687) can0 18A#003BFD000E
(1790243632.864537) can0 28A#1CFEE9FF00000000
(1790243632.865015) can0 18A#003BFD000E
(1790243632.874717) can0 38A#000005
(1790243632.875307) can0 18A#003BFE000E
(1790243632.884526) can0 28A#1CFEE9FF00000000
(1790243632.885101) can0 18A#003BFD000E
(1790243632.894294) can0 18A#003BFE000E
(1790243632.904708) can0 28A#1CFEE9FF00000000
(1790243632.905165) can0 18A#003BFD000E
(1790243632.914155) can0 18A#003BFD000E
(1790243632.924175) can0 38A#000005
(1790243632.924661) can0 28A#1CFEE9FF00000000
(1790243632.924960) can0 18A#003BFD000E
(1790243632.934567) can0 18A#003BFD000E
(1790243632.944118) can0 28A#1CFEE9FF00000000
(1790243632.944608) can0 18A#003BFD000E
(1790243632.954034) can0 18A#003BFD000E
(1790243632.964449) can0 28A#1CFEE9FF00000000
(1790243632.965032) can0 18A#003BFD000E
(1790243632.973938) can0 38A#000005
(1790243632.974466) can0 18A#003BFD000E
(1790243632.984018) can0 28A#1CFEE9FF00000000
(1790243632.984509) can0 18A#003BFD000E
(1790243632.994141) can0 18A#003BFD000E
(1790243633.003901) can0 28A#1CFEE9FF00000000
(1790243633.004366) can0 18A#003BFD000E
(1790243633.013706) can0 18A#003BFE000E
(1790243633.024090) can0 38A#000005
(1790243633.024685) can0 28A#1CFEE6FF00000000
(1790243633.025142) can0 18A#003BFE000E
(1790243633.033898) can0 18A#003BFE000E
(1790243633.043652) can0 28A#1CFEE2FF00000000
(1790243633.044187) can0 18A#003BFF000E
(1790243633.053896) can0 18A#003BFF000E
(1790243633.063552) can0 28A#17FEDEFF00000000
(1790243633.064061) can0 18A#003BFF000E
(1790243633.073454) can0 38A#000005
(1790243633.074070) can0 18A#003BFF000E
(1790243633.083862) can0 28A#17FEDAFF00000000
(1790243633.084508) can0 18A#003BFF000E
(1790243633.093248) can0 18A#003BFF000E
(1790243633.103300) can0 28A#17FED9FF00000000
(1790243633.103745) can0 18A#003BFF000E
(1790243633.113451) can0 18A#003BFF000E
(1790243633.123130) can0 38A#000005
(1790243633.123621) can0 28A#17FED9FF00000000
(1790243633.124007) can0 18A#003BFF000E
(1790243633.133149) can0 18A#003BFF000E
(1790243633.143394) can0 28A#17FED9FF00000000
(1790243633.143806) can0 18A#003BFF000E
(1790243633.153021) can0 18A#003BFF000E
(1790243633.163015) can0 28A#17FED9FF00000000
(1790243633.163555) can0 18A#003BFF000E
(1790243633.173276) can0 38A#000005
(1790243633.173894) can0 18A#003BFF000E
(1790243633.182944) can0 28A#17FED9FF00000000
(1790243633.183424) can0 18A#003BFF000E
(1790243633.192748) can0 18A#003BFF000E
(1790243633.203118) can0 28A#17FED9FF00000000
(1790243633.203562) can0 18A#003BFF000E
(1790243633.212649) can0 18A#003BFF000E
(1790243633.222558) can0 70A#05
(1790243633.223015) can0 38A#000005
(1790243633.223457) can0 28A#17FED9FF00000000
(1790243633.233001) can0 18A#003BFF000E
(1790243633.242644) can0 28A#17FED9FF00000000
(1790243633.243173) can0 18A#003BFF000E
(1790243633.252505) can0 18A#003BFF000E
(1790243633.262736) can0 28A#17FED9FF00000000
(1790243633.263474) can0 18A#003BFF000E
(1790243633.272334) can0 38A#000005
(1790243633.272824) can0 18A#003BFF000E
(1790243633.282777) can0 28A#17FED8FF00000000
(1790243633.283456) can0 18A#003BFF000E
(1790243633.292577) can0 18A#003BFF000E
(1790243633.302375) can0 28A#17FED5FF00000000
(1790243633.303028) can0 18A#003BFF000E
(1790243633.312208) can0 18A#003BFF000E
(1790243633.322545) can0 38A#000005
(1790243633.323188) can0 28A#17FED1FF00000000
(1790243633.323643) can0 18A#FF3B00000E
(1790243633.332089) can0 18A#FF3B00000E
(1790243633.342033) can0 28A#12FECEFF00000000
(1790243633.342419) can0 18A#FF3B00000E
(1790243633.352342) can0 18A#FF3B00000E
(1790243633.361856) can0 28A#12FECBFF00000000
(1790243633.362293) can0 18A#FF3B00000E
(1790243633.371725) can0 38A#000005
(1790243633.372167) can0 18A#FF3B00000E
(1790243633.382394) can0 28A#12FECBFF00000000
(1790243633.382881) can0 18A#FF3B00000E
(1790243633.391692) can0 18A#FF3B00000E
(1790243633.401754) can0 28A#12FECAFF00000000
(1790243633.402206) can0 18A#FF3B00000E
(1790243633.411979) can0 18A#FF3B00000E
(1790243633.421630) can0 38A#000005
(1790243633.422234) can0 28A#12FECBFF00000000
(1790243633.422581) can0 18A#FF3B00000E
(1790243633.431525) can0 18A#FF3B00000E
(1790243633.441883) can0 28A#12FECBFF00000000
(1790243633.442312) can0 18A#FF3B00000E
(1790243633.451511) can0 18A#FF3B00000E
(1790243633.461350) can0 28A#12FECBFF00000000
(1790243633.461775) can0 18A#FF3B00000E
(1790243633.471687) can0 38A#000005
(1790243633.472273) can0 18A#FF3B00000E
(1790243633.481354) can0 28A#12FECAFF00000000
(1790243633.482043) can0 18A#FF3B00000E
(1790243633.491151) can0 18A#FF3B00000E
(1790243633.501585) can0 28A#12FECBFF00000000
(1790243633.502101) can0 18A#FF3B00000E
(1790243633.511050) can0 18A#FF3B00000E
(1790243633.520957) can0 38A#000005
(1790243633.521411) can0 28A#12FECAFF00000000
(1790243633.521677) can0 18A#FF3B00000E
(1790243633.531630) can0 18A#FF3B00000E
(1790243633.540971) can0 28A#12FECBFF00000000
(1790243633.541543) can0 18A#FF3B00000E
(1790243633.550866) can0 18A#FF3B00000E
(1790243633.561189) can0 28A#12FECBFF00000000
(1790243633.561826) can0 18A#FF3B00000E
(1790243633.570883) can0 38A#000005
(1790243633.571506) can0 18A#FF3B00000E
(1790243633.581015) can0 28A#12FEC9FF00000000
(1790243633.581748) can0 18A#FF3B00000E
(1790243633.591157) can0 18A#FF3B00000E
(1790243633.600737) can0 28A#12FEC6FF00000000
(1790243633.601273) can0 18A#FF3B00000E
(1790243633.610671) can0 18A#FF3B00000E
(1790243633.620996) can0 38A#000005
(1790243633.621558) can0 28A#0CFEC3FF00000000
(1790243633.621954) can0 18A#FF3B00000E
(1790243633.630472) can0 18A#FF3B01000E
(1790243633.640421) can0 28A#0CFEC1FF00000000
(1790243633.640855) can0 18A#FF3B01000E
(1790243633.650694) can0 18A#FF3B01000E
(1790243633.660362) can0 28A#0CFEC0FF00000000
(1790243633.660792) can0 18A#FF3B01000E
(1790243633.670189) can0 38A#000005
(1790243633.670630) can0 18A#FF3B01000E
(1790243633.680578) can0 28A#0CFEC0FF00000000
(1790243633.681029) can0 18A#FF3B01000E
(1790243633.690195) can0 18A#FF3B01000E
(1790243633.700678) can0 28A#0CFEC0FF00000000
(1790243633.701145) can0 18A#FF3B01000E
(1790243633.710276) can0 18A#FF3B01000E
(1790243633.719987) can0 38A#000005
(1790243633.720542) can0 28A#0CFEC0FF00000000
(1790243633.721005) can0 18A#FF3B01000E
(1790243633.729981) can0 18A#FF3B01000E
(1790243633.740315) can0 28A#0CFEC0FF00000000
(1790243633.740950) can0 18A#FF3B01000E
(1790243633.749886) can0 18A#FF3B01000E
(1790243633.759808) can0 28A#0CFEC0FF00000000
(1790243633.760271) can0 18A#FF3B01000E
(1790243633.770012) can0 38A#000005
(1790243633.770551) can0 18A#FF3B01000E
(1790243633.779721) can0 28A#0CFEC0FF00000000
(1790243633.780302) can0 18A#FF3B01000E
(1790243633.789526) can0 18A#FF3B01000E
(1790243633.799963) can0 28A#0CFEC0FF00000000
(1790243633.800467) can0 18A#FF3B01000E
(1790243633.809362) can0 18A#FF3B01000E
(1790243633.819388) can0 38A#000005
(1790243633.819899) can0 28A#0CFEC0FF00000000
(1790243633.820245) can0 18A#FF3B01000E
(1790243633.829783) can0 18A#FF3B01000E
(1790243633.839291) can0 28A#0CFEBFFF00000000
(1790243633.839688) can0 18A#FF3B01000E
(1790243633.849339) can0 18A#FE3B01000E
(1790243633.859573) can0 28A#0CFEBCFF00000000
(1790243633.860088) can0 18A#FE3B02000E
(1790243633.869160) can0 38A#000005
(1790243633.869917) can0 18A#FE3B02000E
(1790243633.879245) can0 28A#07FEBAFF00000000
(1790243633.879804) can0 18A#FE3B02000E
(1790243633.889358) can0 18A#FE3B02000E
(1790243633.899081) can0 28A#07FEB9FF00000000
(1790243633.899538) can0 18A#FE3B02000E
(1790243633.908798) can0 18A#FE3B02000E
(1790243633.919073) can0 38A#000005
(1790243633.919487) can0 28A#07FEB7FF00000000
(1790243633.919835) can0 18A#FE3B03000E
(1790243633.929014) can0 18A#FE3B03000E
(1790243633.938705) can0 28A#07FEB8FF00000000
(1790243633.939215) can0 18A#FE3B02000E
(1790243633.949092) can0 18A#FE3B03000E
(1790243633.958681) can0 28A#07FEB8FF00000000
(1790243633.959140) can0 18A#FE3B03000E
(1790243633.968560) can0 38A#000005
(1790243633.969065) can0 18A#FE3B03000E
(1790243633.979066) can0 28A#07FEB8FF00000000
(1790243633.979613) can0 18A#FE3B03000E
(1790243633.988446) can0 18A#FE3B03000E
(1790243633.998492) can0 28A#07FEB8FF00000000
(1790243633.998923) can0 18A#FE3B03000E
(1790243634.008622) can0 18A#FE3B03000E
(1790243634.018300) can0 38A#000005
(1790243634.018842) can0 28A#07FEB8FF00000000
(1790243634.019161) can0 18A#FE3B03000E
(1790243634.028279) can0 18A#FE3B03000E
(1790243634.038569) can0 28A#07FEB8FF00000000
(1790243634.038993) can0 18A#FE3B03000E
(1790243634.048133) can0 18A#FE3B03000E
(1790243634.058005) can0 28A#07FEB8FF00000000
(1790243634.058405) can0 18A#FE3B03000E
(1790243634.068258) can0 38A#000005
(1790243634.068693) can0 18A#FE3B03000E
(1790243634.078000) can0 28A#07FEB8FF00000000
(1790243634.078527) can0 18A#FE3B03000E
(1790243634.087798) can0 18A#FE3B03000E
(1790243634.098245) can0 28A#07FEB6FF00000000
(1790243634.098801) can0 18A#FE3B03000E
(1790243634.107695) can0 18A#FE3B03000E
(1790243634.117737) can0 38A#000005
(1790243634.118249) can0 28A#07FEB4FF00000000
(1790243634.118609) can0 18A#FE3B03000E
(1790243634.128198) can0 18A#FE3B03000E
(1790243634.137573) can0 28A#02FEB2FF00000000
(1790243634.138016) can0 18A#FE3B03000E
(1790243634.147522) can0 18A#FD3B04000E
(1790243634.157871) can0 28A#02FEB0FF00000000
(1790243634.158311) can0 18A#FD3B04000E
(1790243634.167368) can0 38A#000005
(1790243634.167899) can0 18A#FD3B04000E
(1790243634.177406) can0 28A#02FEAFFF00000000
(1790243634.177927) can0 18A#FD3B04000E
(1790243634.187561) can0 18A#FD3B04000E
(1790243634.197205) can0 28A#02FEB0FF00000000
(1790243634.197632) can0 18A#FD3B04000E
(1790243634.207262) can0 18A#FD3B04000E
(1790243634.217371) can0 70A#05
(1790243634.217815) can0 38A#000005
(1790243634.218113) can0 28A#02FEAFFF00000000
(1790243634.228879) can0 18A#FD3B04000E
(1790243634.236972) can0 28A#02FEB0FF00000000
(1790243634.237362) can0 18A#FD3B04000E
(1790243634.247278) can0 18A#FD3B04000E
(1790243634.256824) can0 28A#02FEB0FF00000000
(1790243634.257244) can0 18A#FD3B04000E
(1790243634.266746) can0 38A#000005
(1790243634.267218) can0 18A#FD3B04000E
(1790243634.277187) can0 28A#02FEAFFF00000000
(1790243634.277679) can0 18A#FD3B04000E
(1790243634.286583) can0 18A#FD3B04000E
(1790243634.296656) can0 28A#02FEAFFF00000000
(1790243634.297118) can0 18A#FD3B04000E
(1790243634.306796) can0 18A#FD3B04000E
(1790243634.316483) can0 38A#000005
(1790243634.316996) can0 28A#02FEB0FF00000000
(1790243634.317347) can0 18A#FD3B04000E
(1790243634.326366) can0 18A#FD3B04000E
(1790243634.336659) can0 28A#02FEAFFF00000000
(1790243634.337079) can0 18A#FD3B04000E
(1790243634.346311) can0 18A#FD3B04000E
(1790243634.356233) can0 28A#02FEAFFF00000000
(1790243634.356671) can0 18A#FD3B04000E
(1790243634.366563) can0 38A#000005
(1790243634.367117) can0 18A#FD3B050006
(1790243634.376275) can0 28A#0000000000000000
(1790243634.376816) can0 18A#FD3B050006
(1790243634.385999) can0 18A#FD3B050006
(1790243634.396461) can0 28A#0000000000000000
(1790243634.396987) can0 18A#FD3B050006
(1790243634.405858) can0 18A#FC3B060006
(1790243634.415870) can0 38A#000005
(1790243634.416370) can0 28A#0000000000000000
(1790243634.416717) can0 18A#FC3B060006
(1790243634.426100) can0 18A#FC3B060006
(1790243634.435730) can0 28A#0000000000000000
(1790243634.436126) can0 18A#FC3B060006
(1790243634.445632) can0 18A#FC3B060006
(1790243634.455966) can0 28A#0000000000000000
(1790243634.456324) can0 18A#FC3B050006
(1790243634.465463) can0 38A#000005
(1790243634.465941) can0 18A#FC3B060006
(1790243634.475572) can0 28A#0000000000000000
(1790243634.476051) can0 18A#FC3B050006
(1790243634.485732) can0 18A#FC3B060006
(1790243634.495578) can0 28A#0000000000000000
(1790243634.496180) can0 18A#FC3B050006
(1790243634.505291) can0 18A#FC3B050006
(1790243634.515592) can0 38A#000005
(1790243634.516159) can0 28A#0000000000000000
(1790243634.516669) can0 18A#FC3B050006
(1790243634.525470) can0 18A#FC3B060006
(1790243634.535295) can0 28A#0000000000000000
(1790243634.535843) can0 18A#FC3B060006
(1790243634.545489) can0 18A#FC3B060006
(1790243634.555073) can0 28A#0000000000000000
(1790243634.555501) can0 18A#FC3B060006
(1790243634.564944) can0 38A#000005
(1790243634.565737) can0 18A#FC3B060006
(1790243634.575322) can0 28A#0000000000000000
(1790243634.575817) can0 18A#FC3B060006
(1790243634.584758) can0 18A#FC3B060006
(1790243634.594862) can0 28A#0000000000000000
(1790243634.595334) can0 18A#FC3B060006
(1790243634.605036) can0 18A#FC3B060006
(1790243634.614678) can0 38A#000005
(1790243634.615180) can0 28A#0000000000000000
(1790243634.615544) can0 18A#FC3B060006
(1790243634.624596) can0 18A#FC3B060006
(1790243634.634929) can0 28A#0000000000000000
(1790243634.635360) can0 18A#FC3B060006
(1790243634.644500) can0 18A#FC3B060006
(1790243634.654388) can0 28A#0000000000000000
(1790243634.654845) can0 18A#FC3B060006
(1790243634.664713) can0 38A#000005
(1790243634.665320) can0 18A#FC3B070006
(1790243634.674330) can0 28A#0000000000000000
(1790243634.674932) can0 18A#FC3B070006
(1790243634.684213) can0 18A#FB3B070006
(1790243634.694611) can0 28A#0000000000000000
(1790243634.695098) can0 18A#FB3B070006
(1790243634.704051) can0 18A#FB3B070006
(1790243634.714729) can0 38A#000005
(1790243634.716287) can0 28A#0000000000000000
(1790243634.716862) can0 18A#FC3B070006
(1790243634.724338) can0 18A#FC3B060006
(1790243634.733917) can0 28A#0000000000000000
(1790243634.734343) can0 18A#FC3B060006
(1790243634.743817) can0 18A#FC3B050006
(1790243634.754151) can0 28A#0000000000000000
(1790243634.754587) can0 18A#FC3B050006
(1790243634.763741) can0 38A#000005
(1790243634.764245) can0 18A#FC3B050006
(1790243634.774066) can0 28A#0000000000000000
(1790243634.774565) can0 18A#FC3B050006
(1790243634.783866) can0 18A#FC3B050006
(1790243634.793666) can0 28A#0000000000000000
(1790243634.794145) can0 18A#FC3B050006
(1790243634.803426) can0 18A#FC3B050006
(1790243634.813807) can0 38A#000005
(1790243634.814467) can0 28A#0000000000000000
(1790243634.814981) can0 18A#FC3B050006
(1790243634.823863) can0 18A#FC3B050006
(1790243634.833412) can0 28A#0000000000000000
(1790243634.833932) can0 18A#FC3B050006
(1790243634.843641) can0 18A#FC3B050006
(1790243634.853256) can0 28A#0000000000000000
(1790243634.853722) can0 18A#FC3B050006
(1790243634.863175) can0 38A#000005
(1790243634.863692) can0 18A#FC3B050006
(1790243634.873497) can0 28A#0000000000000000
(1790243634.873996) can0 18A#FC3B050006
(1790243634.882939) can0 18A#FC3B050006
(1790243634.893104) can0 28A#0000000000000000
(1790243634.893588) can0 18A#FC3B050006
(1790243634.903162) can0 18A#FC3B050006
(1790243634.912836) can0 38A#000005
(1790243634.913293) can0 28A#0000000000000000
(1790243634.913592) can0 18A#FC3B050006
(1790243634.922927) can0 18A#FC3B050006
(1790243634.933094) can0 28A#0000000000000000
(1790243634.933601) can0 18A#FC3B050006
(1790243634.942698) can0 18A#FC3B050006
(1790243634.952710) can0 28A#0000000000000000
(1790243634.953420) can0 18A#FC3B050006
(1790243634.962902) can0 38A#000005
(1790243634.963458) can0 18A#FC3B050006
(1790243634.972885) can0 28A#0000000000000000
(1790243634.973480) can0 18A#FC3B050006
(1790243634.982352) can0 18A#FC3B050006
(1790243634.992757) can0 28A#0000000000000000
(1790243634.993217) can0 18A#FC3B050F06
(1790243635.002203) can0 18A#FC3B050906
(1790243635.012149) can0 38A#000005
(1790243635.012713) can0 28A#0000000000000000
(1790243635.013117) can0 18A#FCFB051D06
(1790243635.022625) can0 18A#FCF4053406
(1790243635.032158) can0 28A#0000000000000000
(1790243635.032668) can0 18A#FCF0053A06
(1790243635.042062) can0 18A#FCEB053F06
(1790243635.052339) can0 28A#0000000000000000
(1790243635.052743) can0 18A#FCE8054206
(1790243635.061865) can0 38A#000005
(1790243635.062334) can0 18A#FCE7054206
(1790243635.071917) can0 28A#0000000000000000
(1790243635.072440) can0 18A#FCE6054306
(1790243635.082109) can0 18A#FCE6054306
(1790243635.091866) can0 28A#0000000000000000
(1790243635.092421) can0 18A#FCE6054306
(1790243635.101636) can0 18A#FCE6054306
(1790243635.111966) can0 38A#000005
(1790243635.112513) can0 28A#0000000000000000
(1790243635.112882) can0 18A#FCE6054306
(1790243635.121695) can0 18A#FCE6054306
(1790243635.131476) can0 28A#0000000000000000
(1790243635.131934) can0 18A#FCE6054306
(1790243635.141742) can0 18A#FCE5054306
(1790243635.151381) can0 28A#0000000000000000
(1790243635.151844) can0 18A#FCE5054306
(1790243635.161251) can0 38A#000005
(1790243635.161760) can0 18A#FCE5054306
(1790243635.171587) can0 28A#0000000000000000
(1790243635.171993) can0 18A#FCE5044306
(1790243635.182115) can0 18A#FCE6044306
(1790243635.192532) can0 28A#0000000000000000
(1790243635.194362) can0 18A#FCE6044306
(1790243635.202191) can0 18A#FCE6044306
(1790243635.211025) can0 70A#05
(1790243635.211654) can0 38A#000005
(1790243635.212175) can0 28A#0000000000000000
(1790243635.220921) can0 18A#FCE6044306
(1790243635.231278) can0 28A#0000000000000000
(1790243635.232001) can0 18A#FCE6044306
(1790243635.240759) can0 18A#FCE6044306
(1790243635.250769) can0 28A#0000000000000000
(1790243635.253001) can0 18A#FCE6044306
(1790243635.260939) can0 38A#000005
(1790243635.262660) can0 18A#FCE6044306
(1790243635.273288) can0 28A#0000000000000000
(1790243635.275163) can0 18A#FCE6044306
(1790243635.281007) can0 18A#FCE6044306
(1790243635.293715) can0 28A#0000000000000000
(1790243635.295528) can0 18A#FCE6044306
(1790243635.301984) can0 18A#FCE6044306
(1790243635.311356) can0 38A#000005
(1790243635.313240) can0 28A#0000000000000000
(1790243635.314349) can0 18A#FCE6044306
(1790243635.322888) can0 18A#FCE6044306
(1790243635.330262) can0 28A#0000000000000000
(1790243635.331985) can0 18A#FCE6044306
(1790243635.341552) can0 18A#FCE6044306
(1790243635.351825) can0 28A#0000000000000000
(1790243635.352534) can0 18A#FCE6044306
(1790243635.360946) can0 38A#000005
(1790243635.361485) can0 18A#FCE6044306
(1790243635.370038) can0 28A#0000000000000000
(1790243635.370524) can0 18A#FCE6044306
(1790243635.380174) can0 18A#FCE6044306
(1790243635.389823) can0 28A#0000000000000000
(1790243635.390270) can0 18A#FCE6044306
(1790243635.399633) can0 18A#FCE6044306
(1790243635.410019) can0 38A#000005
(1790243635.410567) can0 28A#0000000000000000
(1790243635.410962) can0 18A#FCE6044306
(1790243635.419751) can0 18A#FCE6044306
(1790243635.429556) can0 28A#0000000000000000
(1790243635.430013) can0 18A#FCE6034306
(1790243635.439852) can0 18A#FCE6034306
(1790243635.449398) can0 28A#0000000000000000
(1790243635.449798) can0 18A#FCE6034306
(1790243635.459388) can0 38A#000005
(1790243635.459972) can0 18A#FCE6034306
(1790243635.470365) can0 28A#0000000000000000
(1790243635.472208) can0 18A#FCE6034306
(1790243635.479903) can0 18A#FCE6034306
(1790243635.489312) can0 28A#0000000000000000
(1790243635.491310) can0 18A#FCE6034306
(1790243635.499500) can0 18A#FCE6034306
(1790243635.509802) can0 38A#000005
(1790243635.511892) can0 28A#0000000000000000
(1790243635.513809) can0 18A#FCE6034306
(1790243635.519077) can0 18A#FCE6034306
(1790243635.529380) can0 28A#0000000000000000
(1790243635.530514) can0 18A#FCE6034306
(1790243635.540152) can0 18A#FCE6034306
(1790243635.549124) can0 28A#0000000000000000
(1790243635.549834) can0 18A#FCE6034306
(1790243635.560664) can0 38A#000005
(1790243635.562515) can0 18A#FCE6034306
(1790243635.570241) can0 28A#0000000000000000
(1790243635.572076) can0 18A#FCE6034306
(1790243635.579934) can0 18A#FCE6034306
(1790243635.589133) can0 28A#0000000000000000
(1790243635.590718) can0 18A#FCE6034306
(1790243635.598464) can0 18A#FCE6034306
(1790243635.608344) can0 38A#000005
(1790243635.608882) can0 28A#0000000000000000
(1790243635.609246) can0 18A#FCE6034306
(1790243635.618787) can0 18A#FCE6034306
(1790243635.628329) can0 28A#0000000000000000
(1790243635.628772) can0 18A#FCE6034306
(1790243635.638175) can0 18A#FCE6034306
(1790243635.648473) can0 28A#0000000000000000
(1790243635.648930) can0 18A#FCE6034306
(1790243635.658057) can0 38A#000005
(1790243635.658567) can0 18A#FCE6034306
(1790243635.668188) can0 28A#0000000000000000
(1790243635.668661) can0 18A#FCE6034306
(1790243635.678182) can0 18A#FCE6034306
(1790243635.687905) can0 28A#0000000000000000
(1790243635.688291) can0 18A#FCE6034306
(1790243635.697725) can0 18A#FCE6034306
(1790243635.708060) can0 38A#000005
(1790243635.708572) can0 28A#0000000000000000
(1790243635.709041) can0 18A#FBE6034306
(1790243635.717969) can0 18A#FBE6044306
(1790243635.727630) can0 28A#0000000000000000
(1790243635.728026) can0 18A#FBE6044306
(1790243635.737879) can0 18A#FBE6034306
(1790243635.747496) can0 28A#0000000000000000
(1790243635.748034) can0 18A#FBE6034306
(1790243635.757404) can0 38A#000005
(1790243635.758016) can0 18A#FBE6034306
(1790243635.767746) can0 28A#0000000000000000
(1790243635.768617) can0 18A#FBE6034306
(1790243635.777220) can0 18A#FBE6034306
(1790243635.787396) can0 28A#0000000000000000
(1790243635.787977) can0 18A#FBE5034306
(1790243635.797462) can0 18A#FBE5034306
(1790243635.809115) can0 38A#000005
(1790243635.809894) can0 28A#0000000000000000
(1790243635.812767) can0 18A#FBE5034306
(1790243635.816961) can0 18A#FBE5034306
(1790243635.827354) can0 28A#0000000000000000
(1790243635.827883) can0 18A#FBE5034306
(1790243635.836926) can0 18A#FBE5034306
(1790243635.847008) can0 28A#0000000000000000
(1790243635.847728) can0 18A#FBE5034306
(1790243635.857232) can0 38A#000005
(1790243635.858206) can0 18A#FBE5034306
(1790243635.867234) can0 28A#0000000000000000
(1790243635.868568) can0 18A#FBE5034306
(1790243635.876837) can0 18A#FBE5034306
(1790243635.887147) can0 28A#0000000000000000
(1790243635.888035) can0 18A#FBE5034306
(1790243635.897334) can0 18A#FBE5034306
(1790243635.906465) can0 38A#000005
(1790243635.907133) can0 28A#0000000000000000
(1790243635.907657) can0 18A#FBE5034306
(1790243635.917322) can0 18A#FBE5034306
(1790243635.926476) can0 28A#0000000000000000
(1790243635.927457) can0 18A#FBE5034306
(1790243635.936262) can0 18A#FBE5034306
(1790243635.946498) can0 28A#0000000000000000
(1790243635.946899) can0 18A#FBE5034306
(1790243635.956110) can0 38A#000005
(1790243635.956623) can0 18A#FBE5034306
(1790243635.966131) can0 28A#0000000000000000
(1790243635.966618) can0 18A#FBE5034306
(1790243635.976331) can0 18A#FBE5034306
(1790243635.986027) can0 28A#0000000000000000
(1790243635.986495) can0 18A#FBE5034306
(1790243635.995743) can0 18A#FBE5034306
(1790243636.006197) can0 38A#000005
(1790243636.006803) can0 28A#0000000000000000
(1790243636.007168) can0 18A#FAE5034306
(1790243636.015825) can0 18A#FAE5034306
(1790243636.025690) can0 28A#0000000000000000
(1790243636.026077) can0 18A#FAE5034306
(1790243636.036088) can0 18A#FAE5034306
(1790243636.045517) can0 28A#0000000000000000
(1790243636.046010) can0 18A#FAE5034306
(1790243636.055308) can0 38A#000005
(1790243636.055758) can0 18A#FAE5034306
(1790243636.065722) can0 28A#0000000000000000
(1790243636.066202) can0 18A#FAE5034306
(1790243636.075211) can0 18A#FAE5034306
(1790243636.085352) can0 28A#0000000000000000
(1790243636.085849) can0 18A#FAE5034306
(1790243636.095440) can0 18A#FAE5034306
(1790243636.105120) can0 38A#000005
(1790243636.105605) can0 28A#0000000000000000
(1790243636.105918) can0 18A#FAE5034306
(1790243636.115166) can0 18A#FAE5034306
(1790243636.125577) can0 28A#0000000000000000
(1790243636.126411) can0 18A#FAE5034306
(1790243636.134962) can0 18A#FAE5034306
(1790243636.144942) can0 28A#0000000000000000
(1790243636.145530) can0 18A#FAE5034306
(1790243636.155184) can0 38A#000005
(1790243636.155810) can0 18A#FAE5034306
(1790243636.164782) can0 28A#0000000000000000
(1790243636.165429) can0 18A#FAE5034306
(1790243636.174671) can0 18A#FAE5034306
(1790243636.185189) can0 28A#0000000000000000
(1790243636.186067) can0 18A#FAE5034306
(1790243636.194730) can0 18A#FAE5034306
(1790243636.204384) can0 70A#05
(1790243636.205167) can0 38A#000005
(1790243636.205892) can0 28A#0000000000000000
(1790243636.214824) can0 18A#FAE5034306
(1790243636.224525) can0 28A#0000000000000000
(1790243636.225415) can0 18A#FAE5034306
(1790243636.234280) can0 18A#FAE5034306
(1790243636.244866) can0 28A#0000000000000000
(1790243636.245660) can0 18A#FAE5024306
(1790243636.254034) can0 38A#000005
(1790243636.254514) can0 18A#FAE5024306
(1790243636.264087) can0 28A#0000000000000000
(1790243636.264624) can0 18A#FAE5024306
(1790243636.274250) can0 18A#FAE5024306
(1790243636.283952) can0 28A#0000000000000000
(1790243636.284425) can0 18A#FAE5014306
(1790243636.293770) can0 18A#FAE5014306
(1790243636.304046) can0 38A#000005
(1790243636.304497) can0 28A#0000000000000000
(1790243636.304837) can0 18A#FAE5004306
(1790243636.313715) can0 18A#FAE5004306
(1790243636.323556) can0 28A#0000000000000000
(1790243636.323921) can0 18A#FAE5004306
(1790243636.333955) can0 18A#FAE5004306
(1790243636.343463) can0 28A#0000000000000000
(1790243636.344028) can0 18A#FAE5004306
(1790243636.353445) can0 38A#000005
(1790243636.354138) can0 18A#FAE5004306
(1790243636.364166) can0 28A#0000000000000000
(1790243636.364856) can0 18A#FAE5004306
(1790243636.373227) can0 18A#FAE5004306
(1790243636.383372) can0 28A#0000000000000000
(1790243636.384036) can0 18A#FAE5004306
(1790243636.393453) can0 18A#FAE5004306
(1790243636.403067) can0 38A#000005
(1790243636.403564) can0 28A#0000000000000000
(1790243636.403910) can0 18A#FAE5004306
(1790243636.413038) can0 18A#FAE5004306
(1790243636.423329) can0 28A#0000000000000000
(1790243636.423887) can0 18A#FAE5004306
(1790243636.432836) can0 18A#FAE5004306
(1790243636.442787) can0 28A#0000000000000000
(1790243636.443205) can0 18A#FAE5004306
(1790243636.453132) can0 38A#000005
(1790243636.453679) can0 18A#FAE5004306
(1790243636.462785) can0 28A#0000000000000000
(1790243636.463348) can0 18A#FAE5004306
(1790243636.472497) can0 18A#FAE5004306
(1790243636.482919) can0 28A#0000000000000000
(1790243636.483408) can0 18A#FAE5004306
(1790243636.492373) can0 18A#FAE5004306
(1790243636.502354) can0 38A#000005
(1790243636.502831) can0 28A#0000000000000000
(1790243636.503172) can0 18A#FAE5004306
(1790243636.512662) can0 18A#FAE5004306
(1790243636.522203) can0 28A#0000000000000000
(1790243636.522578) can0 18A#FAE5004306
(1790243636.532179) can0 18A#FAE5FF4306
(1790243636.542596) can0 28A#0000000000000000
(1790243636.543375) can0 18A#FAE4FF4306
(1790243636.552036) can0 38A#000005
(1790243636.552582) can0 18A#FAE4FF4306
(1790243636.562227) can0 28A#0000000000000000
(1790243636.563115) can0 18A#FAE4FE4306
(1790243636.572163) can0 18A#FAE4FE4306
(1790243636.581910) can0 28A#0000000000000000
(1790243636.582404) can0 18A#FAE4FE4306
(1790243636.591680) can0 18A#FAE4FE4306
(1790243636.601999) can0 38A#000005
(1790243636.602547) can0 28A#0000000000000000
(1790243636.603029) can0 18A#FAE4FE4306
(1790243636.612159) can0 18A#FAE4FE4306
(1790243636.621603) can0 28A#0000000000000000
(1790243636.622120) can0 18A#FAE4FE4306
(1790243636.631879) can0 18A#FAE4FE4306
(1790243636.641494) can0 28A#0000000000000000
(1790243636.642059) can0 18A#FAE4FE4306
(1790243636.651333) can0 38A#000005
(1790243636.651851) can0 18A#FAE4FE4306
(1790243636.661789) can0 28A#0000000000000000
(1790243636.662421) can0 18A#FAE4FE4306
(1790243636.671169) can0 18A#FAE4FE4306
(1790243636.681241) can0 28A#0000000000000000
(1790243636.681740) can0 18A#FAE4FE4306
(1790243636.691372) can0 18A#FAE4FE4306
(1790243636.701027) can0 38A#000005
(1790243636.701550) can0 28A#0000000000000000
(1790243636.701892) can0 18A#FAE4FE4306
(1790243636.711006) can0 18A#FAE4FE4306
(1790243636.721230) can0 28A#0000000000000000
(1790243636.721632) can0 18A#FAE4FE4306
(1790243636.734107) can0 18A#FAE4FE4306
(1790243636.741096) can0 28A#0000000000000000
(1790243636.741563) can0 18A#FAE4FE4306
(1790243636.750934) can0 38A#000005
(1790243636.751383) can0 18A#FAE4FE4306
(1790243636.760835) can0 28A#0000000000000000
(1790243636.761417) can0 18A#FAE4FE4306
(1790243636.770433) can0 18A#FAE4FE4306
(1790243636.780915) can0 28A#0000000000000000
(1790243636.781407) can0 18A#FAE4FD4306
(1790243636.790316) can0 18A#FAE4FD4304
(1790243636.800328) can0 38A#000005
(1790243636.800822) can0 28A#0000000000000000
(1790243636.801165) can0 18A#FAE4FC4304
(1790243636.810674) can0 18A#FAE4FC4304
(1790243636.820215) can0 28A#0000000000000000
(1790243636.820618) can0 18A#FAE4FC4304
(1790243636.830134) can0 18A#FAE4FB4304
(1790243636.840436) can0 28A#0000000000000000
(1790243636.840831) can0 18A#FAE4FB4304
(1790243636.849976) can0 38A#000005
(1790243636.850507) can0 18A#FAE4FB4304
(1790243636.860395) can0 28A#0000000000000000
(1790243636.860920) can0 18A#FAE4FB4304
(1790243636.870065) can0 18A#FAE4FB4304
(1790243636.879768) can0 28A#0000000000000000
(1790243636.880182) can0 18A#F9E4FB4304
(1790243636.889695) can0 18A#FAE4FB4304
(1790243636.900031) can0 38A#000005
(1790243636.900553) can0 28A#0000000000000000
(1790243636.900892) can0 18A#FAE4FB4304
(1790243636.909816) can0 18A#FAE4FB4304
(1790243636.919508) can0 28A#0000000000000000
(1790243636.919940) can0 18A#FAE4FB4304
(1790243636.929796) can0 18A#FAE4FB4304
(1790243636.939366) can0 28A#0000000000000000
(1790243636.939773) can0 18A#FAE4FB4304
(1790243636.949337) can0 38A#000005
(1790243636.949830) can0 18A#FAE4FB4304
(1790243636.959814) can0 28A#0000000000000000
(1790243636.960351) can0 18A#FAE4FB4304
(1790243636.969172) can0 18A#FAE4FB4304
(1790243636.979191) can0 28A#0000000000000000
(1790243636.979702) can0 18A#FAE4FB4304
(1790243636.989316) can0 18A#FAE4FB4304
(1790243636.998903) can0 38A#000005
(1790243636.999389) can0 28A#0000000000000000
(1790243636.999867) can0 18A#FAE4FB4304
(1790243637.009005) can0 18A#FAE4FB4304
(1790243637.019199) can0 28A#0000000000000000
(1790243637.019629) can0 18A#FAE4FB4304
(1790243637.028827) can0 18A#F9E3FB4304
(1790243637.038673) can0 28A#0000000000000000
(1790243637.039029) can0 18A#F9E3FC4304
(1790243637.048955) can0 38A#000005
(1790243637.049499) can0 18A#F9E3FC4304
(1790243637.058689) can0 28A#0000000000000000
(1790243637.059139) can0 18A#F9E3FC4304
(1790243637.068439) can0 18A#F9E3FB4304
(1790243637.078868) can0 28A#0000000000000000
(1790243637.079373) can0 18A#F9E3FB4304
(1790243637.088866) can0 18A#F9E3FB4304
(1790243637.099400) can0 38A#000005
(1790243637.100175) can0 28A#0000000000000000
(1790243637.100835) can0 18A#F9E3FB4304
(1790243637.108751) can0 18A#F9E3FB4304
(1790243637.118208) can0 28A#0000000000000000
(1790243637.118953) can0 18A#F9E3FA4304
(1790243637.128052) can0 18A#F9E3FA4304
(1790243637.138483) can0 28A#0000000000000000
(1790243637.139134) can0 18A#F9E3FA4304
(1790243637.148040) can0 38A#000005
(1790243637.148717) can0 18A#F9E3FA4304
(1790243637.157936) can0 28A#0000000000000000
(1790243637.158510) can0 18A#F9E3FA4304
(1790243637.168119) can0 18A#F9E3FA4304
(1790243637.177891) can0 28A#0000000000000000
(1790243637.178693) can0 18A#F9E3FA4304
(1790243637.187707) can0 18A#F9E3FA4304
(1790243637.197893) can0 70A#05
(1790243637.198510) can0 38A#000005
(1790243637.199101) can0 28A#0000000000000000
(1790243637.208148) can0 18A#F9E3FA4304
(1790243637.217484) can0 28A#0000000000000000
(1790243637.218088) can0 18A#F9E3FA4304
(1790243637.227682) can0 18A#F9E3FA4304
(1790243637.237415) can0 28A#0000000000000000
(1790243637.238107) can0 18A#F9E3FA4304
(1790243637.247222) can0 38A#000005
(1790243637.247863) can0 18A#F9E3FA4304
(1790243637.258021) can0 28A#0000000000000000
(1790243637.258842) can0 18A#F9E3FA4304
(1790243637.266940) can0 18A#F9E3FA4304
(1790243637.277104) can0 28A#0000000000000000
(1790243637.277862) can0 18A#F9E3FB4304
(1790243637.287179) can0 18A#F9E3FA4304
(1790243637.296835) can0 38A#000005
(1790243637.297355) can0 28A#0000000000000000
(1790243637.297701) can0 18A#F9E3FA4304
(1790243637.306999) can0 18A#F9E3FA4304
(1790243637.317071) can0 28A#0000000000000000
(1790243637.317440) can0 18A#F9F8FA2604
(1790243637.326654) can0 18A#F9FAFA1404
(1790243637.336586) can0 28A#0000000000000000
(1790243637.337344) can0 18A#FAFBF90204
(1790243637.346883) can0 38A#000005
(1790243637.347562) can0 18A#F9FBF9FB04
(1790243637.357233) can0 28A#0000000000000000
(1790243637.358020) can0 18A#F9FBF9FA04
(1790243637.366373) can0 18A#F9FBF9F804
(1790243637.376628) can0 28A#0000000000000000
(1790243637.377120) can0 18A#F9FBFAF704
(1790243637.386153) can0 18A#F9FBFAF704
(1790243637.395985) can0 38A#000005
(1790243637.396438) can0 28A#0000000000000000
(1790243637.396843) can0 18A#FAFBF9F604
(1790243637.406356) can0 18A#F9FBF9F604
(1790243637.415967) can0 28A#0000000000000000
(1790243637.416656) can0 18A#F9FBF9F604
(1790243637.425947) can0 18A#F9FBFAF604
(1790243637.436204) can0 28A#0000000000000000
(1790243637.436615) can0 18A#F9FBFAF604
(1790243637.445747) can0 38A#000005
(1790243637.446291) can0 18A#F9FBFAF604
(1790243637.455825) can0 28A#0000000000000000
(1790243637.456259) can0 18A#F9FBFAF604
(1790243637.465918) can0 18A#F9FBFAF604
(1790243637.475608) can0 28A#0000000000000000
(1790243637.476038) can0 18A#F9FBFAF604
(1790243637.485391) can0 18A#F9FBF9F604
(1790243637.495746) can0 38A#000005
(1790243637.496260) can0 28A#0000000000000000
(1790243637.496620) can0 18A#F9FBF9F604
(1790243637.505557) can0 18A#F9FBF9F604
(1790243637.515308) can0 28A#0000000000000000
(1790243637.515753) can0 18A#F9FBF9F604
(1790243637.525473) can0 18A#F9FBFAF604
(1790243637.535176) can0 28A#0000000000000000
(1790243637.535609) can0 18A#F9FBFAF604
(1790243637.545094) can0 38A#000005
(1790243637.545648) can0 18A#F9FBFAF604
(1790243637.555419) can0 28A#0000000000000000
(1790243637.556084) can0 18A#F9FBFAF604
(1790243637.564817) can0 18A#F9FBFAF604
(1790243637.574932) can0 28A#0000000000000000
(1790243637.575400) can0 18A#FAFBF9F704
(1790243637.585102) can0 18A#F9FBF9F704
(1790243637.594673) can0 38A#000005
(1790243637.595186) can0 28A#0000000000000000
(1790243637.595569) can0 18A#F9FBF9F704
(1790243637.604786) can0 18A#F9FBFAF604
(1790243637.614944) can0 28A#0000000000000000
(1790243637.615402) can0 18A#F9FBF9F604
(1790243637.624519) can0 18A#FAFBF9F604
(1790243637.634556) can0 28A#0000000000000000
(1790243637.635057) can0 18A#F9FBF9F604
(1790243637.644590) can0 38A#000005
(1790243637.645102) can0 18A#F9FBF9F604
(1790243637.654477) can0 28A#0000000000000000
(1790243637.654951) can0 18A#F9FBFAF604
(1790243637.664089) can0 18A#F9FBFAF604
(1790243637.674573) can0 28A#0000000000000000
(1790243637.675106) can0 18A#F9FBFAF604
(1790243637.684007) can0 18A#F9FBFAF604
(1790243637.693980) can0 38A#000005
(1790243637.694522) can0 28A#0000000000000000
(1790243637.694885) can0 18A#F9FBFAF604
(1790243637.704334) can0 18A#F9FBFAF604
(1790243637.713865) can0 28A#0000000000000000
(1790243637.714350) can0 18A#F9FBFAF604
(1790243637.723814) can0 18A#F9FBFAF604
(1790243637.735243) can0 28A#0000000000000000
(1790243637.736421) can0 18A#F9FBFAF604
(1790243637.743650) can0 38A#000005
(1790243637.744573) can0 18A#F9FBFAF604
(1790243637.753752) can0 28A#0000000000000000
(1790243637.755608) can0 18A#F9FBFAF604
(1790243637.763752) can0 18A#F9FBFAF604
(1790243637.773442) can0 28A#0000000000000000
(1790243637.773854) can0 18A#F9FBFAF604
(1790243637.783232) can0 18A#F9FBFAF604
(1790243637.793659) can0 38A#000005
(1790243637.794206) can0 28A#0000000000000000
(1790243637.794615) can0 18A#F9FBFAF604
(1790243637.803450) can0 18A#F9FBFAF604
(1790243637.813119) can0 28A#0000000000000000
(1790243637.813541) can0 18A#F9FBFAF604
(1790243637.828421) can0 18A#F9FBFAF604
(1790243637.833020) can0 28A#0000000000000000
(1790243637.833494) can0 18A#F9FBFAF604
(1790243637.842881) can0 38A#000005
(1790243637.843351) can0 18A#F9FBFAF604
(1790243637.853404) can0 28A#0000000000000000
(1790243637.854264) can0 18A#F9FBFAF604
(1790243637.862730) can0 18A#F9FBFAF604
(1790243637.872766) can0 28A#0000000000000000
(1790243637.873177) can0 18A#F9FBFAF604
(1790243637.882959) can0 18A#F9FBFAF604
(1790243637.892551) can0 38A#000005
(1790243637.893022) can0 28A#0000000000000000
(1790243637.893345) can0 18A#F9FBFAF604
(1790243637.902658) can0 18A#F9FBF9F604
(1790243637.912800) can0 28A#0000000000000000
(1790243637.913240) can0 18A#F9FBF9F604
(1790243637.922335) can0 18A#F9FBF9F704
(1790243637.932374) can0 28A#0000000000000000
(1790243637.932790) can0 18A#F9FBF9F704
(1790243637.942423) can0 38A#000005
(1790243637.942854) can0 18A#F9FBF9F604
(1790243637.952322) can0 28A#0000000000000000
(1790243637.952799) can0 18A#F9FBF9F604
(1790243637.962066) can0 18A#F9FBFAF604
(1790243637.972380) can0 28A#0000000000000000
(1790243637.972830) can0 18A#F9FBF9F604
(1790243637.981853) can0 18A#F9FBF9F604
(1790243637.991802) can0 38A#000005
(1790243637.992246) can0 28A#0000000000000000
(1790243637.992619) can0 18A#F9FBF9F604
(1790243638.002353) can0 18A#F9FBFAF604
(1790243638.011765) can0 28A#0000000000000000
(1790243638.012404) can0 18A#F9FBFAF604
(1790243638.021618) can0 18A#F9FBFAF604
(1790243638.031919) can0 28A#0000000000000000
(1790243638.032371) can0 18A#F9FBFAF604
(1790243638.041420) can0 38A#000005
(1790243638.041825) can0 18A#F9FBFAF604
(1790243638.051642) can0 28A#0000000000000000
(1790243638.052169) can0 18A#F9FBFAF604
(1790243638.061699) can0 18A#F9FBFAF604
(1790243638.071283) can0 28A#0000000000000000
(1790243638.071749) can0 18A#F9FBFAF604
(1790243638.081163) can0 18A#F9FBFAF604
(1790243638.091998) can0 38A#000005
(1790243638.092575) can0 28A#0000000000000000
(1790243638.093091) can0 18A#F9FBF9F604
(1790243638.101328) can0 18A#F9FBF9F604
(1790243638.110969) can0 28A#0000000000000000
(1790243638.111402) can0 18A#F9FBF9F604
(1790243638.121382) can0 18A#F9FBFAF604
(1790243638.130795) can0 28A#0000000000000000
(1790243638.131209) can0 18A#F9FBFAF604
(1790243638.140725) can0 38A#000005
(1790243638.141227) can0 18A#F9FBF9F604
(1790243638.151102) can0 28A#0000000000000000
(1790243638.151583) can0 18A#F9FBF9F704
(1790243638.160514) can0 18A#F9FBF9F704
(1790243638.170505) can0 28A#0000000000000000
(1790243638.170923) can0 18A#F9FBF9F604
(1790243638.180668) can0 18A#F9FBF8F604
(1790243638.190232) can0 70A#05
(1790243638.190578) can0 38A#000005
(1790243638.190996) can0 28A#0000000000000000
(1790243638.200724) can0 18A#F9FBF8F604
(1790243638.210626) can0 28A#0000000000000000
(1790243638.211236) can0 18A#F9FBF8F604
(1790243638.220195) can0 18A#F9FBF8F604
(1790243638.230052) can0 28A#0000000000000000
(1790243638.230425) can0 18A#F9FBF8F604
(1790243638.240322) can0 38A#000005
(1790243638.240872) can0 18A#F9FBF8F604
(1790243638.250259) can0 28A#0000000000000000
(1790243638.250885) can0 18A#F9FBF8F604
(1790243638.259886) can0 18A#F9FBF8F704
(1790243638.270262) can0 28A#0000000000000000
(1790243638.270856) can0 18A#F9FBF8F704
(1790243638.279667) can0 18A#F9FBF8F704
(1790243638.289645) can0 38A#000005
(1790243638.290308) can0 28A#0000000000000000
(1790243638.290875) can0 18A#F9FBF8F604
(1790243638.300787) can0 18A#F9FBF8F604
(1790243638.309605) can0 28A#0000000000000000
(1790243638.310745) can0 18A#F9FBF8F604
(1790243638.319335) can0 18A#F9FBF8F604
(1790243638.332073) can0 28A#0000000000000000
(1790243638.333267) can0 18A#F9FBF8F604
(1790243638.339236) can0 38A#000005
(1790243638.339823) can0 18A#F9FBF8F704
(1790243638.349831) can0 28A#0000000000000000
(1790243638.350421) can0 18A#F9FBF8F704
(1790243638.359426) can0 18A#F9FBF9F604
(1790243638.369121) can0 28A#0000000000000000
(1790243638.369552) can0 18A#F9FBF9F604
(1790243638.378835) can0 18A#F9FBF9F704
(1790243638.389220) can0 38A#000005
(1790243638.389779) can0 28A#0000000000000000
(1790243638.390187) can0 18A#F9FBF9F604
(1790243638.399242) can0 18A#F9FBF9F604
(1790243638.408766) can0 28A#0000000000000000
(1790243638.409184) can0 18A#F9FBF9F604
(1790243638.419066) can0 18A#F9FBF8F604
(1790243638.428605) can0 28A#0000000000000000
(1790243638.429010) can0 18A#F9FBF9F604
(1790243638.438403) can0 38A#000005
(1790243638.438850) can0 18A#F9FBF9F604
(1790243638.448832) can0 28A#0000000000000000
(1790243638.449396) can0 18A#F9FBF9F604
(1790243638.458264) can0 18A#F9FBF9F604
(1790243638.468343) can0 28A#0000000000000000
(1790243638.468864) can0 18A#F9FBF9F604
(1790243638.478599) can0 18A#F9FBF9F604
(1790243638.488184) can0 38A#000005
(1790243638.488859) can0 28A#0000000000000000
(1790243638.489429) can0 18A#F9FBF9F604
(1790243638.498900) can0 18A#F9FBF9F604
(1790243638.508489) can0 28A#0000000000000000
(1790243638.509174) can0 18A#F9FBF9F604
(1790243638.517973) can0 18A#F9FBF9F604
(1790243638.528050) can0 28A#0000000000000000
(1790243638.528865) can0 18A#F9FBF9F604
(1790243638.538114) can0 38A#000005
(1790243638.538843) can0 18A#F9FBF9F604
(1790243638.547921) can0 28A#0000000000000000
(1790243638.548413) can0 18A#F9FBF9F604
(1790243638.557530) can0 18A#F9FBF9F604
(1790243638.567984) can0 28A#0000000000000000
(1790243638.568428) can0 18A#F9FBF9F604
(1790243638.577363) can0 18A#F9FBF9F604
(1790243638.587326) can0 38A#000005
(1790243638.587727) can0 28A#0000000000000000
(1790243638.588030) can0 18A#F9FBF9F604
(1790243638.597728) can0 18A#F9FBF9F604
(1790243638.607296) can0 28A#0000000000000000
(1790243638.607723) can0 18A#F9FBF9F604
(1790243638.617206) can0 18A#F9FBF9F604
(1790243638.627485) can0 28A#0000000000000000
(1790243638.628028) can0 18A#F9FBF8F604
(1790243638.637121) can0 38A#000005
(1790243638.637591) can0 18A#F9FBF8F604
(1790243638.647149) can0 28A#0000000000000000
(1790243638.647670) can0 18A#F9FBF8F704
(1790243638.657328) can0 18A#F9FBF8F704
(1790243638.666927) can0 28A#0000000000000000
(1790243638.667556) can0 18A#F9FBF8F604
(1790243638.676754) can0 18A#F9FBF8F604
(1790243638.686917) can0 38A#000005
(1790243638.687393) can0 28A#0000000000000000
(1790243638.687703) can0 18A#F9FBF8F604
(1790243638.696699) can0 18A#F9FBF8F604
(1790243638.706495) can0 28A#0000000000000000
(1790243638.706891) can0 18A#F9FBF8F704
(1790243638.716868) can0 18A#F9FBF8F604
(1790243638.726408) can0 28A#0000000000000000
(1790243638.726861) can0 18A#F9FBF8F604
(1790243638.736262) can0 38A#000005
(1790243638.736821) can0 18A#F9FBF8F604
(1790243638.746676) can0 28A#0000000000000000
(1790243638.747360) can0 18A#F9FBF8F604
(1790243638.756129) can0 18A#F9FBF8F604
(1790243638.766327) can0 28A#0000000000000000
(1790243638.767665) can0 18A#F9FBF8F704
(1790243638.776295) can0 18A#F9FBF8F704
(1790243638.785941) can0 38A#000005
(1790243638.786545) can0 28A#0000000000000000
(1790243638.786951) can0 18A#F9FBF8F604
(1790243638.795899) can0 18A#F9FBF8F704
(1790243638.806183) can0 28A#0000000000000000
(1790243638.806671) can0 18A#F9FBF8F604
(1790243638.815767) can0 18A#F9FBF8F604
(1790243638.825673) can0 28A#0000000000000000
(1790243638.826134) can0 18A#F9FBF8F604
(1790243638.835890) can0 38A#000005
(1790243638.836360) can0 18A#F9FBF8F604
(1790243638.845758) can0 28A#0000000000000000
(1790243638.846390) can0 18A#F9FBF8F604
(1790243638.855430) can0 18A#F9FBF8F604
(1790243638.865807) can0 28A#0000000000000000
(1790243638.866336) can0 18A#F9FBF8F604
(1790243638.875246) can0 18A#F9FBF8F704
(1790243638.885104) can0 38A#000005
(1790243638.885647) can0 28A#0000000000000000
(1790243638.886025) can0 18A#F9FBF8F604
(1790243638.895525) can0 18A#F9FBF8F604
(1790243638.905143) can0 28A#0000000000000000
(1790243638.905718) can0 18A#F9FBF8F604
(1790243638.915087) can0 18A#F9FBF8F704
(1790243638.925318) can0 28A#0000000000000000
(1790243638.925794) can0 18A#F9FBF8F604
(1790243638.934939) can0 38A#000005
(1790243638.935525) can0 18A#F9FBF8F604
(1790243638.944868) can0 28A#0000000000000000
(1790243638.945405) can0 18A#F9FBF8F604
