(1790244271.014883) can0 28A#0000000000000000
(1790244271.015375) can0 18A#0000000000
(1790244271.024432) can0 38A#000005
(1790244271.024877) can0 18A#0000000000
(1790244271.034496) can0 28A#0000000000000000
(1790244271.034924) can0 18A#0000000000
(1790244271.044763) can0 18A#0000000000
(1790244271.054599) can0 28A#0000000000000000
(1790244271.055200) can0 18A#0000000000
(1790244271.064568) can0 18A#0000000000
(1790244271.074932) can0 38A#000005
(1790244271.075559) can0 28A#0000000000000000
(1790244271.076033) can0 18A#0000000000
(1790244271.084540) can0 18A#0000000000
(1790244271.094686) can0 28A#0000000000000000
(1790244271.095511) can0 18A#0000000000
(1790244271.104883) can0 18A#0000000000
(1790244271.114633) can0 28A#0000000000000000
(1790244271.115196) can0 18A#0000000000
(1790244271.124544) can0 38A#000005
(1790244271.125154) can0 18A#0000000000
(1790244271.134839) can0 28A#0000000000000000
(1790244271.135290) can0 18A#0000000000
(1790244271.144609) can0 18A#0000000000
(1790244271.154614) can0 28A#0000000000000000
(1790244271.155056) can0 18A#0000000000
(1790244271.164935) can0 18A#0000000000
(1790244271.174571) can0 70A#05
(1790244271.175733) can0 38A#000005
(1790244271.176463) can0 28A#0000000000000000
(1790244271.184995) can0 18A#0000000000
(1790244271.194971) can0 28A#0000000000000000
(1790244271.195525) can0 18A#0000000000
(1790244271.204563) can0 18A#0000000000
(1790244271.214698) can0 28A#0000000000000000
(1790244271.215189) can0 18A#0000000000
(1790244271.225045) can0 38A#000005
(1790244271.225676) can0 18A#0000000000
(1790244271.234643) can0 28A#0000000000000000
(1790244271.235022) can0 18A#0000000000
(1790244271.244724) can0 18A#0000000000
(1790244271.254963) can0 28A#0000000000000000
(1790244271.255453) can0 18A#0000000000
(1790244271.264645) can0 18A#0000000000
(1790244271.274694) can0 38A#000005
(1790244271.275277) can0 28A#0000000000000000
(1790244271.275798) can0 18A#0000000000
(1790244271.284959) can0 18A#0000000000
(1790244271.294789) can0 28A#0000000000000000
(1790244271.295340) can0 18A#0000000000
(1790244271.304756) can0 18A#0000000000
(1790244271.315141) can0 28A#0000000000000000
(1790244271.315799) can0 18A#0000000000
(1790244271.324764) can0 38A#000005
(1790244271.325404) can0 18A#0000000000
(1790244271.334825) can0 28A#0000000000000000
(1790244271.335545) can0 18A#0000000000
(1790244271.345085) can0 18A#0000000000
(1790244271.354810) can0 28A#0000000000000000
(1790244271.355301) can0 18A#0000000000
(1790244271.364776) can0 18A#0000000000
(1790244271.375099) can0 38A#000005
(1790244271.375584) can0 28A#0000000000000000
(1790244271.375887) can0 18A#0000000000
(1790244271.384635) can0 18A#0000000000
(1790244271.394851) can0 28A#0000000000000000
(1790244271.395270) can0 18A#0000000000
(1790244271.404971) can0 18A#0000000000
(1790244271.414833) can0 28A#0000000000000000
(1790244271.415285) can0 18A#0000000000
(1790244271.424817) can0 38A#000005
(1790244271.425351) can0 18A#0000000000
(1790244271.435102) can0 28A#0000000000000000
(1790244271.435551) can0 18A#0000000000
(1790244271.444807) can0 18A#0000000000
(1790244271.455008) can0 28A#0000000000000000
(1790244271.455816) can0 18A#0000000000
(1790244271.465110) can0 18A#0000000000
(1790244271.475633) can0 38A#000005
(1790244271.482723) can0 28A#0000000000000000
(1790244271.483200) can0 18A#0000000000
(1790244271.484762) can0 18A#0000000000
(1790244271.495309) can0 28A#0000000000000000
(1790244271.495940) can0 18A#0000000000
(1790244271.504907) can0 18A#0000000000
(1790244271.514950) can0 28A#0000000000000000
(1790244271.515635) can0 18A#0000000000
(1790244271.525194) can0 38A#000005
(1790244271.525898) can0 18A#0000000000
(1790244271.534970) can0 28A#0000000000000000
(1790244271.535788) can0 18A#0000000000
(1790244271.544919) can0 18A#0000000000
(1790244271.555287) can0 28A#0000000000000000
(1790244271.556254) can0 18A#0000000000
(1790244271.564959) can0 18A#0000000000
(1790244271.574986) can0 38A#000005
(1790244271.575855) can0 28A#0000000000000000
(1790244271.576609) can0 18A#0000000000
(1790244271.585273) can0 18A#0000000000
(1790244271.595181) can0 28A#0000000000000000
(1790244271.596071) can0 18A#0000000000
(1790244271.604947) can0 18A#0000000000
(1790244271.615302) can0 28A#0000000000000000
(1790244271.615949) can0 18A#0000000000
(1790244271.624840) can0 38A#000005
(1790244271.625344) can0 18A#0000000000
(1790244271.634901) can0 28A#0000000000000000
(1790244271.635263) can0 18A#0000000000
(1790244271.645250) can0 18A#0000000000
(1790244271.654946) can0 28A#0000000000000000
(1790244271.655340) can0 18A#0000000000
(1790244271.664925) can0 18A#0000000000
(1790244271.675293) can0 38A#000005
(1790244271.675800) can0 28A#0000000000000000
(1790244271.676212) can0 18A#0000000000
(1790244271.684887) can0 18A#0000000000
(1790244271.695009) can0 28A#0000000000000000
(1790244271.695417) can0 18A#0000000000
(1790244271.705218) can0 18A#0000000000
(1790244271.715046) can0 28A#0000000000000000
(1790244271.715508) can0 18A#0000000000
(1790244271.724989) can0 38A#000005
(1790244271.725679) can0 18A#0000000000
(1790244271.735260) can0 28A#0000000000000000
(1790244271.735627) can0 18A#0000000000
(1790244271.745002) can0 18A#0000000000
(1790244271.755098) can0 28A#0000000000000000
(1790244271.755758) can0 18A#0000000000
(1790244271.765326) can0 18A#0000000000
(1790244271.775133) can0 38A#000005
(1790244271.775795) can0 28A#0000000000000000
(1790244271.776322) can0 18A#0000000000
(1790244271.785162) can0 18A#0000000000
(1790244271.795377) can0 28A#0000000000000000
(1790244271.795766) can0 18A#0000000000
(1790244271.805017) can0 18A#0000000000
(1790244271.815051) can0 28A#0000000000000000
(1790244271.815957) can0 18A#0000000000
(1790244271.825300) can0 38A#000005
(1790244271.825722) can0 18A#0000000000
(1790244271.835005) can0 28A#0000000000000000
(1790244271.835382) can0 18A#0000000000
(1790244271.844949) can0 18A#0000000000
(1790244271.855392) can0 28A#0000000000000000
(1790244271.855875) can0 18A#0000000000
(1790244271.865122) can0 18A#0000000000
(1790244271.875604) can0 38A#000005
(1790244271.876663) can0 28A#0000000000000000
(1790244271.877437) can0 18A#0000000000
(1790244271.885437) can0 18A#0000000000
(1790244271.895470) can0 28A#0000000000000000
(1790244271.896118) can0 18A#0000000000
(1790244271.905110) can0 18A#0000000000
(1790244271.915598) can0 28A#0000000000000000
(1790244271.916322) can0 18A#0000000000
(1790244271.925136) can0 38A#000005
(1790244271.926329) can0 18A#0000000000
(1790244271.935178) can0 28A#0000000000000000
(1790244271.935589) can0 18A#0000000000
(1790244271.945473) can0 18A#0000000000
(1790244271.955147) can0 28A#0000000000000000
(1790244271.955661) can0 18A#0000000000
(1790244271.965182) can0 18A#0000000000
(1790244271.975469) can0 38A#000005
(1790244271.976052) can0 28A#0000000000000000
(1790244271.976439) can0 18A#0000000000
(1790244271.985082) can0 18A#0000000000
(1790244271.999054) can0 28A#0000000000000000
(1790244271.999516) can0 18A#0000000000
(1790244272.005361) can0 18A#0000000000
(1790244272.015205) can0 28A#0000000000000000
(1790244272.015683) can0 18A#0000000000
(1790244272.025140) can0 38A#000005
(1790244272.025702) can0 18A#0000000000
(1790244272.035520) can0 28A#0000000000000000
(1790244272.036269) can0 18A#0000000000
(1790244272.045141) can0 18A#0000000000
(1790244272.055265) can0 28A#0000000000000000
(1790244272.055918) can0 18A#0000000000
(1790244272.065520) can0 18A#0000000000
(1790244272.075389) can0 38A#000005
(1790244272.076519) can0 28A#0000000000000000
(1790244272.077228) can0 18A#0000000000
(1790244272.085169) can0 18A#0000000000
(1790244272.095440) can0 28A#0000000000000000
(1790244272.095842) can0 18A#0000000000
(1790244272.106463) can0 18A#0000000000
(1790244272.115354) can0 28A#0000000000000000
(1790244272.115969) can0 18A#0000000000
(1790244272.125376) can0 38A#000005
(1790244272.125954) can0 18A#0000000000
(1790244272.135144) can0 28A#0000000000000000
(1790244272.135695) can0 18A#0000000000
(1790244272.145106) can0 18A#0000000000
(1790244272.155473) can0 28A#0000000000000000
(1790244272.156401) can0 18A#0000000000
(1790244272.165109) can0 18A#0000000000
(1790244272.175053) can0 70A#05
(1790244272.175574) can0 38A#000005
(1790244272.176058) can0 28A#0000000000000000
(1790244272.185402) can0 18A#0000000000
(1790244272.195315) can0 28A#0000000000000000
(1790244272.196161) can0 18A#0000000000
(1790244272.205033) can0 18A#0000000000
(1790244272.215416) can0 28A#0000000000000000
(1790244272.215857) can0 18A#0000000000
(1790244272.224989) can0 38A#000005
(1790244272.225454) can0 18A#0000000000
(1790244272.234967) can0 28A#0000000000000000
(1790244272.235307) can0 18A#0000000000
(1790244272.245327) can0 18A#0000000000
(1790244272.255010) can0 28A#0000000000000000
(1790244272.255512) can0 18A#0000000000
(1790244272.265012) can0 18A#0000000000
(1790244272.275329) can0 38A#000005
(1790244272.275873) can0 28A#0000000000000000
(1790244272.276299) can0 18A#0000000000
(1790244272.284964) can0 18A#0000000000
(1790244272.295118) can0 28A#0000000000000000
(1790244272.295671) can0 18A#0000000000
(1790244272.305282) can0 18A#0000000000
(1790244272.315062) can0 28A#0000000000000000
(1790244272.315622) can0 18A#0000000000
(1790244272.324975) can0 38A#000005
(1790244272.325769) can0 18A#0000000000
(1790244272.335471) can0 28A#0000000000000000
(1790244272.336269) can0 18A#0000000000
(1790244272.345027) can0 18A#0000000000
(1790244272.354976) can0 28A#0000000000000000
(1790244272.355408) can0 18A#0000000000
(1790244272.365220) can0 18A#0000000000
(1790244272.374990) can0 38A#000005
(1790244272.375525) can0 28A#0000000000000000
(1790244272.375894) can0 18A#0000000000
(1790244272.384966) can0 18A#0000000000
(1790244272.395310) can0 28A#0000000000000000
(1790244272.395812) can0 18A#0000000000
(1790244272.404914) can0 18A#0000000000
(1790244272.415045) can0 28A#0000000000000000
(1790244272.415649) can0 18A#0000000000
(1790244272.425278) can0 38A#000005
(1790244272.426055) can0 18A#0000000000
(1790244272.435045) can0 28A#0000000000000000
(1790244272.435705) can0 18A#0000000000
(1790244272.445044) can0 18A#0000000000
(1790244272.455364) can0 28A#0000000000000000
(1790244272.456027) can0 18A#0000000000
(1790244272.464919) can0 18A#0000000000
(1790244272.474941) can0 38A#000005
(1790244272.475652) can0 28A#0000000000000000
(1790244272.476257) can0 18A#0000000000
(1790244272.485238) can0 18A#0000000000
(1790244272.495104) can0 28A#0000000000000000
(1790244272.495833) can0 18A#0000000000
(1790244272.504855) can0 18A#0000000000
(1790244272.515450) can0 28A#0000000000000000
(1790244272.516028) can0 18A#0000000000
(1790244272.524810) can0 38A#000005
(1790244272.525226) can0 18A#0000000000
(1790244272.534837) can0 28A#0000000000000000
(1790244272.535200) can0 18A#0000000000
(1790244272.545129) can0 18A#0000000000
(1790244272.554899) can0 28A#0000000000000000
(1790244272.555455) can0 18A#0000000000
(1790244272.564800) can0 18A#0000000000
(1790244272.575248) can0 38A#000005
(1790244272.575923) can0 28A#0000000000000000
(1790244272.576539) can0 18A#0000000000
(1790244272.584754) can0 18A#0000000000
(1790244272.594891) can0 28A#0000000000000000
(1790244272.595437) can0 18A#0000000000
(1790244272.605173) can0 18A#0000000000
(1790244272.614943) can0 28A#0000000000000000
(1790244272.615570) can0 18A#0000000000
(1790244272.625111) can0 38A#000005
(1790244272.625793) can0 18A#0000000000
(1790244272.635139) can0 28A#0000000000000000
(1790244272.635527) can0 18A#0000000000
(1790244272.644778) can0 18A#0000000000
(1790244272.654783) can0 28A#0000000000000000
(1790244272.655209) can0 18A#0000000000
(1790244272.665137) can0 18A#0000000000
(1790244272.674795) can0 38A#000005
(1790244272.675237) can0 28A#0000000000000000
(1790244272.675579) can0 18A#0000000000
(1790244272.684729) can0 18A#0000000000
(1790244272.695189) can0 28A#0000000000000000
(1790244272.695721) can0 18A#0000000000
(1790244272.704683) can0 18A#0000000000
(1790244272.714803) can0 28A#0000000000000000
(1790244272.715221) can0 18A#0000000000
(1790244272.725028) can0 38A#000005
(1790244272.725476) can0 18A#0000000000
(1790244272.734746) can0 28A#0000000000000000
(1790244272.735111) can0 18A#0000000000
(1790244272.744735) can0 18A#0000000000
(1790244272.755065) can0 28A#0000000000000000
(1790244272.755432) can0 18A#0000000000
(1790244272.764769) can0 18A#0000000000
(1790244272.774729) can0 38A#000005
(1790244272.775280) can0 28A#0000000000000000
(1790244272.775662) can0 18A#0000000000
(1790244272.784976) can0 18A#0000000000
(1790244272.794773) can0 28A#0000000000000000
(1790244272.795189) can0 18A#0000000000
(1790244272.804666) can0 18A#0000000000
(1790244272.815077) can0 28A#0000000000000000
(1790244272.815666) can0 18A#0000000000
(1790244272.824838) can0 38A#000005
(1790244272.825610) can0 18A#0000000000
(1790244272.834737) can0 28A#0000000000000000
(1790244272.835128) can0 18A#0000000000
(1790244272.845094) can0 18A#0000000000
(1790244272.854677) can0 28A#0000000000000000
(1790244272.855070) can0 18A#0000000000
(1790244272.864673) can0 18A#0000000000
(1790244272.875015) can0 38A#000005
(1790244272.875675) can0 28A#0000000000000000
(1790244272.876153) can0 18A#0000000000
(1790244272.884733) can0 18A#0000000000
(1790244272.894807) can0 28A#0000000000000000
(1790244272.895314) can0 18A#0000000000
(1790244272.904930) can0 18A#0000000000
(1790244272.914794) can0 28A#0000000000000000
(1790244272.915423) can0 18A#0000000000
(1790244272.924659) can0 38A#000005
(1790244272.925207) can0 18A#0000000000
(1790244272.934982) can0 28A#0000000000000000
(1790244272.935402) can0 18A#0000000000
(1790244272.944625) can0 18A#0000000000
(1790244272.954678) can0 28A#0000000000000000
(1790244272.955148) can0 18A#0000000000
(1790244272.964926) can0 18A#0000000000
(1790244272.974657) can0 38A#000005
(1790244272.975307) can0 28A#0000000000000000
(1790244272.975776) can0 18A#0000000000
(1790244272.984663) can0 18A#0000000000
(1790244272.995092) can0 28A#0000000000000000
(1790244272.995701) can0 18A#0000000000
(1790244273.004648) can0 18A#0000000000
(1790244273.014727) can0 28A#0000000000000000
(1790244273.015310) can0 18A#0000000000
(1790244273.025017) can0 38A#000005
(1790244273.025718) can0 18A#0000000000
(1790244273.038156) can0 28A#0000000000000000
(1790244273.038526) can0 18A#0000000000
(1790244273.044588) can0 18A#0000000000
(1790244273.054928) can0 28A#0000000000000000
(1790244273.055600) can0 18A#0000000000
(1790244273.064658) can0 18A#0000000000
(1790244273.075215) can0 38A#000005
(1790244273.076284) can0 28A#0000000000000000
(1790244273.077092) can0 18A#0000000000
(1790244273.084949) can0 18A#0000000000
(1790244273.094691) can0 28A#0000000000000000
(1790244273.095456) can0 18A#0000000000
(1790244273.104557) can0 18A#0000000000
(1790244273.114954) can0 28A#0000000000000000
(1790244273.115672) can0 18A#0000000000
(1790244273.124442) can0 38A#000005
(1790244273.125000) can0 18A#0000000000
(1790244273.134445) can0 28A#0000000000000000
(1790244273.134871) can0 18A#0000000000
(1790244273.144767) can0 18A#0000000000
(1790244273.154390) can0 28A#0000000000000000
(1790244273.154829) can0 18A#0000000000
(1790244273.164379) can0 18A#0000000000
(1790244273.174641) can0 70A#05
(1790244273.175100) can0 38A#000005
(1790244273.175541) can0 28A#0000000000000000
(1790244273.184358) can0 18A#0000000000
(1790244273.194597) can0 28A#0000000000000000
(1790244273.195734) can0 18A#0000000000
(1790244273.204723) can0 18A#0000000000
(1790244273.214335) can0 28A#0000000000000000
(1790244273.214866) can0 18A#0000000000
(1790244273.224245) can0 38A#000005
(1790244273.224895) can0 18A#0000000000
(1790244273.234651) can0 28A#0000000000000000
(1790244273.235328) can0 18A#0000000000
(1790244273.244371) can0 18A#0000000000
(1790244273.254416) can0 28A#0000000000000000
(1790244273.255152) can0 18A#0000000000
(1790244273.264604) can0 18A#0000000000
(1790244273.274145) can0 38A#000005
(1790244273.274620) can0 28A#0000000000000000
(1790244273.274985) can0 18A#0000000000
(1790244273.284075) can0 18A#0000000000
(1790244273.294544) can0 28A#0000000000000000
(1790244273.294980) can0 18A#0000000000
(1790244273.304095) can0 18A#0000000000
(1790244273.314320) can0 28A#0000000000000000
(1790244273.314870) can0 18A#0000000000
(1790244273.324371) can0 38A#000005
(1790244273.324832) can0 18A#0000000000
(1790244273.334109) can0 28A#0000000000000000
(1790244273.334514) can0 18A#0000000000
(1790244273.344065) can0 18A#0000000000
(1790244273.354449) can0 28A#0000000000000000
(1790244273.355090) can0 18A#0000000000
(1790244273.364120) can0 18A#0000000000
(1790244273.374251) can0 38A#000005
(1790244273.375177) can0 28A#0000000000000000
(1790244273.376130) can0 18A#0000000000
(1790244273.384432) can0 18A#0000000000
(1790244273.394300) can0 28A#0000000000000000
(1790244273.395353) can0 18A#0000000000
(1790244273.404060) can0 18A#0000000000
(1790244273.414409) can0 28A#0000000000000000
(1790244273.415052) can0 18A#0000000000
(1790244273.424112) can0 38A#000005
(1790244273.424909) can0 18A#0000000000
(1790244273.434024) can0 28A#0000000000000000
(1790244273.434536) can0 18A#0000000000
(1790244273.444304) can0 18A#0000000000
(1790244273.454118) can0 28A#0000000000000000
(1790244273.454776) can0 18A#0000000000
(1790244273.463972) can0 18A#0000000000
(1790244273.474364) can0 38A#000005
(1790244273.474905) can0 28A#0000000000000000
(1790244273.475285) can0 18A#0000000000
(1790244273.483871) can0 18A#0000000000
(1790244273.494046) can0 28A#0000000000000000
(1790244273.494594) can0 18A#0000000000
(1790244273.504104) can0 18A#0000000000
(1790244273.513909) can0 28A#0000000000000000
(1790244273.514429) can0 18A#0000000000
(1790244273.523807) can0 38A#000005
(1790244273.524364) can0 18A#0000000000
(1790244273.534203) can0 28A#0000000000000000
(1790244273.534879) can0 18A#0000000000
(1790244273.543844) can0 18A#0000000000
(1790244273.553979) can0 28A#0000000000000000
(1790244273.554927) can0 18A#0000000000
(1790244273.566289) can0 18A#0000000000
(1790244273.575786) can0 38A#000005
(1790244273.579596) can0 28A#0000000000000000
(1790244273.581558) can0 18A#0000000000
(1790244273.583735) can0 18A#0000000000
(1790244273.594518) can0 28A#0000000000000000
(1790244273.595218) can0 18A#0000000000
(1790244273.604175) can0 18A#0000000000
(1790244273.615077) can0 28A#0000000000000000
(1790244273.616868) can0 18A#0000000000
(1790244273.624242) can0 38A#000005
(1790244273.625722) can0 18A#0000000000
(1790244273.633798) can0 28A#0000000000000000
(1790244273.636441) can0 18A#0000000000
(1790244273.645619) can0 18A#0000000000
(1790244273.655351) can0 28A#0000000000000000
(1790244273.656131) can0 18A#0000000000
(1790244273.664597) can0 18A#0000000000
(1790244273.674241) can0 38A#000005
(1790244273.676463) can0 28A#0000000000000000
(1790244273.678406) can0 18A#0000000000
(1790244273.683943) can0 18A#0000000000
(1790244273.694601) can0 28A#0000000000000000
(1790244273.696367) can0 18A#0000000000
(1790244273.704354) can0 18A#0000000000
(1790244273.713959) can0 28A#0000000000000000
(1790244273.714527) can0 18A#0000000000
(1790244273.723459) can0 38A#000005
(1790244273.723901) can0 18A#0000000000
(1790244273.733482) can0 28A#0000000000000000
(1790244273.733881) can0 18A#0000000000
(1790244273.743872) can0 18A#0000000000
(1790244273.755136) can0 28A#0000000000000000
(1790244273.755922) can0 18A#0000000000
(1790244273.763385) can0 18A#0000000000
(1790244273.773654) can0 38A#000005
(1790244273.774052) can0 28A#0000000000000000
(1790244273.774476) can0 18A#0000000000
(1790244273.783314) can0 18A#0000000000
(1790244273.793384) can0 28A#0000000000000000
(1790244273.793740) can0 18A#0000000000
(1790244273.803632) can0 18A#0000000000
(1790244273.813340) can0 28A#0000000000000000
(1790244273.813738) can0 18A#0000000000
(1790244273.823348) can0 38A#000005
(1790244273.823986) can0 18A#0000000000
(1790244273.833664) can0 28A#0000000000000000
(1790244273.834211) can0 18A#0000000000
(1790244273.843248) can0 18A#0000000000
(1790244273.853293) can0 28A#0000000000000000
(1790244273.853789) can0 18A#0000000000
(1790244273.863664) can0 18A#0000000000
(1790244273.873398) can0 38A#000005
(1790244273.874145) can0 28A#0000000000000000
(1790244273.874636) can0 18A#0000000000
(1790244273.883181) can0 18A#0000000000
(1790244273.893574) can0 28A#0000000000000000
(1790244273.893985) can0 18A#0000000000
(1790244273.903110) can0 18A#0000000000
(1790244273.913316) can0 28A#0000000000000000
(1790244273.913836) can0 18A#0000000000
(1790244273.923535) can0 38A#000005
(1790244273.924299) can0 18A#0000000000
(1790244273.933289) can0 28A#0000000000000000
(1790244273.933872) can0 18A#0000000000
(1790244273.943100) can0 18A#0000000000
(1790244273.953448) can0 28A#0000000000000000
(1790244273.954046) can0 18A#0000000000
(1790244273.963195) can0 18A#0000000000
(1790244273.973175) can0 38A#000005
(1790244273.973907) can0 28A#0000000000000000
(1790244273.974458) can0 18A#0000000000
(1790244273.983355) can0 18A#0000000000
(1790244273.993147) can0 28A#0000000000000000
(1790244273.993636) can0 18A#0000000000
(1790244274.002951) can0 18A#0000000000
(1790244274.013361) can0 28A#0000000000000000
(1790244274.013841) can0 18A#0000000000
(1790244274.023008) can0 38A#000005
(1790244274.023659) can0 18A#0000000000
(1790244274.033124) can0 28A#0000000000000000
(1790244274.033788) can0 18A#0000000000
(1790244274.043341) can0 18A#0000000000
(1790244274.053150) can0 28A#0000000000000000
(1790244274.054165) can0 18A#0000000000
(1790244274.062939) can0 18A#0000000000
(1790244274.073696) can0 38A#000005
(1790244274.081520) can0 28A#0000000000000000
(1790244274.081946) can0 18A#0000000000
(1790244274.082755) can0 18A#0000000000
(1790244274.092945) can0 28A#0000000000000000
(1790244274.093478) can0 18A#0000000000
(1790244274.103052) can0 18A#0000000000
(1790244274.112828) can0 28A#0000000000000000
(1790244274.113281) can0 18A#0000000000
(1790244274.122694) can0 38A#000005
(1790244274.123183) can0 18A#0000000000
(1790244274.133035) can0 28A#0000000000000000
(1790244274.133442) can0 18A#0000000000
(1790244274.142659) can0 18A#0000000000
(1790244274.152722) can0 28A#0000000000000000
(1790244274.153234) can0 18A#0000000000
(1790244274.163020) can0 18A#0000000000
(1790244274.172637) can0 70A#05
(1790244274.173184) can0 38A#000005
(1790244274.173733) can0 28A#0000000000000000
(1790244274.182600) can0 18A#0000000000
(1790244274.193127) can0 28A#0000000000000000
(1790244274.193665) can0 18A#0000000000
(1790244274.202494) can0 18A#0000000000
(1790244274.212623) can0 28A#0000000000000000
(1790244274.213183) can0 18A#0000000000
(1790244274.222792) can0 38A#000005
(1790244274.223282) can0 18A#0000000000
(1790244274.235345) can0 28A#0000000000000000
(1790244274.237488) can0 18A#0000000000
(1790244274.242409) can0 18A#0000000000
(1790244274.252829) can0 28A#0000000000000000
(1790244274.253492) can0 18A#0000000000
(1790244274.262478) can0 18A#0000000000
(1790244274.272513) can0 38A#000005
(1790244274.273108) can0 28A#0000000000000000
(1790244274.273538) can0 18A#0000000000
(1790244274.282577) can0 18A#0000000000
(1790244274.292460) can0 28A#0000000000000000
(1790244274.293128) can0 18A#0000000000
(1790244274.302380) can0 18A#0000000000
(1790244274.312726) can0 28A#0000000000000000
(1790244274.313385) can0 18A#0000000000
(1790244274.322237) can0 38A#000005
(1790244274.322718) can0 18A#0000000000
(1790244274.332216) can0 28A#0000000000000000
(1790244274.332561) can0 18A#0000000000
(1790244274.342435) can0 18A#0000000000
(1790244274.352173) can0 28A#0000000000000000
(1790244274.352566) can0 18A#0000000000
(1790244274.362224) can0 18A#0000000000
(1790244274.372437) can0 38A#000005
(1790244274.372980) can0 28A#0000000000000000
(1790244274.373439) can0 18A#0000000000
(1790244274.381994) can0 18A#0000000000
(1790244274.392246) can0 28A#0000000000000000
(1790244274.392802) can0 18A#0000000000
(1790244274.402270) can0 18A#0000000000
(1790244274.412064) can0 28A#0000000000000000
(1790244274.412493) can0 18A#0000000000
(1790244274.421938) can0 38A#000005
(1790244274.422448) can0 18A#0000000000
(1790244274.432306) can0 28A#0000000000000000
(1790244274.432707) can0 18A#0000000000
(1790244274.441914) can0 18A#0000000000
(1790244274.451931) can0 28A#0000000000000000
(1790244274.452461) can0 18A#0000000000
(1790244274.462201) can0 18A#0000000000
(1790244274.471939) can0 38A#000005
(1790244274.472912) can0 28A#0000000000000000
(1790244274.473572) can0 18A#0000000000
(1790244274.481855) can0 18A#0000000000
(1790244274.492359) can0 28A#0000000000000000
(1790244274.493047) can0 18A#0000000000
(1790244274.501782) can0 18A#0000000000
(1790244274.511890) can0 28A#0000000000000000
(1790244274.512465) can0 18A#0000000000
(1790244274.522052) can0 38A#000005
(1790244274.522544) can0 18A#E6ECFE1902
(1790244274.531700) can0 28A#0000000000000000
(1790244274.532075) can0 18A#0000000000
(1790244274.541730) can0 18A#E5ECFE1902
(1790244274.552050) can0 28A#0000000000000000
(1790244274.552624) can0 18A#E5E3FB3202
(1790244274.561734) can0 18A#E5DEFB3902
(1790244274.571719) can0 38A#000005
(1790244274.572468) can0 28A#0000000000000000
(1790244274.573029) can0 18A#E5D7FA3F02
(1790244274.581850) can0 18A#E4D3FA4102
(1790244274.591961) can0 28A#0000000000000000
(1790244274.593790) can0 18A#E4D2FA4202
(1790244274.601603) can0 18A#E4D1F94202
(1790244274.612657) can0 28A#0000000000000000
(1790244274.614563) can0 18A#E4CFF94302
(1790244274.622319) can0 38A#000005
(1790244274.624224) can0 18A#E4CFF94302
(1790244274.631567) can0 28A#0000000000000000
(1790244274.632831) can0 18A#E3CFFA4302
(1790244274.641919) can0 18A#E3CFF94302
(1790244274.651503) can0 28A#0000000000000000
(1790244274.653020) can0 18A#E3CFF94302
(1790244274.662815) can0 18A#E2CFF94302
(1790244274.673471) can0 38A#000005
(1790244274.675362) can0 28A#0000000000000000
(1790244274.677226) can0 18A#E2CEF94302
(1790244274.683055) can0 18A#E2CEF94302
(1790244274.692130) can0 28A#0000000000000000
(1790244274.693983) can0 18A#E1CDF94302
(1790244274.702955) can0 18A#E1CDF94302
(1790244274.712588) can0 28A#0000000000000000
(1790244274.714452) can0 18A#E1CDF94302
(1790244274.721384) can0 38A#000005
(1790244274.722414) can0 18A#E1CCF94302
(1790244274.732554) can0 28A#0000000000000000
(1790244274.734433) can0 18A#E0CCF84302
(1790244274.741922) can0 18A#E0CCF84302
(1790244274.751781) can0 28A#0000000000000000
(1790244274.752982) can0 18A#E0CDF84302
(1790244274.761864) can0 18A#E0CCF84302
(1790244274.771625) can0 38A#000005
(1790244274.773507) can0 28A#0000000000000000
(1790244274.774047) can0 18A#E0CCF84302
(1790244274.781606) can0 18A#DFCBF84302
(1790244274.791456) can0 28A#0000000000000000
(1790244274.791938) can0 18A#DFCBF84302
(1790244274.801025) can0 18A#DFCBF84302
(1790244274.811218) can0 28A#0000000000000000
(1790244274.811876) can0 18A#DFCAF84302
(1790244274.821395) can0 38A#000005
(1790244274.821980) can0 18A#DFCBF74302
(1790244274.831035) can0 28A#0000000000000000
(1790244274.831630) can0 18A#DECAF74302
(1790244274.840999) can0 18A#DECAF84302
(1790244274.851242) can0 28A#0000000000000000
(1790244274.851598) can0 18A#DECAF74302
(1790244274.860855) can0 18A#DEC9F74302
(1790244274.870933) can0 38A#000005
(1790244274.871722) can0 28A#0000000000000000
(1790244274.872176) can0 18A#DDC9F74302
(1790244274.881120) can0 18A#DDC9F74302
(1790244274.891001) can0 28A#0000000000000000
(1790244274.891634) can0 18A#DDC9F74302
(1790244274.901147) can0 18A#DDC9F74302
(1790244274.911180) can0 28A#0000000000000000
(1790244274.911725) can0 18A#DCC9F74302
(1790244274.920738) can0 38A#000005
(1790244274.921259) can0 18A#DCC8F74302
(1790244274.930757) can0 28A#0000000000000000
(1790244274.931239) can0 18A#DCC8F74302
(1790244274.941113) can0 18A#DCC7F64302
(1790244274.950842) can0 28A#0000000000000000
(1790244274.951732) can0 18A#DCC7F64302
(1790244274.960779) can0 18A#DCC7F64302
(1790244274.970995) can0 38A#000005
(1790244274.971848) can0 28A#0000000000000000
(1790244274.972492) can0 18A#DBC7F64302
(1790244274.980553) can0 18A#DBC6F64302
(1790244274.990598) can0 28A#0000000000000000
(1790244274.991004) can0 18A#DBC6F64302
(1790244275.000853) can0 18A#DAC6F64302
(1790244275.011298) can0 28A#0000000000000000
(1790244275.011795) can0 18A#DAC6F64302
(1790244275.020470) can0 38A#000005
(1790244275.020938) can0 18A#DAC5F64302
(1790244275.030766) can0 28A#0000000000000000
(1790244275.031143) can0 18A#DAC5F64302
(1790244275.040377) can0 18A#DAC6F64302
(1790244275.050519) can0 28A#0000000000000000
(1790244275.051184) can0 18A#D9C5F64302
(1790244275.060739) can0 18A#D9C5F64302
(1790244275.070422) can0 38A#000005
(1790244275.071200) can0 28A#0000000000000000
(1790244275.071781) can0 18A#D9C5F54302
(1790244275.080314) can0 18A#D9C5F54302
(1790244275.090690) can0 28A#0000000000000000
(1790244275.091205) can0 18A#D8C4F54302
(1790244275.100190) can0 18A#D8C4F44302
(1790244275.115092) can0 28A#0000000000000000
(1790244275.115559) can0 18A#D8C3F44302
(1790244275.120612) can0 38A#000005
(1790244275.121033) can0 18A#D8C4F44302
(1790244275.130081) can0 28A#0000000000000000
(1790244275.130473) can0 18A#D7C3F44302
(1790244275.140145) can0 18A#D7C3F44302
(1790244275.150372) can0 28A#0000000000000000
(1790244275.150758) can0 18A#D7C3F44302
(1790244275.160058) can0 18A#D7C3F44302
(1790244275.170061) can0 70A#05
(1790244275.170693) can0 38A#000005
(1790244275.171300) can0 28A#0000000000000000
(1790244275.180224) can0 18A#D6C3F34302
(1790244275.190078) can0 28A#0000000000000000
(1790244275.190615) can0 18A#D6C3F34302
(1790244275.199940) can0 18A#D6C2F34302
(1790244275.210302) can0 28A#0000000000000000
(1790244275.210826) can0 18A#D6C2F24302
(1790244275.220604) can0 38A#000005
(1790244275.221222) can0 18A#D6C2F24302
(1790244275.229941) can0 28A#0000000000000000
(1790244275.230630) can0 18A#D5C1F24302
(1790244275.240191) can0 18A#D5C0F24302
(1790244275.252117) can0 28A#0000000000000000
(1790244275.254030) can0 18A#D5C1F24302
(1790244275.264039) can0 18A#D5C1F14302
(1790244275.271958) can0 38A#000005
(1790244275.274430) can0 28A#0000000000000000
(1790244275.274886) can0 18A#D5C0F14302
(1790244275.279679) can0 18A#D4C0F14302
(1790244275.289620) can0 28A#0000000000000000
(1790244275.289998) can0 18A#D4C0F14302
(1790244275.299969) can0 18A#D4C0F04302
(1790244275.309750) can0 28A#0000000000000000
(1790244275.310524) can0 18A#D4BFF04302
(1790244275.319582) can0 38A#000005
(1790244275.320331) can0 18A#D3BFEF4302
(1790244275.329926) can0 28A#0000000000000000
(1790244275.330548) can0 18A#D3BEEF4302
(1790244275.339633) can0 18A#D3BFEE4302
(1790244275.349576) can0 28A#0000000000000000
(1790244275.350308) can0 18A#D3BEEE4302
(1790244275.359759) can0 18A#D2BFEE4302
(1790244275.369390) can0 38A#000005
(1790244275.370340) can0 28A#0000000000000000
(1790244275.370956) can0 18A#D3BEED4302
(1790244275.379231) can0 18A#D2BEED4302
(1790244275.389624) can0 28A#0000000000000000
(1790244275.390006) can0 18A#D2BEED4302
(1790244275.399124) can0 18A#D2BEED4302
(1790244275.409325) can0 28A#0000000000000000
(1790244275.409933) can0 18A#D2BEED4302
(1790244275.419603) can0 38A#000005
(1790244275.420468) can0 18A#D1BDEE4302
(1790244275.429285) can0 28A#0000000000000000
(1790244275.430052) can0 18A#D1BDEE4302
(1790244275.439206) can0 18A#D0BDEF4302
(1790244275.449612) can0 28A#0000000000000000
(1790244275.450510) can0 18A#D0BDF04302
(1790244275.459132) can0 18A#D0BCF04302
(1790244275.469593) can0 38A#000005
(1790244275.470495) can0 28A#0000000000000000
(1790244275.471327) can0 18A#CFBCF14302
(1790244275.479283) can0 18A#CFBCF24302
(1790244275.489147) can0 28A#0000000000000000
(1790244275.489912) can0 18A#CEBCF24302
(1790244275.498870) can0 18A#CEBCF34302
(1790244275.509371) can0 28A#0000000000000000
(1790244275.509928) can0 18A#CEBCF34302
(1790244275.518849) can0 38A#000005
(1790244275.519302) can0 18A#CEBCF44302
(1790244275.528817) can0 28A#0000000000000000
(1790244275.529259) can0 18A#CDBBF44302
(1790244275.539147) can0 18A#CDBBF54302
(1790244275.548776) can0 28A#0000000000000000
(1790244275.549185) can0 18A#CCBBF64302
(1790244275.558670) can0 18A#CCBBF74302
(1790244275.569014) can0 38A#000005
(1790244275.569622) can0 28A#0000000000000000
(1790244275.570124) can0 18A#CBBBF84302
(1790244275.578653) can0 18A#CBBBF84302
(1790244275.588729) can0 28A#0000000000000000
(1790244275.589318) can0 18A#CBBAF94302
(1790244275.598972) can0 18A#CABAFA4302
(1790244275.608649) can0 28A#0000000000000000
(1790244275.609403) can0 18A#C9BAFB4302
(1790244275.618660) can0 38A#000005
(1790244275.619324) can0 18A#C9BBFC4302
(1790244275.631935) can0 28A#0000000000000000
(1790244275.632324) can0 18A#C9BAFD4202
(1790244275.638438) can0 18A#C8BAFE4302
(1790244275.648532) can0 28A#0000000000000000
(1790244275.649154) can0 18A#C7B9004302
(1790244275.658773) can0 18A#C7B9004202
(1790244275.668464) can0 38A#000005
(1790244275.669093) can0 28A#0000000000000000
(1790244275.669579) can0 18A#C7B9004202
(1790244275.678295) can0 18A#C7B9004302
(1790244275.688679) can0 28A#0000000000000000
(1790244275.689202) can0 18A#C7B9004202
(1790244275.698199) can0 18A#C7B9004202
(1790244275.708246) can0 28A#0000000000000000
(1790244275.708649) can0 18A#C7B9004202
(1790244275.718507) can0 38A#000005
(1790244275.719024) can0 18A#C7B9004202
(1790244275.728190) can0 28A#0000000000000000
(1790244275.728669) can0 18A#C7B8004202
(1790244275.738154) can0 18A#C7B9004202
(1790244275.748502) can0 28A#0000000000000000
(1790244275.749747) can0 18A#C7B8004202
(1790244275.758093) can0 18A#C7B8004202
(1790244275.767961) can0 38A#000005
(1790244275.768384) can0 28A#0000000000000000
(1790244275.768735) can0 18A#C7B8004202
(1790244275.778212) can0 18A#C7B8004202
(1790244275.787993) can0 28A#0000000000000000
(1790244275.788381) can0 18A#C7B8004202
(1790244275.797898) can0 18A#C7B8004202
(1790244275.808266) can0 28A#0000000000000000
(1790244275.808743) can0 18A#C7B7004202
(1790244275.817834) can0 38A#000005
(1790244275.818318) can0 18A#C7B7004202
(1790244275.827926) can0 28A#0000000000000000
(1790244275.828427) can0 18A#C7B7004202
(1790244275.838139) can0 18A#C7B7004202
(1790244275.847867) can0 28A#0000000000000000
(1790244275.848594) can0 18A#C7B7004202
(1790244275.857781) can0 18A#C7B7004202
(1790244275.867983) can0 38A#000005
(1790244275.868408) can0 28A#0000000000000000
(1790244275.868773) can0 18A#C7B7004202
(1790244275.877731) can0 18A#C7B7004202
(1790244275.887741) can0 28A#0000000000000000
(1790244275.888278) can0 18A#C7B7004202
(1790244275.897829) can0 18A#C7B7004202
(1790244275.907611) can0 28A#0000000000000000
(1790244275.908020) can0 18A#C7B7004202
(1790244275.917514) can0 38A#000005
(1790244275.917984) can0 18A#C7B6004202
(1790244275.927917) can0 28A#0000000000000000
(1790244275.928388) can0 18A#C7B6004202
(1790244275.937466) can0 18A#C7B6004202
(1790244275.947522) can0 28A#0000000000000000
(1790244275.948087) can0 18A#C7B7004202
(1790244275.957822) can0 18A#C7B6004102
(1790244275.967534) can0 38A#000005
(1790244275.968761) can0 28A#0000000000000000
(1790244275.969543) can0 18A#C7B6004102
(1790244275.977439) can0 18A#C7B5004102
(1790244275.987709) can0 28A#0000000000000000
(1790244275.988165) can0 18A#C7B6004102
(1790244275.997222) can0 18A#C7B7004102
(1790244276.007421) can0 28A#0000000000000000
(1790244276.008069) can0 18A#C7B6004102
(1790244276.017753) can0 38A#000005
(1790244276.018454) can0 18A#C7B6004102
(1790244276.027185) can0 28A#0000000000000000
(1790244276.027683) can0 18A#C7B6004102
(1790244276.037199) can0 18A#C7B6004102
(1790244276.047466) can0 28A#0000000000000000
(1790244276.047925) can0 18A#C7B6004102
(1790244276.057028) can0 18A#C7B6004102
(1790244276.067174) can0 38A#000005
(1790244276.068246) can0 28A#0000000000000000
(1790244276.068759) can0 18A#C7B6004102
(1790244276.078269) can0 18A#C7B5004102
(1790244276.087786) can0 28A#0000000000000000
(1790244276.089083) can0 18A#C7B5004102
(1790244276.097242) can0 18A#C7B6004102
(1790244276.107562) can0 28A#0000000000000000
(1790244276.108541) can0 18A#C7B6004002
(1790244276.116890) can0 38A#000005
(1790244276.117743) can0 18A#C7B6004002
(1790244276.126830) can0 28A#0000000000000000
(1790244276.127470) can0 18A#C7B6004002
(1790244276.137197) can0 18A#C7B6004002
(1790244276.146732) can0 28A#0000000000000000
(1790244276.147312) can0 18A#C7B6004002
(1790244276.156676) can0 18A#C7B6004002
(1790244276.167004) can0 70A#05
(1790244276.167695) can0 38A#000005
(1790244276.168249) can0 28A#0000000000000000
(1790244276.176541) can0 18A#C7B5004002
(1790244276.186543) can0 28A#0000000000000000
(1790244276.187000) can0 18A#C7B5004002
(1790244276.196722) can0 18A#C7B5004002
(1790244276.206565) can0 28A#0000000000000000
(1790244276.207047) can0 18A#C7B5004002
(1790244276.216435) can0 38A#000005
(1790244276.217349) can0 18A#C7B5004002
(1790244276.226767) can0 28A#0000000000000000
(1790244276.227174) can0 18A#C7B5004002
(1790244276.236289) can0 18A#C7B5004002
(1790244276.246388) can0 28A#0000000000000000
(1790244276.246920) can0 18A#C7B6004002
(1790244276.256625) can0 18A#C7B6003F02
(1790244276.266467) can0 38A#000005
(1790244276.267259) can0 28A#0000000000000000
(1790244276.267879) can0 18A#C7B5003F02
(1790244276.276129) can0 18A#C7B6003F02
(1790244276.286745) can0 28A#0000000000000000
(1790244276.290682) can0 18A#C7B5003F02
(1790244276.295980) can0 18A#C7B5003F02
(1790244276.306171) can0 28A#0000000000000000
(1790244276.306722) can0 18A#C7B5003F02
(1790244276.316414) can0 38A#000005
(1790244276.317739) can0 18A#C7B5003F02
(1790244276.325966) can0 28A#0000000000000000
(1790244276.326374) can0 18A#C7B4003F02
(1790244276.336037) can0 18A#C7B4003F02
(1790244276.346247) can0 28A#0000000000000000
(1790244276.346646) can0 18A#C7B5003F02
(1790244276.355768) can0 18A#C7B3003F02
(1790244276.365984) can0 38A#000005
(1790244276.366842) can0 28A#0000000000000000
(1790244276.367297) can0 18A#C7B5003F02
(1790244276.376011) can0 18A#C7B4003F02
(1790244276.385715) can0 28A#0000000000000000
(1790244276.386118) can0 18A#C7B4003F02
(1790244276.395628) can0 18A#C7B5003F02
(1790244276.406052) can0 28A#0000000000000000
(1790244276.406539) can0 18A#C7B4003F02
(1790244276.415614) can0 38A#000005
(1790244276.416098) can0 18A#C7B5003F02
(1790244276.425514) can0 28A#0000000000000000
(1790244276.425874) can0 18A#C7B4003F02
(1790244276.435847) can0 18A#C7B4003F02
(1790244276.445454) can0 28A#0000000000000000
(1790244276.445826) can0 18A#C7B4003F02
(1790244276.455469) can0 18A#C7B3003F02
(1790244276.465689) can0 38A#000005
(1790244276.466185) can0 28A#0000000000000000
(1790244276.466508) can0 18A#C7B4003E02
(1790244276.475280) can0 18A#C7B5003E02
(1790244276.485382) can0 28A#0000000000000000
(1790244276.485847) can0 18A#C7B4003E02
(1790244276.495574) can0 18A#C7B5003E02
(1790244276.505267) can0 28A#0000000000000000
(1790244276.505767) can0 18A#C7B5003E02
(1790244276.515311) can0 38A#000005
(1790244276.515953) can0 18A#C7B6003E02
(1790244276.525542) can0 28A#0000000000000000
(1790244276.525981) can0 18A#C7B5003E02
(1790244276.535122) can0 18A#C7B6003E02
(1790244276.545115) can0 28A#0000000000000000
(1790244276.545605) can0 18A#C7DC003482
(1790244276.555421) can0 18A#C7E7002782
(1790244276.565004) can0 38A#000005
(1790244276.565563) can0 28A#0000000000000000
(1790244276.566202) can0 18A#C7E8002382
(1790244276.574899) can0 18A#C7E8001F82
(1790244276.585369) can0 28A#0000000000000000
(1790244276.586003) can0 18A#C7EA001C82
(1790244276.594886) can0 18A#C7EB001B82
(1790244276.604987) can0 28A#0000000000000000
(1790244276.605678) can0 18A#C7EC001982
(1790244276.615763) can0 38A#000005
(1790244276.616743) can0 18A#C7ED001702
(1790244276.624806) can0 28A#0000000000000000
(1790244276.625366) can0 18A#C7EC001702
(1790244276.634787) can0 18A#C7ED001502
(1790244276.645276) can0 28A#0000000000000000
(1790244276.646198) can0 18A#C7ED001502
(1790244276.654591) can0 18A#C7EE001402
(1790244276.664830) can0 38A#000005
(1790244276.673203) can0 28A#0000000000000000
(1790244276.673581) can0 18A#C7EE001202
(1790244276.674764) can0 18A#C7EE001102
(1790244276.684625) can0 28A#0000000000000000
(1790244276.685245) can0 18A#C7EE001002
(1790244276.694540) can0 18A#C7EF001002
(1790244276.704799) can0 28A#0000000000000000
(1790244276.705248) can0 18A#C7F0000E02
(1790244276.714396) can0 38A#000005
(1790244276.714950) can0 18A#C7F0000E02
(1790244276.724452) can0 28A#0000000000000000
(1790244276.724964) can0 18A#C7F0000D02
(1790244276.734735) can0 18A#C7F0000C02
(1790244276.744323) can0 28A#0000000000000000
(1790244276.744825) can0 18A#C7EF000C02
(1790244276.754168) can0 18A#C7F0000C02
(1790244276.764497) can0 38A#000005
(1790244276.765046) can0 28A#0000000000000000
(1790244276.765498) can0 18A#C7F0000B02
(1790244276.774088) can0 18A#C7F0000B02
(1790244276.784284) can0 28A#0000000000000000
(1790244276.784919) can0 18A#C7F0000B02
(1790244276.794370) can0 18A#C7F1000A02
(1790244276.804024) can0 28A#0000000000000000
(1790244276.804416) can0 18A#C7F0000A02
(1790244276.814003) can0 38A#000005
(1790244276.814600) can0 18A#C7EF000B02
(1790244276.824261) can0 28A#0000000000000000
(1790244276.824612) can0 18A#C7F0000C02
(1790244276.833889) can0 18A#C7EF000C02
(1790244276.843879) can0 28A#0000000000000000
(1790244276.844507) can0 18A#C7EF000C02
(1790244276.854214) can0 18A#C7F0000C02
(1790244276.864022) can0 38A#000005
(1790244276.865009) can0 28A#0000000000000000
(1790244276.865858) can0 18A#C7F0000C02
(1790244276.873724) can0 18A#C7EF000C02
(1790244276.884191) can0 28A#0000000000000000
(1790244276.884887) can0 18A#C7F0000D02
(1790244276.893691) can0 18A#C7EF000D02
(1790244276.903759) can0 28A#0000000000000000
(1790244276.904323) can0 18A#C7EF000E02
(1790244276.914017) can0 38A#000005
(1790244276.914578) can0 18A#C7EF000E02
(1790244276.923522) can0 28A#0000000000000000
(1790244276.923934) can0 18A#C7EF000E02
(1790244276.933490) can0 18A#C7EF000F02
(1790244276.943846) can0 28A#0000000000000000
(1790244276.944378) can0 18A#C7EF001002
(1790244276.953408) can0 18A#C7EF001002
(1790244276.963341) can0 38A#000005
(1790244276.963847) can0 28A#0000000000000000
(1790244276.964245) can0 18A#C7EE001002
(1790244276.973601) can0 18A#C7EE001002
(1790244276.983375) can0 28A#0000000000000000
(1790244276.983886) can0 18A#C7EE001102
(1790244276.993255) can0 18A#C7EE001102
(1790244277.003656) can0 28A#0000000000000000
(1790244277.004280) can0 18A#C7EE001202
(1790244277.013758) can0 38A#000005
(1790244277.014543) can0 18A#C7EF001102
(1790244277.023249) can0 28A#0000000000000000
(1790244277.023763) can0 18A#C7EE001202
(1790244277.033377) can0 18A#C7EE001302
(1790244277.043073) can0 28A#0000000000000000
(1790244277.043623) can0 18A#C7EE001302
(1790244277.052961) can0 18A#C7EE001302
(1790244277.063215) can0 38A#000005
(1790244277.063757) can0 28A#0000000000000000
(1790244277.064221) can0 18A#C7ED001402
(1790244277.072875) can0 18A#C7EE001402
(1790244277.082884) can0 28A#0000000000000000
(1790244277.083372) can0 18A#C7EC001502
(1790244277.092994) can0 18A#C7EC001602
(1790244277.102755) can0 28A#0000000000000000
(1790244277.103162) can0 18A#C7EC001602
(1790244277.112637) can0 38A#000005
(1790244277.113146) can0 18A#C7EC001602
(1790244277.122966) can0 28A#0000000000000000
(1790244277.123394) can0 18A#C7EC001702
(1790244277.132585) can0 18A#C7EE001502
(1790244277.142521) can0 28A#0000000000000000
(1790244277.142865) can0 18A#C7ED001502
(1790244277.152850) can0 18A#C7ED001602
(1790244277.162494) can0 70A#05
(1790244277.163530) can0 38A#000005
(1790244277.163925) can0 28A#0000000000000000
(1790244277.172353) can0 18A#C7EC001602
(1790244277.187329) can0 28A#0000000000000000
(1790244277.187808) can0 18A#C7EC001602
(1790244277.192216) can0 18A#C7EC001602
(1790244277.202338) can0 28A#0000000000000000
(1790244277.202848) can0 18A#C7EC001602
(1790244277.212686) can0 38A#000005
(1790244277.213270) can0 18A#C7EC001682
(1790244277.222142) can0 28A#0000000000000000
(1790244277.222569) can0 18A#C7ED001602
(1790244277.232132) can0 18A#C7EC001702
(1790244277.242463) can0 28A#0000000000000000
(1790244277.242953) can0 18A#C7ED001602
(1790244277.251936) can0 18A#C7EC001602
(1790244277.262023) can0 38A#000005
(1790244277.262856) can0 28A#0000000000000000
(1790244277.263232) can0 18A#C7EC001602
(1790244277.272366) can0 18A#C7ED001602
(1790244277.281966) can0 28A#0000000000000000
(1790244277.282521) can0 18A#C7EC001602
(1790244277.291795) can0 18A#C7EB001782
(1790244277.302233) can0 28A#0000000000000000
(1790244277.302800) can0 18A#C7EB001782
(1790244277.311858) can0 38A#000005
(1790244277.316372) can0 18A#C7EB001882
(1790244277.321783) can0 28A#0000000000000000
(1790244277.322240) can0 18A#C7EC001882
(1790244277.332086) can0 18A#C7EA001982
(1790244277.341657) can0 28A#0000000000000000
(1790244277.342194) can0 18A#C7E9001A82
(1790244277.351584) can0 18A#C7EA001A82
(1790244277.361751) can0 38A#000005
(1790244277.362236) can0 28A#0000000000000000
(1790244277.362649) can0 18A#C7EB001A82
(1790244277.371416) can0 18A#C7E9001A82
(1790244277.381490) can0 28A#0000000000000000
(1790244277.381969) can0 18A#C7E9001B82
(1790244277.391696) can0 18A#C7E9001B82
(1790244277.401484) can0 28A#0000000000000000
(1790244277.402129) can0 18A#C7EB001A82
(1790244277.411777) can0 38A#000005
(1790244277.412559) can0 18A#C7EA001A82
(1790244277.421713) can0 28A#0000000000000000
(1790244277.422355) can0 18A#C7EA001A82
(1790244277.431302) can0 18A#C7E9001B82
(1790244277.441317) can0 28A#0000000000000000
(1790244277.442407) can0 18A#C7EB001A82
(1790244277.451517) can0 18A#C7EB001982
(1790244277.461518) can0 38A#000005
(1790244277.462494) can0 28A#0000000000000000
(1790244277.463382) can0 18A#C7E7001B82
(1790244277.470989) can0 18A#C7EC001A02
(1790244277.481389) can0 28A#0000000000000000
(1790244277.481869) can0 18A#C7EA001A82
(1790244277.490844) can0 18A#C7EB001A82
(1790244277.500898) can0 28A#0000000000000000
(1790244277.501289) can0 18A#C7EB001A82
(1790244277.511108) can0 38A#000005
(1790244277.511577) can0 18A#C7EB001A82
(1790244277.520738) can0 28A#0000000000000000
(1790244277.521083) can0 18A#C7EA001A82
(1790244277.530782) can0 18A#C7EB001A82
(1790244277.541013) can0 28A#0000000000000000
(1790244277.541400) can0 18A#C7EB001A82
(1790244277.550658) can0 18A#C7EB001A82
(1790244277.560902) can0 38A#000005
(1790244277.561751) can0 28A#0000000000000000
(1790244277.562423) can0 18A#C7E7001D82
(1790244277.571033) can0 18A#C7E9001C82
(1790244277.580551) can0 28A#0000000000000000
(1790244277.581101) can0 18A#C7E7001D82
(1790244277.590397) can0 18A#C7E8001D82
(1790244277.600765) can0 28A#0000000000000000
(1790244277.601167) can0 18A#C7E8001E82
(1790244277.610340) can0 38A#000005
(1790244277.610877) can0 18A#C7C5002A02
(1790244277.620338) can0 28A#0000000000000000
(1790244277.620874) can0 18A#C7E4002582
(1790244277.630514) can0 18A#C7E3002482
(1790244277.640185) can0 28A#0000000000000000
(1790244277.640537) can0 18A#C7E4002382
(1790244277.650093) can0 18A#C7C1002D02
(1790244277.660515) can0 38A#000005
(1790244277.661571) can0 28A#0000000000000000
(1790244277.662248) can0 18A#C7E3002C82
(1790244277.670095) can0 18A#C7E4002882
(1790244277.680245) can0 28A#0000000000000000
(1790244277.680927) can0 18A#C7E3002482
(1790244277.690284) can0 18A#C7E0002B82
(1790244277.699974) can0 28A#0000000000000000
(1790244277.700387) can0 18A#C7E4002782
(1790244277.709856) can0 38A#000005
(1790244277.710390) can0 18A#C7BD003502
(1790244277.720168) can0 28A#0000000000000000
(1790244277.720541) can0 18A#C7E2002A82
(1790244277.729900) can0 18A#C7E6002682
(1790244277.739781) can0 28A#0000000000000000
(1790244277.740157) can0 18A#C7E1002B82
(1790244277.750015) can0 18A#C7DF002D82
(1790244277.759589) can0 38A#000005
(1790244277.759999) can0 28A#0000000000000000
(1790244277.760350) can0 18A#C7E3002982
(1790244277.769517) can0 18A#C7E2002B82
(1790244277.779940) can0 28A#0000000000000000
(1790244277.780357) can0 18A#C7E7002482
(1790244277.789474) can0 18A#C7E4002382
(1790244277.799604) can0 28A#0000000000000000
(1790244277.800111) can0 18A#C7E3002982
(1790244277.809787) can0 38A#000005
(1790244277.810302) can0 18A#C7BD003502
(1790244277.819408) can0 28A#0000000000000000
(1790244277.819781) can0 18A#C7BA003902
(1790244277.829358) can0 18A#C7DF003182
(1790244277.839668) can0 28A#0000000000000000
(1790244277.840097) can0 18A#C7E0002F82
(1790244277.849204) can0 18A#C7BE003402
(1790244277.859394) can0 38A#000005
(1790244277.860037) can0 28A#0000000000000000
(1790244277.860531) can0 18A#C7B8003A02
(1790244277.869461) can0 18A#C7B6003D02
(1790244277.879418) can0 28A#0000000000000000
(1790244277.880170) can0 18A#C7B5003D02
(1790244277.889075) can0 18A#C7B6003E02
(1790244277.899414) can0 28A#0000000000000000
(1790244277.899987) can0 18A#C7B4003E02
(1790244277.909096) can0 38A#000005
(1790244277.909804) can0 18A#C7B6003E02
(1790244277.919048) can0 28A#0000000000000000
(1790244277.919517) can0 18A#C7B5003E02
(1790244277.929224) can0 18A#C7B6003E02
(1790244277.938827) can0 28A#0000000000000000
(1790244277.939372) can0 18A#C7B5003E02
(1790244277.948805) can0 18A#C7B5003E02
(1790244277.959307) can0 38A#000005
(1790244277.960066) can0 28A#0000000000000000
(1790244277.960654) can0 18A#C7B4003E02
(1790244277.968737) can0 18A#C7B5003E02
(1790244277.978752) can0 28A#0000000000000000
(1790244277.979266) can0 18A#C7B4003E02
(1790244277.988890) can0 18A#C7BC003702
(1790244277.998604) can0 28A#0000000000000000
(1790244277.999087) can0 18A#C7DE003082
(1790244278.008455) can0 38A#000005
(1790244278.008920) can0 18A#C7BC003802
(1790244278.018764) can0 28A#0000000000000000
(1790244278.019191) can0 18A#C7B7003C02
(1790244278.028470) can0 18A#C7B7003C02
(1790244278.038368) can0 28A#0000000000000000
(1790244278.038766) can0 18A#C7B5003D02
(1790244278.048665) can0 18A#C7B4003E02
(1790244278.058367) can0 38A#000005
(1790244278.058966) can0 28A#0000000000000000
(1790244278.059363) can0 18A#C7B5003E02
(1790244278.068276) can0 18A#C7B5003E02
(1790244278.078533) can0 28A#0000000000000000
(1790244278.078951) can0 18A#C7B4003E02
(1790244278.087999) can0 18A#C7B5003E02
(1790244278.098088) can0 28A#0000000000000000
(1790244278.098556) can0 18A#C7B6003E02
(1790244278.108339) can0 38A#000005
(1790244278.108950) can0 18A#C7B5003E02
(1790244278.118004) can0 28A#0000000000000000
(1790244278.118558) can0 18A#C7B5003E02
(1790244278.127934) can0 18A#C7B5003E02
(1790244278.138348) can0 28A#0000000000000000
(1790244278.139163) can0 18A#C7B5003E02
(1790244278.147847) can0 18A#C7B5003E02
(1790244278.158185) can0 70A#05
(1790244278.158859) can0 38A#000005
(1790244278.159483) can0 28A#0000000000000000
(1790244278.168068) can0 18A#C7B3003E02
(1790244278.177852) can0 28A#0000000000000000
(1790244278.178556) can0 18A#C7B4003E02
(1790244278.187462) can0 18A#C7B3003E02
(1790244278.197873) can0 28A#0000000000000000
(1790244278.198268) can0 18A#C7B4003E02
(1790244278.207411) can0 38A#000005
(1790244278.207879) can0 18A#C7B5003E02
(1790244278.217409) can0 28A#0000000000000000
(1790244278.217775) can0 18A#C7B5003E02
(1790244278.227707) can0 18A#C7B5003E02
(1790244278.237368) can0 28A#0000000000000000
(1790244278.237886) can0 18A#C7B4003E02
(1790244278.247237) can0 18A#C7B4003E02
(1790244278.257827) can0 38A#000005
(1790244278.258580) can0 28A#0000000000000000
(1790244278.259076) can0 18A#C7B4003E02
(1790244278.267102) can0 18A#C7B4003E02
(1790244278.277280) can0 28A#0000000000000000
(1790244278.278074) can0 18A#C7B5003E02
(1790244278.287318) can0 18A#C7B4003E02
(1790244278.297095) can0 28A#0000000000000000
(1790244278.297625) can0 18A#C7B5003E02
(1790244278.307001) can0 38A#000005
(1790244278.307601) can0 18A#C7B4003E02
(1790244278.317299) can0 28A#0000000000000000
(1790244278.317852) can0 18A#C7B4003E02
(1790244278.327186) can0 18A#C7B4003E02
(1790244278.336977) can0 28A#0000000000000000
(1790244278.338120) can0 18A#C7B5003E02
(1790244278.347047) can0 18A#C7B6003E02
(1790244278.356643) can0 38A#000005
(1790244278.357240) can0 28A#0000000000000000
(1790244278.357778) can0 18A#C7B4003E02
(1790244278.366729) can0 18A#C7B4003E02
(1790244278.377024) can0 28A#0000000000000000
(1790244278.377706) can0 18A#C7B4003E02
(1790244278.386603) can0 18A#C7B6003E02
(1790244278.396715) can0 28A#0000000000000000
(1790244278.397434) can0 18A#C7B4003E02
(1790244278.406976) can0 38A#000005
(1790244278.407892) can0 18A#C7B3003F02
(1790244278.416556) can0 28A#0000000000000000
(1790244278.417273) can0 18A#C7B3003F02
(1790244278.426817) can0 18A#C7B4003F02
(1790244278.436653) can0 28A#0000000000000000
(1790244278.437124) can0 18A#C7B4003F02
(1790244278.446300) can0 18A#C7B4003F02
(1790244278.456055) can0 38A#000005
(1790244278.456509) can0 28A#0000000000000000
(1790244278.457079) can0 18A#C7B3003F02
(1790244278.466346) can0 18A#C7B5003E02
(1790244278.476082) can0 28A#0000000000000000
(1790244278.476509) can0 18A#C7B4003F02
(1790244278.485947) can0 18A#C7B4003F02
(1790244278.496365) can0 28A#0000000000000000
(1790244278.496876) can0 18A#C7B4003F02
(1790244278.506268) can0 38A#000005
(1790244278.507132) can0 18A#C7B4003F02
(1790244278.515876) can0 28A#0000000000000000
(1790244278.516315) can0 18A#C7B4003F02
(1790244278.526134) can0 18A#C7B4003F02
(1790244278.535760) can0 28A#0000000000000000
(1790244278.536164) can0 18A#C7B4003F02
(1790244278.545763) can0 18A#C7B5003E02
(1790244278.555974) can0 38A#000005
(1790244278.556455) can0 28A#0000000000000000
(1790244278.556798) can0 18A#C7B4003F02
(1790244278.565509) can0 18A#C7B4003F02
(1790244278.575597) can0 28A#0000000000000000
(1790244278.576037) can0 18A#C7B4003F02
(1790244278.585760) can0 18A#C7B4003F02
(1790244278.595562) can0 28A#0000000000000000
(1790244278.596098) can0 18A#C7B4003F02
(1790244278.605345) can0 38A#000005
(1790244278.605801) can0 18A#C7B4003F02
(1790244278.615691) can0 28A#0000000000000000
(1790244278.616050) can0 18A#C7B5003F02
(1790244278.625219) can0 18A#C7B4003F02
(1790244278.635263) can0 28A#0000000000000000
(1790244278.635740) can0 18A#C7B4003F02
(1790244278.645607) can0 18A#C7B4003F02
(1790244278.655446) can0 38A#000005
(1790244278.656100) can0 28A#0000000000000000
(1790244278.656599) can0 18A#C7B5003F02
(1790244278.665100) can0 18A#C7B5003E02
(1790244278.675494) can0 28A#0000000000000000
(1790244278.676114) can0 18A#C7B6003E02
(1790244278.684956) can0 18A#C7B5003E02
(1790244278.694988) can0 28A#0000000000000000
(1790244278.695487) can0 18A#C7B4003F02
(1790244278.705522) can0 38A#000005
(1790244278.706323) can0 18A#C7B4003F02
(1790244278.714771) can0 28A#0000000000000000
(1790244278.715163) can0 18A#C7B5003F02
(1790244278.724841) can0 18A#C7B5003F02
(1790244278.735005) can0 28A#0000000000000000
(1790244278.735360) can0 18A#C7B5003F02
(1790244278.744611) can0 18A#C7B4003F02
(1790244278.754686) can0 38A#000005
(1790244278.755453) can0 28A#0000000000000000
(1790244278.756064) can0 18A#C7B4003F02
(1790244278.764837) can0 18A#C7B4003F02
(1790244278.774596) can0 28A#0000000000000000
(1790244278.775074) can0 18A#C7B5003F02
(1790244278.784406) can0 18A#C7B5003F02
(1790244278.794807) can0 28A#0000000000000000
(1790244278.795247) can0 18A#C7B5003F02
(1790244278.804335) can0 38A#000005
(1790244278.804825) can0 18A#C7B5003F02
(1790244278.814295) can0 28A#0000000000000000
(1790244278.814677) can0 18A#C7B4003F02
(1790244278.824605) can0 18A#C7B5003F02
(1790244278.834553) can0 28A#0000000000000000
(1790244278.835417) can0 18A#C7B5003F02
(1790244278.844210) can0 18A#C7B5003F02
(1790244278.854499) can0 38A#000005
(1790244278.855143) can0 28A#0000000000000000
(1790244278.855517) can0 18A#C7B4003F02
(1790244278.863945) can0 18A#C7B4003F02
(1790244278.874002) can0 28A#0000000000000000
(1790244278.874381) can0 18A#C7B5003F02
(1790244278.884220) can0 18A#C7B5003F02
(1790244278.894004) can0 28A#0000000000000000
(1790244278.894603) can0 18A#C7B4003F02
(1790244278.904044) can0 38A#000005
(1790244278.904781) can0 18A#C7B5003F02
(1790244278.914961) can0 28A#0000000000000000
(1790244278.915561) can0 18A#C7B5003F02
(1790244278.923842) can0 18A#C7B4003F02
(1790244278.933803) can0 28A#0000000000000000
(1790244278.934319) can0 18A#C7B4003F02
(1790244278.944004) can0 18A#C7B4003F02
(1790244278.953815) can0 38A#000005
(1790244278.954660) can0 28A#0000000000000000
(1790244278.955412) can0 18A#C7B4003F02
(1790244278.963636) can0 18A#C7B5003F02
(1790244278.974016) can0 28A#0000000000000000
(1790244278.974774) can0 18A#C7B5003F02
(1790244278.983441) can0 18A#C7B5003F02
(1790244278.993401) can0 28A#0000000000000000
(1790244278.994013) can0 18A#C7B5003F02
(1790244279.003673) can0 38A#000005
(1790244279.004292) can0 18A#C7B4003F02
(1790244279.013366) can0 28A#0000000000000000
(1790244279.013952) can0 18A#C7B5003F02
(1790244279.023295) can0 18A#C7B5003F02
(1790244279.033641) can0 28A#0000000000000000
(1790244279.034425) can0 18A#C7B4003F02
(1790244279.043151) can0 18A#C7B4003F02
(1790244279.053046) can0 38A#000005
(1790244279.053768) can0 28A#0000000000000000
(1790244279.054119) can0 18A#C7B4003F02
(1790244279.063268) can0 18A#C7B5003F02
(1790244279.072931) can0 28A#0000000000000000
(1790244279.073343) can0 18A#C7B5003F02
(1790244279.082782) can0 18A#C7B4003F02
(1790244279.093243) can0 28A#0000000000000000
(1790244279.093823) can0 18A#C7B3003F02
(1790244279.102706) can0 38A#000005
(1790244279.103577) can0 18A#C7B4003F02
(1790244279.112704) can0 28A#0000000000000000
(1790244279.113107) can0 18A#C7B5003F02
(1790244279.122955) can0 18A#C7B5003F02
(1790244279.132999) can0 18A#C7B4003F02
(1790244279.142639) can0 18A#C7B5003F02
(1790244279.153226) can0 70A#05
(1790244279.153810) can0 38A#000005
(1790244279.154230) can0 28A#0000000000000000
(1790244279.162355) can0 18A#C7B4003F02
(1790244279.172370) can0 28A#0000000000000000
(1790244279.172832) can0 18A#C7B4003F02
(1790244279.182566) can0 18A#C7B5003F02
(1790244279.192266) can0 28A#0000000000000000
(1790244279.192664) can0 18A#C7B5003F02
(1790244279.202105) can0 38A#000005
(1790244279.202504) can0 18A#C7B5003F02
(1790244279.212484) can0 28A#0000000000000000
(1790244279.212839) can0 18A#C7B5003F02
(1790244279.222076) can0 18A#C7B5003F02
(1790244279.232061) can0 28A#0000000000000000
(1790244279.232517) can0 18A#C7B6003F02
(1790244279.249133) can0 18A#C7B5003F02
(1790244279.251856) can0 38A#000005
(1790244279.252317) can0 28A#0000000000000000
(1790244279.252696) can0 18A#C7B5003F02
(1790244279.261862) can0 18A#C7B5003F02
(1790244279.272427) can0 28A#0000000000000000
(1790244279.272998) can0 18A#C7B6003F02
(1790244279.281642) can0 18A#C7B4003F02
(1790244279.291673) can0 28A#0000000000000000
(1790244279.292082) can0 18A#C7B5003F02
(1790244279.301951) can0 38A#000005
(1790244279.302558) can0 18A#C7B5003F02
(1790244279.311571) can0 28A#0000000000000000
(1790244279.311972) can0 18A#C7B6003F02
(1790244279.321529) can0 18A#C7B5003F02
(1790244279.331867) can0 28A#0000000000000000
(1790244279.332500) can0 18A#C7B5003F02
(1790244279.341591) can0 18A#C7B5003F02
(1790244279.351398) can0 38A#000005
(1790244279.351915) can0 28A#0000000000000000
(1790244279.352305) can0 18A#C7B4003F02
(1790244279.361611) can0 18A#C7B4003F02
(1790244279.371313) can0 28A#0000000000000000
(1790244279.371803) can0 18A#C7B6003F02
(1790244279.381119) can0 18A#C7B6003F02
(1790244279.391597) can0 28A#0000000000000000
(1790244279.392107) can0 18A#C7B5003F02
(1790244279.401030) can0 38A#000005
(1790244279.401493) can0 18A#C7B5003F02
(1790244279.411041) can0 28A#0000000000000000
(1790244279.411483) can0 18A#C7B5003F02
(1790244279.421331) can0 18A#C7B4003F02
(1790244279.430896) can0 28A#0000000000000000
(1790244279.431268) can0 18A#C7B6003F02
(1790244279.440754) can0 18A#C7B5003F02
(1790244279.451110) can0 38A#000005
(1790244279.451765) can0 28A#0000000000000000
(1790244279.452404) can0 18A#C7B5003F02
(1790244279.460730) can0 18A#C7B5003F02
(1790244279.470765) can0 28A#0000000000000000
(1790244279.471292) can0 18A#C7B5003F02
(1790244279.480916) can0 18A#C7B5003F02
(1790244279.490718) can0 28A#0000000000000000
(1790244279.491403) can0 18A#C7B6003F02
(1790244279.500712) can0 38A#000005
(1790244279.501350) can0 18A#C7B5003F02
(1790244279.510830) can0 28A#0000000000000000
(1790244279.511247) can0 18A#C7B5003F02
(1790244279.520327) can0 18A#C7B5003F02
(1790244279.530383) can0 28A#0000000000000000
(1790244279.530871) can0 18A#C7B5003F02
(1790244279.540541) can0 18A#C7B5003F02
(1790244279.550452) can0 38A#000005
(1790244279.551190) can0 28A#0000000000000000
(1790244279.551646) can0 18A#C7B5003F02
(1790244279.560062) can0 18A#C7B5003F02
(1790244279.570450) can0 28A#0000000000000000
(1790244279.570941) can0 18A#C7B5003F02
(1790244279.579977) can0 18A#C7B5003F02
(1790244279.590039) can0 28A#0000000000000000
(1790244279.590490) can0 18A#C7B6003F02
(1790244279.600215) can0 38A#000005
(1790244279.600760) can0 18A#C7B5003F02
(1790244279.609865) can0 28A#0000000000000000
(1790244279.610186) can0 18A#C7B5003F02
(1790244279.619845) can0 18A#C7B5003F02
(1790244279.630222) can0 28A#0000000000000000
(1790244279.630898) can0 18A#C7B6003F02
(1790244279.639797) can0 18A#C7B5003F02
(1790244279.650391) can0 38A#000005
(1790244279.651363) can0 28A#0000000000000000
(1790244279.652056) can0 18A#C7B6003F02
(1790244279.659974) can0 18A#C7B6003F02
(1790244279.669666) can0 28A#0000000000000000
(1790244279.670200) can0 18A#C7B6003F02
(1790244279.679475) can0 18A#C7B6003F02
(1790244279.689745) can0 28A#0000000000000000
(1790244279.690177) can0 18A#C7B6003F02
(1790244279.699310) can0 38A#000005
(1790244279.699727) can0 18A#C7B6003F02
(1790244279.709347) can0 28A#0000000000000000
(1790244279.710116) can0 18A#C7B5003F02
(1790244279.719584) can0 18A#C7B5003F02
(1790244279.729336) can0 28A#0000000000000000
(1790244279.729992) can0 18A#C7B5003F02
(1790244279.739166) can0 18A#C7B5004002
(1790244279.749960) can0 38A#000005
(1790244279.751179) can0 28A#0000000000000000
(1790244279.752148) can0 18A#C7B6003F02
(1790244279.759125) can0 18A#C7B6003F02
(1790244279.769100) can0 28A#0000000000000000
(1790244279.769527) can0 18A#C7B5004002
(1790244279.779156) can0 18A#C7B5004002
(1790244279.788915) can0 28A#0000000000000000
(1790244279.789325) can0 18A#C7B6004002
(1790244279.798693) can0 38A#000005
(1790244279.799102) can0 18A#C7B6003F02
(1790244279.809073) can0 28A#0000000000000000
(1790244279.809603) can0 18A#C7B6004002
(1790244279.818640) can0 18A#C7B6004002
(1790244279.828656) can0 28A#0000000000000000
(1790244279.829038) can0 18A#C7B6003F02
(1790244279.838895) can0 18A#C7B5004002
(1790244279.848532) can0 38A#000005
(1790244279.849021) can0 28A#0000000000000000
(1790244279.849606) can0 18A#C7B6004002
(1790244279.858355) can0 18A#C7B6004002
(1790244279.868810) can0 28A#0000000000000000
(1790244279.869412) can0 18A#C7B6004002
(1790244279.878304) can0 18A#C7B5004002
(1790244279.888475) can0 28A#0000000000000000
(1790244279.889193) can0 18A#C7B6004002
(1790244279.898777) can0 38A#000005
(1790244279.899564) can0 18A#C7B6004002
(1790244279.908206) can0 28A#0000000000000000
(1790244279.908722) can0 18A#C7B5004002
(1790244279.918190) can0 18A#C7B6004002
(1790244279.928552) can0 28A#0000000000000000
(1790244279.929330) can0 18A#C7B6004002
(1790244279.938023) can0 18A#C7B6003F02
(1790244279.948170) can0 38A#000005
(1790244279.948859) can0 28A#0000000000000000
(1790244279.949257) can0 18A#C7B6004002
(1790244279.958132) can0 18A#C7B6004002
(1790244279.967864) can0 28A#0000000000000000
(1790244279.968231) can0 18A#C7B6004002
(1790244279.977779) can0 18A#C7B6004002
(1790244279.988209) can0 28A#0000000000000000
(1790244279.988894) can0 18A#C7B6004002
(1790244279.998673) can0 38A#000005
(1790244279.999610) can0 18A#C7B6004002
(1790244280.007734) can0 28A#0000000000000000
(1790244280.008354) can0 18A#C7B6004002
(1790244280.018054) can0 18A#C7B6004002
(1790244280.027656) can0 28A#0000000000000000
(1790244280.028396) can0 18A#C7B5004002
(1790244280.037459) can0 18A#C7B6004002
(1790244280.048005) can0 38A#000005
(1790244280.048668) can0 28A#0000000000000000
(1790244280.049152) can0 18A#C7B6004002
(1790244280.057329) can0 18A#C7B6004002
(1790244280.067255) can0 28A#0000000000000000
(1790244280.067656) can0 18A#C7B6004002
(1790244280.077412) can0 18A#C7B6004002
(1790244280.087116) can0 28A#0000000000000000
(1790244280.087516) can0 18A#C7B6004002
(1790244280.096993) can0 38A#000005
(1790244280.097427) can0 18A#C7B6004002
(1790244280.107353) can0 28A#0000000000000000
(1790244280.107721) can0 18A#C7B6004002
(1790244280.116972) can0 18A#C7B6004002
(1790244280.127275) can0 28A#0000000000000000
(1790244280.128402) can0 18A#C7B6004002
(1790244280.137197) can0 18A#C7B6004002
(1790244280.147005) can0 70A#05
(1790244280.147587) can0 38A#000005
(1790244280.148160) can0 28A#0000000000000000
(1790244280.156741) can0 18A#C7B6004002
(1790244280.167119) can0 28A#0000000000000000
(1790244280.167686) can0 18A#C7B6004002
(1790244280.176596) can0 18A#C7B6004002
(1790244280.186583) can0 28A#0000000000000000
(1790244280.186999) can0 18A#C7B7004002
(1790244280.196867) can0 38A#000005
(1790244280.197340) can0 18A#C7B7004002
(1790244280.206417) can0 28A#0000000000000000
(1790244280.206785) can0 18A#C7B7004002
(1790244280.216289) can0 18A#C7B7004002
(1790244280.226590) can0 28A#0000000000000000
(1790244280.227055) can0 18A#C7B6004002
(1790244280.236183) can0 18A#C7B6004002
(1790244280.246135) can0 38A#000005
(1790244280.246600) can0 28A#0000000000000000
(1790244280.246970) can0 18A#C7B6004002
(1790244280.256341) can0 18A#C7B6004002
(1790244280.266169) can0 28A#0000000000000000
(1790244280.266635) can0 18A#C7B6004002
(1790244280.277502) can0 18A#C7B6004002
(1790244280.286269) can0 28A#0000000000000000
(1790244280.286698) can0 18A#C7B5004002
(1790244280.295900) can0 38A#000005
(1790244280.296587) can0 18A#C7B6004002
(1790244280.305916) can0 28A#0000000000000000
(1790244280.306528) can0 18A#C7B5004002
(1790244280.316136) can0 18A#C7B5004002
(1790244280.325722) can0 28A#0000000000000000
(1790244280.326101) can0 18A#C7B6004002
(1790244280.335560) can0 18A#C7B7004002
(1790244280.345936) can0 38A#000005
(1790244280.346849) can0 28A#0000000000000000
(1790244280.347918) can0 18A#C7B6004002
(1790244280.355589) can0 18A#C7B6004002
(1790244280.365838) can0 28A#0000000000000000
(1790244280.366467) can0 18A#C7B5004002
(1790244280.375670) can0 18A#C7B6004002
(1790244280.385351) can0 28A#0000000000000000
(1790244280.385890) can0 18A#C7B6004002
(1790244280.395472) can0 38A#000005
(1790244280.396171) can0 18A#C7B6004002
(1790244280.405629) can0 28A#0000000000000000
(1790244280.406209) can0 18A#C7B6004002
(1790244280.415187) can0 18A#C7B6004002
(1790244280.425229) can0 28A#0000000000000000
(1790244280.426105) can0 18A#C7B6004002
(1790244280.435375) can0 18A#C7B6004002
(1790244280.445247) can0 38A#000005
(1790244280.446091) can0 28A#0000000000000000
(1790244280.446717) can0 18A#C7B6004002
(1790244280.454852) can0 18A#C7B6004002
(1790244280.465316) can0 28A#0000000000000000
(1790244280.465892) can0 18A#C7B6004002
(1790244280.474761) can0 18A#C7B6004002
(1790244280.484775) can0 28A#0000000000000000
(1790244280.485203) can0 18A#C7B6004002
(1790244280.494888) can0 38A#000005
(1790244280.495302) can0 18A#C7B6004002
(1790244280.504542) can0 28A#0000000000000000
(1790244280.504899) can0 18A#C7B6004002
(1790244280.514697) can0 18A#C7B6004002
(1790244280.524840) can0 28A#0000000000000000
(1790244280.525228) can0 18A#C7B6004002
(1790244280.534454) can0 18A#C7B6004002
(1790244280.545092) can0 38A#000005
(1790244280.546021) can0 28A#0000000000000000
(1790244280.546804) can0 18A#C7B6004002
(1790244280.554651) can0 18A#C7B6004002
(1790244280.564380) can0 28A#0000000000000000
(1790244280.564980) can0 18A#C7B6004002
(1790244280.574136) can0 18A#C7B7004002
(1790244280.584474) can0 28A#0000000000000000
(1790244280.584905) can0 18A#C7B6004002
(1790244280.594123) can0 38A#000005
(1790244280.594905) can0 18A#C7B7004002
(1790244280.603966) can0 28A#0000000000000000
(1790244280.604349) can0 18A#C7B7004002
(1790244280.614143) can0 18A#C7B7004002
(1790244280.623847) can0 28A#0000000000000000
(1790244280.624202) can0 18A#C7B7004002
(1790244280.633697) can0 18A#C7B6004002
(1790244280.644039) can0 38A#000005
(1790244280.644561) can0 28A#0000000000000000
(1790244280.644942) can0 18A#C7B6004002
(1790244280.653717) can0 18A#C7B7004002
(1790244280.663718) can0 28A#0000000000000000
(1790244280.664323) can0 18A#C7B6004002
(1790244280.673907) can0 18A#C7B6004002
(1790244280.683614) can0 28A#0000000000000000
(1790244280.684195) can0 18A#C7B6004002
(1790244280.693672) can0 38A#000005
(1790244280.694353) can0 18A#C7B6004002
(1790244280.703758) can0 28A#0000000000000000
(1790244280.704234) can0 18A#C7B6004002
(1790244280.713346) can0 18A#C7B6004002
(1790244280.723342) can0 28A#0000000000000000
(1790244280.723918) can0 18A#C7B6004002
(1790244280.733615) can0 18A#C7B6004002
(1790244280.743869) can0 38A#000005
(1790244280.744822) can0 28A#0000000000000000
(1790244280.745835) can0 18A#C7B5004002
(1790244280.752967) can0 18A#C7B6004002
(1790244280.763381) can0 28A#0000000000000000
(1790244280.763825) can0 18A#C7B6004002
(1790244280.773601) can0 18A#C7B6004002
(1790244280.788442) can0 28A#0000000000000000
(1790244280.788918) can0 18A#C7B6004002
(1790244280.793102) can0 38A#000005
(1790244280.793497) can0 18A#C7B6004002
(1790244280.802817) can0 28A#0000000000000000
(1790244280.803329) can0 18A#C7B6004002
(1790244280.812800) can0 18A#C7B6004102
(1790244280.823049) can0 28A#0000000000000000
(1790244280.823664) can0 18A#C7B6004102
(1790244280.832699) can0 18A#C7B6004102
(1790244280.843391) can0 38A#000005
(1790244280.844564) can0 28A#0000000000000000
(1790244280.845428) can0 18A#C7B6004102
(1790244280.852752) can0 18A#C7B6004102
(1790244280.862457) can0 28A#0000000000000000
(1790244280.862952) can0 18A#C7B6004102
(1790244280.872297) can0 18A#C7B5004102
(1790244280.882594) can0 28A#0000000000000000
(1790244280.883014) can0 18A#C7B6004102
(1790244280.892122) can0 38A#000005
(1790244280.892564) can0 18A#C7B6004102
(1790244280.902158) can0 28A#0000000000000000
(1790244280.902528) can0 18A#C7B6004102
(1790244280.912461) can0 18A#C7B6004102
(1790244280.922107) can0 28A#0000000000000000
(1790244280.922651) can0 18A#C7B6004102
(1790244280.932019) can0 18A#C7B6004102
(1790244280.942401) can0 38A#000005
(1790244280.943178) can0 28A#0000000000000000
(1790244280.943817) can0 18A#C7B7004102
(1790244280.952224) can0 18A#C7B6004102
(1790244280.962023) can0 28A#0000000000000000
(1790244280.962718) can0 18A#C7B6004102
(1790244280.972091) can0 18A#C7B6004102
(1790244280.981827) can0 28A#0000000000000000
(1790244280.982373) can0 18A#C7B6004102
(1790244280.991674) can0 38A#000005
(1790244280.992206) can0 18A#C7B7004102
(1790244281.001949) can0 28A#0000000000000000
(1790244281.002378) can0 18A#C7B7004102
(1790244281.011432) can0 18A#C7B6004102
(1790244281.021413) can0 28A#0000000000000000
(1790244281.021806) can0 18A#C7B6004102
(1790244281.031650) can0 18A#C7B6004102
(1790244281.041502) can0 38A#000005
(1790244281.042192) can0 28A#0000000000000000
(1790244281.042772) can0 18A#C7B7004102
(1790244281.051295) can0 18A#C7B6004102
(1790244281.061571) can0 28A#0000000000000000
(1790244281.062189) can0 18A#C7B7004102
(1790244281.071096) can0 18A#C7B6004102
(1790244281.081197) can0 28A#0000000000000000
(1790244281.081755) can0 18A#C7B6004102
(1790244281.091331) can0 38A#000005
(1790244281.091941) can0 18A#C7B6004102
(1790244281.100907) can0 28A#0000000000000000
(1790244281.101321) can0 18A#C7B6004102
(1790244281.110940) can0 18A#C7B6004102
(1790244281.121121) can0 28A#0000000000000000
(1790244281.121518) can0 18A#C7B6004102
(1790244281.130669) can0 18A#C7B6004102
(1790244281.140630) can0 70A#05
(1790244281.141094) can0 38A#000005
(1790244281.141725) can0 28A#0000000000000000
(1790244281.150819) can0 18A#C7B6004102
(1790244281.160564) can0 28A#0000000000000000
(1790244281.160983) can0 18A#C7B6004102
(1790244281.170423) can0 18A#C7B6004102
(1790244281.180767) can0 28A#0000000000000000
(1790244281.181210) can0 18A#C7B6004102
(1790244281.190456) can0 38A#000005
(1790244281.191127) can0 18A#C7B6004102
(1790244281.200292) can0 28A#0000000000000000
(1790244281.200821) can0 18A#C7B6004102
(1790244281.210605) can0 18A#C7B5004102
(1790244281.220470) can0 28A#0000000000000000
(1790244281.222046) can0 18A#C7B6004102
(1790244281.230100) can0 18A#C7B6004102
(1790244281.240595) can0 38A#000005
(1790244281.241288) can0 28A#0000000000000000
(1790244281.241871) can0 18A#C7B5004102
(1790244281.249921) can0 18A#C7B6004102
(1790244281.260036) can0 28A#0000000000000000
(1790244281.260592) can0 18A#C7B6004102
(1790244281.270082) can0 18A#C7B6004102
(1790244281.279738) can0 28A#0000000000000000
(1790244281.280137) can0 18A#C7B6004102
(1790244281.289792) can0 38A#000005
(1790244281.290275) can0 18A#C7B5004102
(1790244281.300063) can0 28A#0000000000000000
(1790244281.300501) can0 18A#C7B6004102
(1790244281.309596) can0 18A#C7B6004102
(1790244281.319556) can0 28A#0000000000000000
(1790244281.320036) can0 18A#C7B7004102
(1790244281.329781) can0 18A#C7B7004102
(1790244281.339573) can0 38A#000005
(1790244281.340135) can0 28A#0000000000000000
(1790244281.340611) can0 18A#C7B7004102
(1790244281.349287) can0 18A#C7B7004102
(1790244281.359634) can0 28A#0000000000000000
(1790244281.360115) can0 18A#C7B6004102
(1790244281.369215) can0 18A#C7B6004102
(1790244281.379225) can0 28A#0000000000000000
(1790244281.379725) can0 18A#C7B6004102
(1790244281.389478) can0 38A#000005
(1790244281.390067) can0 18A#C7B6004102
(1790244281.398961) can0 28A#0000000000000000
(1790244281.399293) can0 18A#C7B6004102
(1790244281.408869) can0 18A#C7B7004102
(1790244281.419215) can0 28A#0000000000000000
(1790244281.419716) can0 18A#C7B6004102
(1790244281.428818) can0 18A#C7B6004102
(1790244281.438959) can0 38A#000005
(1790244281.440139) can0 28A#0000000000000000
(1790244281.441116) can0 18A#C7B6004102
(1790244281.449081) can0 18A#C7B6004102
(1790244281.458793) can0 28A#0000000000000000
(1790244281.459374) can0 18A#C7B7004102
(1790244281.468497) can0 18A#C7B5004102
(1790244281.478863) can0 28A#0000000000000000
(1790244281.479327) can0 18A#C7B6004102
(1790244281.488392) can0 38A#000005
(1790244281.488841) can0 18A#C7B6004102
(1790244281.498343) can0 28A#0000000000000000
(1790244281.498736) can0 18A#C7B6004102
(1790244281.508631) can0 18A#C7B7004102
(1790244281.518494) can0 28A#0000000000000000
(1790244281.519218) can0 18A#C7B7004102
(1790244281.528279) can0 18A#C7B6004102
(1790244281.538419) can0 38A#000005
(1790244281.538933) can0 28A#0000000000000000
(1790244281.539290) can0 18A#C7B6004102
(1790244281.547940) can0 18A#C7B6004102
(1790244281.558087) can0 28A#0000000000000000
(1790244281.558726) can0 18A#C7B6004102
(1790244281.568219) can0 18A#C7B6004102
(1790244281.577900) can0 28A#0000000000000000
(1790244281.578339) can0 18A#C7B6004102
(1790244281.588109) can0 38A#000005
(1790244281.588644) can0 18A#C7B6004102
(1790244281.598109) can0 28A#0000000000000000
(1790244281.598580) can0 18A#C7B6004102
(1790244281.607701) can0 18A#C7B6004102
(1790244281.617719) can0 28A#0000000000000000
(1790244281.618176) can0 18A#C7B6004102
(1790244281.627957) can0 18A#C7B6004102
(1790244281.637588) can0 38A#000005
(1790244281.638152) can0 28A#0000000000000000
(1790244281.638491) can0 18A#C7B6004102
(1790244281.647295) can0 18A#C7B6004102
(1790244281.657666) can0 28A#0000000000000000
(1790244281.658249) can0 18A#C7B7004102
(1790244281.667167) can0 18A#C7B7004102
(1790244281.677257) can0 28A#0000000000000000
(1790244281.677659) can0 18A#C7B6004102
(1790244281.687448) can0 38A#000005
(1790244281.687900) can0 18A#C7B6004102
(1790244281.697075) can0 28A#0000000000000000
(1790244281.697484) can0 18A#C7B6004102
(1790244281.707037) can0 18A#C7B6004102
(1790244281.717399) can0 28A#0000000000000000
(1790244281.718075) can0 18A#C7B7004102
(1790244281.726913) can0 18A#C7B6004102
(1790244281.737088) can0 38A#000005
(1790244281.738067) can0 28A#0000000000000000
(1790244281.739009) can0 18A#C7B7004102
(1790244281.747134) can0 18A#C7B6004102
(1790244281.758833) can0 28A#0000000000000000
(1790244281.760862) can0 18A#C7B6004102
(1790244281.767050) can0 18A#C7B7004102
(1790244281.776909) can0 28A#0000000000000000
(1790244281.777414) can0 18A#C7B6004102
(1790244281.786573) can0 38A#000005
(1790244281.787174) can0 18A#C7B6004102
(1790244281.796482) can0 28A#0000000000000000
(1790244281.796927) can0 18A#C7B6004102
(1790244281.806729) can0 18A#C7B6004202
(1790244281.818532) can0 28A#0000000000000000
(1790244281.822263) can0 18A#C7B6004102
(1790244281.826300) can0 18A#C7B6004102
(1790244281.836556) can0 38A#000005
(1790244281.837206) can0 28A#0000000000000000
(1790244281.837838) can0 18A#C7B7004102
(1790244281.846095) can0 18A#C7B7004102
(1790244281.856150) can0 28A#0000000000000000
(1790244281.856754) can0 18A#C7B7004102
(1790244281.866308) can0 18A#C7B6004102
(1790244281.876128) can0 28A#0000000000000000
(1790244281.877131) can0 18A#C7B7004102
(1790244281.886282) can0 38A#000005
(1790244281.887121) can0 18A#C7B7004202
(1790244281.896323) can0 28A#0000000000000000
(1790244281.897179) can0 18A#C7B7004202
(1790244281.906005) can0 18A#C7B7004202
(1790244281.915776) can0 28A#0000000000000000
(1790244281.916405) can0 18A#C7B6004202
(1790244281.925840) can0 18A#C7B7004202
(1790244281.935497) can0 38A#000005
(1790244281.936321) can0 28A#0000000000000000
(1790244281.936757) can0 18A#C7B6004202
(1790244281.945479) can0 18A#C7B6004202
(1790244281.955852) can0 28A#0000000000000000
(1790244281.956415) can0 18A#C7B6004202
(1790244281.965349) can0 18A#C7B7004202
(1790244281.975420) can0 28A#0000000000000000
(1790244281.976047) can0 18A#C7B7004202
(1790244281.986041) can0 38A#000005
(1790244281.986909) can0 18A#C7B6004202
(1790244281.995245) can0 28A#0000000000000000
(1790244281.995885) can0 18A#C7B6004202
(1790244282.005153) can0 18A#C7B6004202
(1790244282.015460) can0 28A#0000000000000000
(1790244282.016182) can0 18A#C7B6004202
(1790244282.025163) can0 18A#C7B7004202
(1790244282.035718) can0 38A#000005
(1790244282.036919) can0 28A#0000000000000000
(1790244282.038392) can0 18A#C7B6004202
(1790244282.045188) can0 18A#C7B6004202
(1790244282.054911) can0 28A#0000000000000000
(1790244282.055448) can0 18A#C7B6004202
(1790244282.064602) can0 18A#C7B7004202
(1790244282.074938) can0 28A#0000000000000000
(1790244282.075328) can0 18A#C7B7004202
(1790244282.084551) can0 38A#000005
(1790244282.084959) can0 18A#C7B7004202
(1790244282.094505) can0 28A#0000000000000000
(1790244282.095220) can0 18A#C7B7004202
(1790244282.104741) can0 18A#C7B7004202
(1790244282.114453) can0 28A#0000000000000000
(1790244282.115007) can0 18A#C7B7004202
(1790244282.124275) can0 18A#C7B7004202
(1790244282.134573) can0 70A#05
(1790244282.135127) can0 38A#000005
(1790244282.135653) can0 28A#0000000000000000
(1790244282.144092) can0 18A#C7B6004202
(1790244282.154154) can0 28A#0000000000000000
(1790244282.154663) can0 18A#C7B7004202
(1790244282.164488) can0 18A#C7B7004202
(1790244282.174086) can0 28A#0000000000000000
(1790244282.174710) can0 18A#C7B7004202
(1790244282.183909) can0 38A#000005
(1790244282.184364) can0 18A#C7B7004202
(1790244282.194058) can0 28A#0000000000000000
(1790244282.194412) can0 18A#C7B7004202
(1790244282.203786) can0 18A#C7B7004202
(1790244282.213709) can0 28A#0000000000000000
(1790244282.214178) can0 18A#C7B7004202
(1790244282.223938) can0 18A#C7B7004202
(1790244282.233519) can0 38A#000005
(1790244282.234124) can0 28A#0000000000000000
(1790244282.234512) can0 18A#C7B7004202
(1790244282.243402) can0 18A#C7B7004202
(1790244282.253768) can0 28A#0000000000000000
(1790244282.254232) can0 18A#C7B7004202
(1790244282.263331) can0 18A#C7B7004202
(1790244282.273412) can0 28A#0000000000000000
(1790244282.273994) can0 18A#C7B7004202
(1790244282.283515) can0 38A#000005
(1790244282.284091) can0 18A#C7B7004202
(1790244282.293185) can0 28A#0000000000000000
(1790244282.293597) can0 18A#C7B7004202
(1790244282.303132) can0 18A#C7B7004202
(1790244282.314363) can0 28A#0000000000000000
(1790244282.314904) can0 18A#C7B7004202
(1790244282.322897) can0 18A#C7B7004202
(1790244282.333146) can0 38A#000005
(1790244282.336728) can0 28A#0000000000000000
(1790244282.337135) can0 18A#C7B7004202
(1790244282.343047) can0 18A#C7B8004202
(1790244282.352844) can0 28A#0000000000000000
(1790244282.353326) can0 18A#C7B7004202
(1790244282.362663) can0 18A#C7B7004202
(1790244282.373103) can0 28A#0000000000000000
(1790244282.373646) can0 18A#C7B7004202
(1790244282.382634) can0 38A#000005
(1790244282.384363) can0 18A#C7B7004202
(1790244282.392469) can0 28A#0000000000000000
(1790244282.392818) can0 18A#C7B7004202
(1790244282.402711) can0 18A#C7B7004202
(1790244282.412396) can0 28A#0000000000000000
(1790244282.412901) can0 18A#C7B7004202
(1790244282.422216) can0 18A#C7B7004202
(1790244282.432678) can0 38A#000005
(1790244282.433316) can0 28A#0000000000000000
(1790244282.433918) can0 18A#C7B8004202
(1790244282.442147) can0 18A#C7B8004202
(1790244282.452177) can0 28A#0000000000000000
(1790244282.452698) can0 18A#C7B8004202
(1790244282.462234) can0 18A#C7B7004202
(1790244282.471934) can0 28A#0000000000000000
(1790244282.472335) can0 18A#C7B8004202
(1790244282.482110) can0 38A#000005
(1790244282.482725) can0 18A#C7B8004202
(1790244282.492173) can0 28A#0000000000000000
(1790244282.492663) can0 18A#C7B8004202
(1790244282.501736) can0 18A#C7B8004202
(1790244282.511751) can0 28A#0000000000000000
(1790244282.512438) can0 18A#C7B8004202
(1790244282.521906) can0 18A#C7B8004202
(1790244282.531752) can0 38A#000005
(1790244282.532932) can0 28A#0000000000000000
(1790244282.533723) can0 18A#C7B8004202
(1790244282.541462) can0 18A#C7B7004202
(1790244282.551878) can0 28A#0000000000000000
(1790244282.552594) can0 18A#C7B8004202
(1790244282.561318) can0 18A#C7B7004202
(1790244282.571327) can0 28A#0000000000000000
(1790244282.571888) can0 18A#C7B8004202
(1790244282.581694) can0 38A#000005
(1790244282.582297) can0 18A#C7B7004202
(1790244282.591186) can0 28A#0000000000000000
(1790244282.591730) can0 18A#C7B7004202
(1790244282.601089) can0 18A#C7B8004202
(1790244282.611275) can0 28A#0000000000000000
(1790244282.611624) can0 18A#C7B7004202
(1790244282.620846) can0 18A#C7B7004202
(1790244282.631357) can0 38A#000005
(1790244282.631974) can0 28A#0000000000000000
(1790244282.632762) can0 18A#C7B7004202
(1790244282.641088) can0 18A#C7B7004202
(1790244282.650893) can0 28A#0000000000000000
(1790244282.651552) can0 18A#C7B7004202
(1790244282.660667) can0 18A#C7B7004202
(1790244282.670935) can0 28A#0000000000000000
(1790244282.671349) can0 18A#C7B7004202
(1790244282.680735) can0 38A#000005
(1790244282.681295) can0 18A#C7B7004202
(1790244282.690612) can0 28A#0000000000000000
(1790244282.691152) can0 18A#C7B7004202
(1790244282.700699) can0 18A#C7B8004202
(1790244282.710316) can0 28A#0000000000000000
(1790244282.710693) can0 18A#C7B7004202
(1790244282.720229) can0 18A#C7B7004202
(1790244282.730401) can0 38A#000005
(1790244282.730817) can0 28A#0000000000000000
(1790244282.731143) can0 18A#C7B8004202
(1790244282.739963) can0 18A#C7B8004202
(1790244282.750157) can0 28A#0000000000000000
(1790244282.750650) can0 18A#C7B8004202
(1790244282.760231) can0 18A#C7B8004202
(1790244282.769974) can0 28A#0000000000000000
(1790244282.770430) can0 18A#C7B8004202
(1790244282.779774) can0 38A#000005
(1790244282.780175) can0 18A#C7B8004202
(1790244282.790089) can0 28A#0000000000000000
(1790244282.790481) can0 18A#C7B8004202
(1790244282.799680) can0 18A#C7B7004202
(1790244282.809662) can0 28A#0000000000000000
(1790244282.810073) can0 18A#C7B8004202
(1790244282.819906) can0 18A#C7B8004202
(1790244282.830078) can0 38A#000005
(1790244282.831031) can0 28A#0000000000000000
(1790244282.831784) can0 18A#C7B8004202
(1790244282.839484) can0 18A#C7B8004202
(1790244282.854417) can0 28A#0000000000000000
(1790244282.855144) can0 18A#C7B9004202
(1790244282.859241) can0 18A#C7B8004202
(1790244282.869255) can0 28A#0000000000000000
(1790244282.869760) can0 18A#C7B8004202
(1790244282.879484) can0 38A#000005
(1790244282.879990) can0 18A#C7B8004202
(1790244282.889092) can0 28A#0000000000000000
(1790244282.889466) can0 18A#C7B8004202
(1790244282.899004) can0 18A#C7B8004202
(1790244282.909354) can0 28A#0000000000000000
(1790244282.909788) can0 18A#C7B8004202
(1790244282.918846) can0 18A#C7B8004202
(1790244282.929120) can0 38A#000005
(1790244282.929762) can0 28A#0000000000000000
(1790244282.930337) can0 18A#C7B8004202
(1790244282.939072) can0 18A#C7B8004202
(1790244282.948804) can0 28A#0000000000000000
(1790244282.949329) can0 18A#C7B8004202
(1790244282.958697) can0 18A#C7B9004202
(1790244282.969006) can0 28A#0000000000000000
(1790244282.969667) can0 18A#C7B9004202
(1790244282.979491) can0 38A#000005
(1790244282.980193) can0 18A#C7B9004202
(1790244282.988434) can0 28A#0000000000000000
(1790244282.989001) can0 18A#C7B9004202
(1790244282.998635) can0 18A#C7B8004202
(1790244283.008311) can0 28A#0000000000000000
(1790244283.008822) can0 18A#C7B9004202
(1790244283.018307) can0 18A#C7B9004202
(1790244283.028808) can0 38A#000005
(1790244283.029740) can0 28A#0000000000000000
(1790244283.030320) can0 18A#C7B9004202
(1790244283.038122) can0 18A#C7B8004202
(1790244283.048332) can0 28A#0000000000000000
(1790244283.049381) can0 18A#C7B9004202
(1790244283.058224) can0 18A#C7B9004202
(1790244283.067920) can0 28A#0000000000000000
(1790244283.068405) can0 18A#C7B8004202
(1790244283.078261) can0 38A#000005
(1790244283.078940) can0 18A#C7B9004202
(1790244283.088063) can0 28A#0000000000000000
(1790244283.088498) can0 18A#C7B8004202
(1790244283.097992) can0 18A#C7B9004202
(1790244283.107719) can0 28A#0000000000000000
(1790244283.108335) can0 18A#C7B9004202
(1790244283.117859) can0 18A#C7B9004202
(1790244283.127868) can0 70A#05
(1790244283.130051) can0 38A#000005
(1790244283.130616) can0 28A#0000000000000000
(1790244283.137329) can0 18A#C7B9004202
(1790244283.147667) can0 28A#0000000000000000
(1790244283.148088) can0 18A#C7B9004202
(1790244283.157120) can0 18A#C7B9004202
(1790244283.167218) can0 28A#0000000000000000
(1790244283.167630) can0 18A#C7B9004202
(1790244283.177378) can0 38A#000005
(1790244283.177848) can0 18A#C7B9004202
(1790244283.187057) can0 28A#0000000000000000
(1790244283.187458) can0 18A#C7B9004202
(1790244283.196945) can0 18A#C7B9004202
(1790244283.207304) can0 28A#0000000000000000
(1790244283.207953) can0 18A#C7B9004202
(1790244283.216874) can0 18A#C7B9004202
(1790244283.227148) can0 38A#000005
(1790244283.227717) can0 28A#0000000000000000
(1790244283.228105) can0 18A#C7B9004202
(1790244283.236898) can0 18A#C7B9004202
(1790244283.246637) can0 28A#0000000000000000
(1790244283.247021) can0 18A#C7B8004202
(1790244283.256464) can0 18A#C7B9004202
(1790244283.266791) can0 28A#0000000000000000
(1790244283.267255) can0 18A#C7BA004202
(1790244283.276767) can0 38A#000005
(1790244283.277515) can0 18A#C7B9004202
(1790244283.286314) can0 28A#0000000000000000
(1790244283.286723) can0 18A#C7B9004202
(1790244283.296654) can0 18A#C7B8004202
(1790244283.306168) can0 28A#0000000000000000
(1790244283.306570) can0 18A#C7B9004202
(1790244283.316108) can0 18A#C7B9004202
(1790244283.326485) can0 38A#000005
(1790244283.327155) can0 28A#0000000000000000
(1790244283.327744) can0 18A#C7B9004202
(1790244283.335957) can0 18A#C7B9004202
(1790244283.346017) can0 28A#0000000000000000
(1790244283.346613) can0 18A#C7B9004202
(1790244283.356195) can0 18A#C7B9004202
(1790244283.372860) can0 28A#0000000000000000
(1790244283.373330) can0 18A#C7BA004202
(1790244283.375710) can0 38A#000005
(1790244283.376080) can0 18A#C7B9004202
(1790244283.386046) can0 28A#0000000000000000
(1790244283.386635) can0 18A#C7B9004202
(1790244283.395750) can0 18A#C7B9004202
(1790244283.405508) can0 28A#0000000000000000
(1790244283.405934) can0 18A#C7B9004202
(1790244283.415701) can0 18A#C7B9004202
(1790244283.425330) can0 38A#000005
(1790244283.425909) can0 28A#0000000000000000
(1790244283.426286) can0 18A#C7B9004202
(1790244283.435298) can0 18A#C7B9004202
(1790244283.445650) can0 28A#0000000000000000
(1790244283.446197) can0 18A#C7B9004202
(1790244283.455178) can0 18A#C7B9004202
(1790244283.465128) can0 28A#0000000000000000
(1790244283.465602) can0 18A#C7B9004202
(1790244283.475616) can0 38A#000005
(1790244283.476329) can0 18A#C7B9004202
(1790244283.485044) can0 28A#0000000000000000
(1790244283.485615) can0 18A#C7B9004202
(1790244283.494903) can0 18A#C7B9004202
(1790244283.505266) can0 28A#0000000000000000
(1790244283.506118) can0 18A#C7B9004202
(1790244283.514797) can0 18A#C7B9004202
(1790244283.524882) can0 38A#000005
(1790244283.525711) can0 28A#0000000000000000
(1790244283.526283) can0 18A#C7B9004202
(1790244283.534857) can0 18A#C7B9004202
(1790244283.544538) can0 28A#0000000000000000
(1790244283.544995) can0 18A#C7BA004202
(1790244283.554454) can0 18A#C7BA004202
(1790244283.564768) can0 28A#0000000000000000
(1790244283.565259) can0 18A#C7BA004202
(1790244283.574416) can0 38A#000005
(1790244283.574926) can0 18A#C7B9004202
(1790244283.584247) can0 28A#0000000000000000
(1790244283.584654) can0 18A#C7B9004202
(1790244283.594505) can0 18A#C7BA004202
(1790244283.604055) can0 28A#0000000000000000
(1790244283.604525) can0 18A#C7BA004202
(1790244283.614034) can0 18A#C7B9004202
(1790244283.624737) can0 38A#000005
(1790244283.625426) can0 28A#0000000000000000
(1790244283.625952) can0 18A#C7B9004202
(1790244283.633828) can0 18A#C7BA004202
(1790244283.643949) can0 28A#0000000000000000
(1790244283.644537) can0 18A#C7BA004202
(1790244283.654036) can0 18A#C7B9004202
(1790244283.663698) can0 28A#0000000000000000
(1790244283.664174) can0 18A#C7B9004202
(1790244283.674088) can0 38A#000005
(1790244283.676584) can0 18A#C7B9004202
(1790244283.684448) can0 28A#0000000000000000
(1790244283.686299) can0 18A#C7B9004202
(1790244283.693664) can0 18A#C7B9004202
(1790244283.705441) can0 28A#0000000000000000
(1790244283.706563) can0 18A#C7B9004202
(1790244283.714006) can0 18A#C7B9004202
(1790244283.723535) can0 38A#000005
(1790244283.725173) can0 28A#0000000000000000
(1790244283.725883) can0 18A#C7B9004202
(1790244283.734421) can0 18A#C7B9004202
(1790244283.743808) can0 28A#0000000000000000
(1790244283.744648) can0 18A#C7B9004202
(1790244283.753200) can0 18A#C7B9004202
(1790244283.763744) can0 28A#0000000000000000
(1790244283.764829) can0 18A#C7BA004202
(1790244283.773250) can0 38A#000005
(1790244283.774241) can0 18A#C7BA004202
(1790244283.782965) can0 28A#0000000000000000
(1790244283.784068) can0 18A#C7BA004202
(1790244283.794691) can0 18A#C7BA004202
(1790244283.805047) can0 28A#0000000000000000
(1790244283.805921) can0 18A#C7BA004202
(1790244283.813543) can0 18A#C7BA004202
(1790244283.822771) can0 38A#000005
(1790244283.823824) can0 28A#0000000000000000
(1790244283.825749) can0 18A#C7BA004202
(1790244283.832687) can0 18A#C8BA004202
(1790244283.842468) can0 28A#0000000000000000
(1790244283.842942) can0 18A#C8BA004202
(1790244283.852299) can0 18A#C9BAFF4202
(1790244283.862618) can0 28A#0000000000000000
(1790244283.863039) can0 18A#C8BAFF4202
(1790244283.872664) can0 38A#000005
(1790244283.873728) can0 18A#C8BAFF4302
(1790244283.882335) can0 28A#0000000000000000
(1790244283.882699) can0 18A#C8BAFF4302
(1790244283.892406) can0 18A#C8BAFF4302
(1790244283.902240) can0 28A#0000000000000000
(1790244283.903266) can0 18A#C8B9FF4302
(1790244283.912040) can0 18A#C8BA004202
(1790244283.922613) can0 38A#000005
(1790244283.924076) can0 28A#0000000000000000
(1790244283.924934) can0 18A#C8BAFF4202
(1790244283.931855) can0 18A#C8BAFF4202
(1790244283.941995) can0 28A#0000000000000000
(1790244283.942659) can0 18A#C8BAFF4202
(1790244283.952370) can0 18A#C9BAFF4202
(1790244283.961686) can0 28A#0000000000000000
(1790244283.962222) can0 18A#C8BAFF4202
(1790244283.971678) can0 38A#000005
(1790244283.972456) can0 18A#C9BAFF4302
(1790244283.981725) can0 28A#0000000000000000
(1790244283.982072) can0 18A#C8BAFF4202
(1790244283.991295) can0 18A#C7BA004202
(1790244284.001425) can0 28A#0000000000000000
(1790244284.002058) can0 18A#C8BAFF4202
(1790244284.011590) can0 18A#C8BAFF4202
(1790244284.021458) can0 38A#000005
(1790244284.022388) can0 28A#0000000000000000
(1790244284.023112) can0 18A#C9BAFF4202
(1790244284.031080) can0 18A#C9BAFE4202
(1790244284.041485) can0 28A#0000000000000000
(1790244284.042103) can0 18A#C9BBFD4202
(1790244284.053548) can0 18A#C9BAFD4302
(1790244284.060985) can0 28A#0000000000000000
(1790244284.061456) can0 18A#C9BBFD4202
(1790244284.071077) can0 38A#000005
(1790244284.071577) can0 18A#CABBFC4202
(1790244284.080703) can0 28A#0000000000000000
(1790244284.081081) can0 18A#CABBFC4202
(1790244284.090622) can0 18A#CABBFC4202
(1790244284.100940) can0 28A#0000000000000000
(1790244284.101496) can0 18A#CABBFC4302
(1790244284.110483) can0 18A#CABAFB4302
(1790244284.120942) can0 70A#05
(1790244284.122165) can0 38A#000005
(1790244284.122901) can0 28A#0000000000000000
(1790244284.130682) can0 18A#CABAFB4302
(1790244284.140549) can0 28A#0000000000000000
(1790244284.141362) can0 18A#CABAFB4302
(1790244284.150144) can0 18A#CABAFB4302
(1790244284.160527) can0 28A#0000000000000000
(1790244284.161015) can0 18A#CABBFB4302
(1790244284.170421) can0 38A#000005
(1790244284.170893) can0 18A#CABBFB4302
(1790244284.179983) can0 28A#0000000000000000
(1790244284.180415) can0 18A#CABAFB4302
(1790244284.190280) can0 18A#CABAFB4302
(1790244284.199952) can0 28A#0000000000000000
(1790244284.200753) can0 18A#CABAFB4302
(1790244284.209863) can0 18A#CABAFB4302
(1790244284.220381) can0 38A#000005
(1790244284.221583) can0 28A#0000000000000000
(1790244284.222383) can0 18A#CABAFB4302
(1790244284.229647) can0 18A#CABAFB4302
(1790244284.239923) can0 28A#0000000000000000
(1790244284.240957) can0 18A#CABBFB4302
(1790244284.250057) can0 18A#CABBFB4302
(1790244284.259501) can0 28A#0000000000000000
(1790244284.260008) can0 18A#CABBFB4302
(1790244284.269392) can0 38A#000005
(1790244284.270047) can0 18A#CABBFB4302
(1790244284.279944) can0 28A#0000000000000000
(1790244284.281231) can0 18A#CABBFB4302
(1790244284.289166) can0 18A#CABBFB4302
(1790244284.299238) can0 28A#0000000000000000
(1790244284.299762) can0 18A#CBBBFA4302
(1790244284.309474) can0 18A#CABBFA4302
(1790244284.319213) can0 38A#000005
(1790244284.320483) can0 28A#0000000000000000
(1790244284.321384) can0 18A#CBBBFA4202
(1790244284.328942) can0 18A#CBBBF94302
(1790244284.339250) can0 28A#0000000000000000
(1790244284.339840) can0 18A#CBBAF94302
(1790244284.348761) can0 18A#CBBBF94302
(1790244284.358832) can0 28A#0000000000000000
(1790244284.360066) can0 18A#CBBBF94302
(1790244284.369302) can0 38A#000005
(1790244284.369908) can0 18A#CCBBF84302
(1790244284.378529) can0 28A#0000000000000000
(1790244284.378941) can0 18A#CCBBF84302
(1790244284.388452) can0 18A#CCBBF74302
(1790244284.398854) can0 28A#0000000000000000
(1790244284.400471) can0 18A#CBBBF84302
(1790244284.408447) can0 18A#CCBCF84302
(1790244284.418418) can0 38A#000005
(1790244284.418913) can0 28A#0000000000000000
(1790244284.419291) can0 18A#CCBBF74302
(1790244284.428417) can0 18A#CBBCF84302
(1790244284.438366) can0 28A#0000000000000000
(1790244284.438967) can0 18A#CCBCF84202
(1790244284.448058) can0 18A#CCBCF74302
(1790244284.458321) can0 28A#0000000000000000
(1790244284.458882) can0 18A#CCBCF74202
(1790244284.468757) can0 38A#000005
(1790244284.469853) can0 18A#CCBBF74302
(1790244284.477823) can0 28A#0000000000000000
(1790244284.478333) can0 18A#CCBBF84302
(1790244284.488127) can0 18A#CCBBF74302
(1790244284.497747) can0 28A#0000000000000000
(1790244284.498347) can0 18A#CCBCF74302
(1790244284.507674) can0 18A#CBBBF84302
(1790244284.517898) can0 38A#000005
(1790244284.518434) can0 28A#0000000000000000
(1790244284.518867) can0 18A#CCBBF84302
(1790244284.527329) can0 18A#CBBBF84302
(1790244284.537477) can0 28A#0000000000000000
(1790244284.537954) can0 18A#CCBBF84302
(1790244284.547755) can0 18A#CCBCF74302
(1790244284.557272) can0 28A#0000000000000000
(1790244284.557721) can0 18A#CCBCF74302
(1790244284.567851) can0 38A#000005
(1790244284.568449) can0 18A#CCBCF74302
(1790244284.577487) can0 28A#0000000000000000
(1790244284.578119) can0 18A#CDBCF74302
(1790244284.587064) can0 18A#CCBCF74302
(1790244284.597034) can0 28A#0000000000000000
(1790244284.597627) can0 18A#CDBCF64302
(1790244284.607259) can0 18A#CDBCF54302
(1790244284.618242) can0 38A#000005
(1790244284.619451) can0 28A#0000000000000000
(1790244284.620291) can0 18A#CDBCF54302
(1790244284.626868) can0 18A#CDBCF54302
(1790244284.637040) can0 28A#0000000000000000
(1790244284.637614) can0 18A#CDBCF54302
(1790244284.646570) can0 18A#CDBCF54302
(1790244284.656488) can0 28A#0000000000000000
(1790244284.656890) can0 18A#CEBCF54302
(1790244284.666754) can0 38A#000005
(1790244284.667259) can0 18A#CDBCF54302
(1790244284.676543) can0 28A#0000000000000000
(1790244284.677080) can0 18A#CDBCF54302
(1790244284.686285) can0 18A#CEBCF44302
(1790244284.696603) can0 28A#0000000000000000
(1790244284.697040) can0 18A#CDBCF54302
(1790244284.706060) can0 18A#CDBCF54302
(1790244284.716174) can0 38A#000005
(1790244284.716958) can0 28A#0000000000000000
(1790244284.717638) can0 18A#CEBCF54302
(1790244284.726336) can0 18A#CEBDF44302
(1790244284.736088) can0 28A#0000000000000000
(1790244284.736979) can0 18A#CEBCF44302
(1790244284.745862) can0 18A#CEBCF44302
(1790244284.756192) can0 28A#0000000000000000
(1790244284.756779) can0 18A#CEBCF44302
(1790244284.765893) can0 38A#000005
(1790244284.766803) can0 18A#CDBCF54302
(1790244284.775654) can0 28A#0000000000000000
(1790244284.776053) can0 18A#CEBCF44302
(1790244284.785807) can0 18A#CEBCF44302
(1790244284.795454) can0 28A#0000000000000000
(1790244284.795856) can0 18A#CDBCF54302
(1790244284.805473) can0 18A#CEBCF44302
(1790244284.815778) can0 38A#000005
(1790244284.816324) can0 28A#0000000000000000
(1790244284.816693) can0 18A#CEBBF44302
(1790244284.825173) can0 18A#CEBCF44302
(1790244284.835187) can0 28A#0000000000000000
(1790244284.835588) can0 18A#CEBCF44302
(1790244284.845345) can0 18A#CEBCF44302
(1790244284.855102) can0 28A#0000000000000000
(1790244284.855622) can0 18A#CEBCF44302
(1790244284.865314) can0 38A#000005
(1790244284.866464) can0 18A#CEBCF34302
(1790244284.875258) can0 28A#0000000000000000
(1790244284.875747) can0 18A#CFBDF34302
(1790244284.884873) can0 18A#CFBCF24302
(1790244284.894853) can0 28A#0000000000000000
(1790244284.895567) can0 18A#CEBDF34302
(1790244284.904947) can0 18A#CFBCF24302
(1790244284.914833) can0 38A#000005
(1790244284.916531) can0 28A#0000000000000000
(1790244284.918792) can0 18A#CFBDF24302
(1790244284.924638) can0 18A#CFBDF24302
(1790244284.934862) can0 28A#0000000000000000
(1790244284.935318) can0 18A#CFBCF24302
(1790244284.944345) can0 18A#CFBDF24302
(1790244284.954407) can0 28A#0000000000000000
(1790244284.955073) can0 18A#CFBDF24302
(1790244284.965170) can0 38A#000005
(1790244284.966119) can0 18A#CFBCF24302
(1790244284.974305) can0 28A#0000000000000000
(1790244284.974896) can0 18A#CFBDF24302
(1790244284.984222) can0 18A#CFBCF24302
(1790244284.994520) can0 28A#0000000000000000
(1790244284.995251) can0 18A#CFBCF24302
(1790244285.003995) can0 18A#CFBCF24302
(1790244285.015319) can0 38A#000005
(1790244285.016296) can0 28A#0000000000000000
(1790244285.017247) can0 18A#CFBCF24302
(1790244285.024132) can0 18A#CFBCF24302
(1790244285.036381) can0 28A#0000000000000000
(1790244285.038380) can0 18A#CEBDF24302
(1790244285.043920) can0 18A#CFBCF24302
(1790244285.055374) can0 28A#0000000000000000
(1790244285.056149) can0 18A#CFBCF24302
(1790244285.063507) can0 38A#000005
(1790244285.064001) can0 18A#CFBCF24302
(1790244285.073874) can0 28A#0000000000000000
(1790244285.075160) can0 18A#CFBDF24302
(1790244285.085401) can0 18A#CFBDF24302
(1790244285.094353) can0 28A#0000000000000000
(1790244285.096185) can0 18A#CFBDF24302
(1790244285.105517) can0 18A#D0BDF14302
(1790244285.115305) can0 70A#05
(1790244285.117201) can0 38A#000005
(1790244285.119068) can0 28A#0000000000000000
(1790244285.123021) can0 18A#D0BDF14302
(1790244285.134941) can0 28A#0000000000000000
(1790244285.136777) can0 18A#D0BDF14302
(1790244285.143770) can0 18A#D0BDF04302
(1790244285.153569) can0 28A#0000000000000000
(1790244285.157424) can0 18A#D0BDF04302
(1790244285.162877) can0 38A#000005
(1790244285.164563) can0 18A#D0BDF04302
(1790244285.173163) can0 28A#0000000000000000
(1790244285.173741) can0 18A#D0BDF04302
(1790244285.182714) can0 18A#D0BDF04302
(1790244285.192659) can0 28A#0000000000000000
(1790244285.193319) can0 18A#D0BDF04302
(1790244285.202812) can0 18A#D0BDF04302
(1790244285.212536) can0 38A#000005
