(1790244135.229367) can0 18A#F8D9004506
(1790244135.239330) can0 38A#000005
(1790244135.239848) can0 28A#0000000000000000
(1790244135.240271) can0 18A#F8D9004506
(1790244135.249392) can0 18A#F9DAFC4506
(1790244135.260287) can0 28A#0000000000000000
(1790244135.260825) can0 18A#F9F6F81406
(1790244135.269714) can0 18A#F9F7F70806
(1790244135.280176) can0 28A#0000000000000000
(1790244135.280658) can0 18A#F9F7F5FB06
(1790244135.291041) can0 38A#000005
(1790244135.291564) can0 18A#F9F6F4F706
(1790244135.300160) can0 28A#0000000000000000
(1790244135.300570) can0 18A#F9F6F4F606
(1790244135.310342) can0 18A#F8F6F5F506
(1790244135.320904) can0 28A#0000000000000000
(1790244135.321690) can0 18A#F8F5F5F406
(1790244135.330813) can0 18A#F8F6F4F406
(1790244135.341012) can0 38A#000005
(1790244135.341753) can0 28A#0000000000000000
(1790244135.342236) can0 18A#F8F5F5F306
(1790244135.351268) can0 18A#F8F5F5F306
(1790244135.362729) can0 28A#0000000000000000
(1790244135.365214) can0 18A#F8F5F4F306
(1790244135.371144) can0 18A#F7F5F5F306
(1790244135.381821) can0 28A#0000000000000000
(1790244135.382228) can0 18A#F7F4F4F306
(1790244135.391710) can0 38A#000005
(1790244135.392420) can0 18A#F7F5F4F306
(1790244135.401751) can0 28A#0000000000000000
(1790244135.402269) can0 18A#F7F4F4F306
(1790244135.412286) can0 18A#F7F4F4F306
(1790244135.422136) can0 28A#0000000000000000
(1790244135.422823) can0 18A#F7F4F4F306
(1790244135.432193) can0 18A#F6F4F4F306
(1790244135.443075) can0 38A#000005
(1790244135.443887) can0 28A#0000000000000000
(1790244135.444561) can0 18A#F6F3F4F306
(1790244135.452526) can0 18A#F6F4F4F206
(1790244135.462739) can0 28A#0000000000000000
(1790244135.463382) can0 18A#F5F3F4F206
(1790244135.473137) can0 18A#F5F3F4F306
(1790244135.482987) can0 28A#0000000000000000
(1790244135.483422) can0 18A#F5F3F4F206
(1790244135.493002) can0 38A#000005
(1790244135.493480) can0 18A#F5F3F4F306
(1790244135.503533) can0 28A#0000000000000000
(1790244135.503887) can0 18A#F5F3F4F206
(1790244135.513389) can0 18A#F5F3F4F206
(1790244135.523518) can0 28A#0000000000000000
(1790244135.523839) can0 18A#F4F2F4F306
(1790244135.534018) can0 18A#F4F2F4F206
(1790244135.544135) can0 38A#000005
(1790244135.544756) can0 28A#0000000000000000
(1790244135.545200) can0 18A#F4F2F4F206
(1790244135.553933) can0 18A#F4F2F4F206
(1790244135.564635) can0 28A#0000000000000000
(1790244135.565150) can0 18A#F4F2F4F206
(1790244135.574285) can0 18A#F4F2F4F206
(1790244135.584570) can0 28A#0000000000000000
(1790244135.585199) can0 18A#F3F1F4F206
(1790244135.594900) can0 38A#000005
(1790244135.595435) can0 18A#F3F1F4F206
(1790244135.604776) can0 28A#0000000000000000
(1790244135.605194) can0 18A#F3F1F4F206
(1790244135.614880) can0 18A#F3F1F4F206
(1790244135.625429) can0 28A#0000000000000000
(1790244135.626039) can0 18A#F3F1F4F206
(1790244135.635124) can0 18A#F3F1F4F206
(1790244135.645445) can0 38A#000005
(1790244135.646159) can0 28A#0000000000000000
(1790244135.646680) can0 18A#F2F1F4F106
(1790244135.655881) can0 18A#F2F0F4F106
(1790244135.669179) can0 28A#0000000000000000
(1790244135.669708) can0 18A#F2F0F4F106
(1790244135.675779) can0 18A#F2F0F4F106
(1790244135.686460) can0 28A#0000000000000000
(1790244135.687066) can0 18A#F2F0F4F106
(1790244135.696125) can0 38A#000005
(1790244135.696616) can0 18A#F2EFF4F106
(1790244135.706257) can0 28A#0000000000000000
(1790244135.706606) can0 18A#F1EFF4F106
(1790244135.716740) can0 18A#F1EFF4F106
(1790244135.726640) can0 28A#0000000000000000
(1790244135.727139) can0 18A#F1EFF4F106
(1790244135.736764) can0 18A#F1EFF4F106
(1790244135.747478) can0 38A#000005
(1790244135.748348) can0 28A#0000000000000000
(1790244135.749007) can0 18A#F1EEF4F106
(1790244135.757003) can0 18A#F1EEF4F106
(1790244135.768274) can0 28A#0000000000000000
(1790244135.770221) can0 18A#F0EEF4F106
(1790244135.778938) can0 18A#F0EEF4F106
(1790244135.788121) can0 28A#0000000000000000
(1790244135.788822) can0 18A#F0EEF4F006
(1790244135.797869) can0 38A#000005
(1790244135.800198) can0 18A#F0EEF4F106
(1790244135.808429) can0 28A#0000000000000000
(1790244135.812381) can0 18A#F0EEF4F106
(1790244135.819701) can0 18A#F0EEF4F106
(1790244135.828550) can0 28A#0000000000000000
(1790244135.830586) can0 18A#EFEDF4F106
(1790244135.839039) can0 18A#EFEDF4F106
(1790244135.848622) can0 38A#000005
(1790244135.851391) can0 28A#0000000000000000
(1790244135.852987) can0 18A#EFEDF4F106
(1790244135.858734) can0 18A#EFEDF4F006
(1790244135.870633) can0 28A#0000000000000000
(1790244135.872415) can0 18A#EFEDF4F106
(1790244135.880518) can0 18A#EFEDF3F006
(1790244135.889893) can0 28A#0000000000000000
(1790244135.891843) can0 18A#EEECF4F006
(1790244135.900218) can0 38A#000005
(1790244135.902319) can0 18A#EEECF4F106
(1790244135.910355) can0 28A#0000000000000000
(1790244135.912232) can0 18A#EEECF3F006
(1790244135.919632) can0 18A#EEECF3F006
(1790244135.930179) can0 28A#0000000000000000
(1790244135.932510) can0 18A#EEECF4F106
(1790244135.939814) can0 18A#EEECF3F006
(1790244135.949859) can0 38A#000005
(1790244135.950359) can0 28A#0000000000000000
(1790244135.950751) can0 18A#EDEBF4F006
(1790244135.960291) can0 18A#EDEBF4F006
(1790244135.970371) can0 28A#0000000000000000
(1790244135.970937) can0 18A#EDEBF4F006
(1790244135.980661) can0 18A#EDEBF4F006
(1790244135.990913) can0 28A#0000000000000000
(1790244135.991421) can0 18A#EDEBF4F006
(1790244136.000676) can0 38A#000005
(1790244136.001190) can0 18A#ECEBF4F006
(1790244136.010939) can0 28A#0000000000000000
(1790244136.011428) can0 18A#ECEBF40206
(1790244136.021272) can0 18A#ECEBF4F706
(1790244136.031191) can0 28A#0000000000000000
(1790244136.031689) can0 18A#EBEAF4F406
(1790244136.041117) can0 18A#EBEAF40506
(1790244136.051583) can0 38A#000005
(1790244136.052216) can0 28A#0000000000000000
(1790244136.052794) can0 18A#EBE4F42B06
(1790244136.061381) can0 18A#EBE0F43406
(1790244136.071614) can0 28A#0000000000000000
(1790244136.072163) can0 18A#EBD9F43E06
(1790244136.083932) can0 18A#EBD3F44106
(1790244136.091772) can0 28A#0000000000000000
(1790244136.092145) can0 18A#EAD2F44206
(1790244136.102098) can0 38A#000005
(1790244136.102755) can0 18A#EAD0F44306
(1790244136.112445) can0 28A#0000000000000000
(1790244136.113210) can0 18A#EACFF44406
(1790244136.122262) can0 18A#EACFF44406
(1790244136.132397) can0 28A#0000000000000000
(1790244136.133101) can0 18A#EACFF44406
(1790244136.142769) can0 18A#E9CEF44406
(1790244136.152513) can0 70A#05
(1790244136.152978) can0 38A#000005
(1790244136.153411) can0 28A#0000000000000000
(1790244136.162529) can0 18A#E9CEF44406
(1790244136.173139) can0 28A#0000000000000000
(1790244136.173593) can0 18A#E9CDF44406
(1790244136.182869) can0 18A#E9CDF44406
(1790244136.196190) can0 28A#10FDA1FF00000000
(1790244136.196637) can0 18A#E9CCF3450E
(1790244136.203392) can0 38A#000005
(1790244136.203897) can0 18A#E8CCF4450E
(1790244136.213302) can0 28A#10FD9EFF00000000
(1790244136.213973) can0 18A#E8CBF4450E
(1790244136.223435) can0 18A#E8CBF4450E
(1790244136.234015) can0 28A#10FD9FFF00000000
(1790244136.234890) can0 18A#E8CBF4450E
(1790244136.243675) can0 18A#E8CBF4450E
(1790244136.254221) can0 38A#000005
(1790244136.255019) can0 28A#10FDA0FF00000000
(1790244136.255643) can0 18A#E7CBF4450E
(1790244136.264230) can0 18A#E7CAF4450E
(1790244136.274135) can0 28A#10FDA1FF00000000
(1790244136.274708) can0 18A#E7CAF4450E
(1790244136.284030) can0 18A#E7CAF4450E
(1790244136.294634) can0 28A#10FDA1FF00000000
(1790244136.295324) can0 18A#E7CAF4450E
(1790244136.304935) can0 38A#000005
(1790244136.305745) can0 18A#E7C9F3450E
(1790244136.314660) can0 28A#10FDA2FF00000000
(1790244136.315477) can0 18A#E6C9F4450E
(1790244136.324944) can0 18A#E6C9F4450E
(1790244136.334795) can0 28A#10FDA5FF00000000
(1790244136.335447) can0 18A#E6C9F4450E
(1790244136.344887) can0 18A#E6C8F4450E
(1790244136.355937) can0 38A#000005
(1790244136.356791) can0 28A#10FDA4FF00000000
(1790244136.357476) can0 18A#E6C8F3450E
(1790244136.365049) can0 18A#E6C7F3450E
(1790244136.375402) can0 28A#10FDA3FF00000000
(1790244136.376105) can0 18A#E5C7F4450E
(1790244136.385681) can0 18A#E5C7F4450E
(1790244136.396075) can0 28A#10FDA5FF00000000
(1790244136.398362) can0 18A#E5C7F3460E
(1790244136.405685) can0 38A#000005
(1790244136.406274) can0 18A#E5C7F4460E
(1790244136.416017) can0 28A#10FDA8FF00000000
(1790244136.416468) can0 18A#E5C7F4460E
(1790244136.425794) can0 18A#E5C6F3460E
(1790244136.435985) can0 28A#10FDA6FF00000000
(1790244136.436458) can0 18A#E4C6F4460E
(1790244136.446364) can0 18A#E4C5F3460E
(1790244136.456409) can0 38A#000005
(1790244136.457483) can0 28A#10FDA7FF00000000
(1790244136.458080) can0 18A#E4C5F3460E
(1790244136.466287) can0 18A#E4C5F4460E
(1790244136.476877) can0 28A#10FDA9FF00000000
(1790244136.477591) can0 18A#E4C5F4460E
(1790244136.486479) can0 18A#E3C5F4460E
(1790244136.496722) can0 28A#10FDA9FF00000000
(1790244136.497368) can0 18A#E3C4F3460E
(1790244136.507497) can0 38A#000005
(1790244136.508379) can0 18A#E3C4F3460E
(1790244136.516952) can0 28A#10FDAFFF00000000
(1790244136.517594) can0 18A#E3C4F3460E
(1790244136.527075) can0 18A#E3C3F4460E
(1790244136.537587) can0 28A#10FDACFF00000000
(1790244136.538362) can0 18A#E2C3F4460E
(1790244136.547338) can0 18A#E2C3F4460E
(1790244136.557532) can0 38A#000005
(1790244136.558227) can0 28A#10FDABFF00000000
(1790244136.558623) can0 18A#E2C2F3460E
(1790244136.567751) can0 18A#E2C2F3460E
(1790244136.577792) can0 28A#10FDADFF00000000
(1790244136.578340) can0 18A#E1C2F3460E
(1790244136.587753) can0 18A#E2C2F3460E
(1790244136.598346) can0 28A#10FDAFFF00000000
(1790244136.599035) can0 18A#E1C1F3460E
(1790244136.608057) can0 38A#000005
(1790244136.608827) can0 18A#E1C1F4460E
(1790244136.618161) can0 28A#10FDB0FF00000000
(1790244136.618628) can0 18A#E1C1F4460E
(1790244136.628684) can0 18A#E0C1F3460E
(1790244136.638385) can0 28A#10FDB2FF00000000
(1790244136.638896) can0 18A#E0C0F3460E
(1790244136.648598) can0 18A#E0C0F3460E
(1790244136.658925) can0 38A#000005
(1790244136.659440) can0 28A#10FDB2FF00000000
(1790244136.659814) can0 18A#E0C0F3460E
(1790244136.670519) can0 18A#E0C0F3460E
(1790244136.678896) can0 28A#10FDB3FF00000000
(1790244136.679317) can0 18A#E0BFF3470E
(1790244136.689267) can0 18A#DFBFF4470E
(1790244136.699145) can0 28A#10FDB9FF00000000
(1790244136.699635) can0 18A#DFBFF3470E
(1790244136.709419) can0 38A#000005
(1790244136.714959) can0 18A#DFBEF3470E
(1790244136.719629) can0 28A#10FDB6FF00000000
(1790244136.720101) can0 18A#DFBEF3470E
(1790244136.729418) can0 18A#DFBEF3470E
(1790244136.739737) can0 28A#0000000000000000
(1790244136.740468) can0 18A#DFBEF34706
(1790244136.750275) can0 18A#DEBEF34706
(1790244136.760752) can0 38A#000005
(1790244136.761678) can0 28A#0000000000000000
(1790244136.762356) can0 18A#DEBEF34706
(1790244136.769985) can0 18A#DEBDF34706
(1790244136.780546) can0 28A#0000000000000000
(1790244136.781191) can0 18A#DEBDF34706
(1790244136.790117) can0 18A#DEBDF3470E
(1790244136.800340) can0 28A#0000000000000000
(1790244136.800817) can0 18A#DEBCF34706
(1790244136.810872) can0 38A#000005
(1790244136.811988) can0 18A#DDBCF34706
(1790244136.820636) can0 28A#0000000000000000
(1790244136.821352) can0 18A#DDBCF34706
(1790244136.830698) can0 18A#DDBCF34706
(1790244136.841263) can0 28A#0000000000000000
(1790244136.842144) can0 18A#DDBCF34706
(1790244136.850934) can0 18A#DDBCF34706
(1790244136.861987) can0 38A#000005
(1790244136.863138) can0 28A#0000000000000000
(1790244136.864008) can0 18A#DCBBF34706
(1790244136.871487) can0 18A#DCBAF34706
(1790244136.881409) can0 28A#0000000000000000
(1790244136.882091) can0 18A#DCBBF34706
(1790244136.891639) can0 18A#DCBAF34706
(1790244136.901970) can0 28A#0000000000000000
(1790244136.902631) can0 18A#DCBAF34706
(1790244136.911796) can0 38A#000005
(1790244136.912392) can0 18A#DCBAF34706
(1790244136.921703) can0 28A#0000000000000000
(1790244136.922066) can0 18A#DBBAF34706
(1790244136.932206) can0 18A#DBBAF34706
(1790244136.942154) can0 28A#0000000000000000
(1790244136.942936) can0 18A#DBB9F34706
(1790244136.952173) can0 18A#DBB9F34706
(1790244136.963021) can0 38A#000005
(1790244136.963845) can0 28A#0000000000000000
(1790244136.964532) can0 18A#DBB9F34706
(1790244136.972356) can0 18A#DBB8F34706
(1790244136.982582) can0 28A#0000000000000000
(1790244136.983285) can0 18A#DAB9F34706
(1790244136.992944) can0 18A#DAB8F34706
(1790244137.003591) can0 28A#0000000000000000
(1790244137.004131) can0 18A#DAB8F34706
(1790244137.013179) can0 38A#000005
(1790244137.013753) can0 18A#DAB8F34706
(1790244137.023283) can0 28A#0000000000000000
(1790244137.023715) can0 18A#DAB7F34706
(1790244137.033026) can0 18A#D9B7F34706
(1790244137.043173) can0 28A#0000000000000000
(1790244137.043912) can0 18A#D9B8F34706
(1790244137.053850) can0 18A#D9B7F34706
(1790244137.064412) can0 38A#000005
(1790244137.065409) can0 28A#0000000000000000
(1790244137.066473) can0 18A#D9B7F44706
(1790244137.073500) can0 18A#D9B7F44706
(1790244137.084270) can0 28A#0000000000000000
(1790244137.085089) can0 18A#D8B6F34706
(1790244137.093483) can0 18A#D8B6F44706
(1790244137.103837) can0 28A#0000000000000000
(1790244137.104418) can0 18A#D8B6F34706
(1790244137.114028) can0 38A#000005
(1790244137.114448) can0 18A#D7B6F34706
(1790244137.123839) can0 28A#0000000000000000
(1790244137.124187) can0 18A#D7B6F44706
(1790244137.133925) can0 18A#D7B5F34706
(1790244137.144420) can0 28A#0000000000000000
(1790244137.144804) can0 18A#D7B5F44706
(1790244137.154187) can0 18A#D7B5F44706
(1790244137.164315) can0 70A#05
(1790244137.164738) can0 38A#000005
(1790244137.165116) can0 28A#0000000000000000
(1790244137.174605) can0 18A#D6B5F34706
(1790244137.184498) can0 28A#0000000000000000
(1790244137.184950) can0 18A#D6B5F44706
(1790244137.194444) can0 18A#D6B4F44706
(1790244137.205085) can0 28A#0000000000000000
(1790244137.205570) can0 18A#D6B4F44706
(1790244137.215054) can0 38A#000005
(1790244137.215647) can0 18A#D6B4F44706
(1790244137.224825) can0 28A#0000000000000000
(1790244137.225319) can0 18A#D5B4F44706
(1790244137.237254) can0 18A#D5B4F44706
(1790244137.245092) can0 28A#0000000000000000
(1790244137.245524) can0 18A#D5B4F44706
(1790244137.255120) can0 18A#D5B3F44706
(1790244137.265606) can0 38A#000005
(1790244137.266532) can0 28A#0000000000000000
(1790244137.267024) can0 18A#D5B3F34706
(1790244137.275230) can0 18A#D5B3F44706
(1790244137.285476) can0 28A#0000000000000000
(1790244137.285916) can0 18A#D4B2F44706
(1790244137.295758) can0 18A#D4B3F44706
(1790244137.305614) can0 28A#0000000000000000
(1790244137.306185) can0 18A#D4B3F34706
(1790244137.315717) can0 38A#000005
(1790244137.316223) can0 18A#D4B2F34706
(1790244137.326157) can0 28A#0000000000000000
(1790244137.326724) can0 18A#D4B2F44706
(1790244137.335954) can0 18A#D4B2F44706
(1790244137.346019) can0 28A#0000000000000000
(1790244137.346592) can0 18A#D3B1F34706
(1790244137.356792) can0 18A#D3B1F34706
(1790244137.366474) can0 38A#000005
(1790244137.367765) can0 28A#0000000000000000
(1790244137.368526) can0 18A#D3B1F34706
(1790244137.376199) can0 18A#D3B1F44706
(1790244137.386798) can0 28A#0000000000000000
(1790244137.387524) can0 18A#D3B1F34706
(1790244137.396465) can0 18A#D3B1F34706
(1790244137.406664) can0 28A#0000000000000000
(1790244137.407187) can0 18A#D2B0F34706
(1790244137.417235) can0 38A#000005
(1790244137.417891) can0 18A#D2B0F34706
(1790244137.430392) can0 28A#0000000000000000
(1790244137.431074) can0 18A#D2B0F34706
(1790244137.436905) can0 18A#D2B0F34706
(1790244137.447267) can0 28A#0000000000000000
(1790244137.447670) can0 18A#D2AFF34706
(1790244137.457084) can0 18A#D2B0F34706
(1790244137.467365) can0 38A#000005
(1790244137.467906) can0 28A#0000000000000000
(1790244137.468443) can0 18A#D1AFF34706
(1790244137.477436) can0 18A#D1AFF24706
(1790244137.487440) can0 28A#0000000000000000
(1790244137.488030) can0 18A#D1AFF34706
(1790244137.497351) can0 18A#D1AFF24706
(1790244137.507889) can0 28A#0000000000000000
(1790244137.508446) can0 18A#D1AFF24706
(1790244137.517939) can0 38A#000005
(1790244137.518975) can0 18A#D1AFF24706
(1790244137.527744) can0 28A#0000000000000000
(1790244137.528657) can0 18A#D0AEF24706
(1790244137.538234) can0 18A#D0AEF24706
(1790244137.547958) can0 28A#0000000000000000
(1790244137.548476) can0 18A#D0AEF24706
(1790244137.557996) can0 18A#D0AEF24706
(1790244137.568750) can0 38A#000005
(1790244137.569496) can0 28A#0000000000000000
(1790244137.570078) can0 18A#CFAEF24706
(1790244137.578116) can0 18A#CFADF14706
(1790244137.588352) can0 28A#0000000000000000
(1790244137.589044) can0 18A#CFADF14706
(1790244137.598693) can0 18A#CFADF04706
(1790244137.608595) can0 28A#0000000000000000
(1790244137.609270) can0 18A#CFADF04706
(1790244137.618911) can0 38A#000005
(1790244137.619651) can0 18A#CFADF04706
(1790244137.628930) can0 28A#0000000000000000
(1790244137.629363) can0 18A#CEACEF4706
(1790244137.638752) can0 18A#CEACEF4706
(1790244137.648829) can0 28A#0000000000000000
(1790244137.649164) can0 18A#CEACEE4706
(1790244137.659249) can0 18A#CEABEE4706
(1790244137.669031) can0 38A#000005
(1790244137.669706) can0 28A#0000000000000000
(1790244137.670118) can0 18A#CEABEF4706
(1790244137.679026) can0 18A#CDACEF4706
(1790244137.689579) can0 28A#0000000000000000
(1790244137.689965) can0 18A#CDABEF4706
(1790244137.699251) can0 18A#CDABEF4706
(1790244137.709488) can0 28A#0000000000000000
(1790244137.710037) can0 18A#CDAAF04706
(1790244137.719820) can0 38A#000005
(1790244137.720416) can0 18A#CDAAF04706
(1790244137.729568) can0 28A#0000000000000000
(1790244137.730026) can0 18A#CCABF14706
(1790244137.739647) can0 18A#CCAAF14706
(1790244137.750445) can0 28A#0000000000000000
(1790244137.752722) can0 18A#CBAAF24706
(1790244137.759813) can0 18A#CBAAF24706
(1790244137.769892) can0 38A#000005
(1790244137.770323) can0 28A#0000000000000000
(1790244137.770704) can0 18A#CBA9F34706
(1790244137.780314) can0 18A#CBAAF34706
(1790244137.790174) can0 28A#0000000000000000
(1790244137.790564) can0 18A#CBAAF44706
(1790244137.800158) can0 18A#CAA9F44706
(1790244137.810802) can0 28A#0000000000000000
(1790244137.811402) can0 18A#CAA9F54706
(1790244137.820623) can0 38A#000005
(1790244137.821434) can0 18A#CAA9F54706
(1790244137.830529) can0 28A#0000000000000000
(1790244137.830928) can0 18A#CAA8F64706
(1790244137.840961) can0 18A#C9A9F74706
(1790244137.850790) can0 28A#0000000000000000
(1790244137.851434) can0 18A#C9A9F74706
(1790244137.860833) can0 18A#C9A8F84706
(1790244137.871478) can0 38A#000005
(1790244137.872285) can0 28A#0000000000000000
(1790244137.872838) can0 18A#C8A8F94706
(1790244137.880984) can0 18A#C8A8F94706
(1790244137.891171) can0 28A#0000000000000000
(1790244137.891623) can0 18A#C8A7F94706
(1790244137.901495) can0 18A#C7A7FA4706
(1790244137.911355) can0 28A#0000000000000000
(1790244137.911767) can0 18A#C7A7FB4706
(1790244137.921456) can0 38A#000005
(1790244137.921975) can0 18A#C7A7FB4706
(1790244137.931845) can0 28A#0000000000000000
(1790244137.932206) can0 18A#C6A7FC4706
(1790244137.941576) can0 18A#C6A7FD4706
(1790244137.951700) can0 28A#0000000000000000
(1790244137.952720) can0 18A#C6A6FE4706
(1790244137.962188) can0 18A#C5A6FF4706
(1790244137.972605) can0 38A#000005
(1790244137.973388) can0 28A#0000000000000000
(1790244137.974001) can0 18A#C5A6FF4706
(1790244137.981968) can0 18A#C5A6004706
(1790244137.992572) can0 28A#0000000000000000
(1790244137.993397) can0 18A#C5A6004706
(1790244138.002168) can0 18A#C5A5004706
(1790244138.012336) can0 28A#0000000000000000
(1790244138.012878) can0 18A#C5A5004706
(1790244138.023217) can0 38A#000005
(1790244138.024159) can0 18A#C5A5004706
(1790244138.032472) can0 28A#0000000000000000
(1790244138.032929) can0 18A#C5A5004706
(1790244138.042427) can0 18A#C5A5004706
(1790244138.052869) can0 28A#0000000000000000
(1790244138.053225) can0 18A#C5A4004706
(1790244138.062610) can0 18A#C5A4004706
(1790244138.072937) can0 38A#000005
(1790244138.073702) can0 28A#0000000000000000
(1790244138.074323) can0 18A#C5A4004706
(1790244138.083194) can0 18A#C5A4004706
(1790244138.092973) can0 28A#0000000000000000
(1790244138.093767) can0 18A#C5A4004706
(1790244138.102971) can0 18A#C5A4004706
(1790244138.113405) can0 28A#0000000000000000
(1790244138.113997) can0 18A#C5A3004706
(1790244138.123358) can0 38A#000005
(1790244138.124675) can0 18A#C5A3004706
(1790244138.133198) can0 28A#0000000000000000
(1790244138.133835) can0 18A#C5A3004706
(1790244138.143699) can0 18A#C5A3004706
(1790244138.153242) can0 28A#0000000000000000
(1790244138.153661) can0 18A#C5A3004706
(1790244138.163268) can0 18A#C5A2004706
(1790244138.173901) can0 70A#05
(1790244138.174532) can0 38A#000005
(1790244138.174989) can0 28A#0000000000000000
(1790244138.183366) can0 18A#C5A2004706
(1790244138.193554) can0 28A#0000000000000000
(1790244138.193979) can0 18A#C5A2004706
(1790244138.204413) can0 18A#C5A2004706
(1790244138.213765) can0 28A#0000000000000000
(1790244138.214763) can0 18A#C5A2004706
(1790244138.224267) can0 38A#000005
(1790244138.225912) can0 18A#C5A1004706
(1790244138.234217) can0 28A#0000000000000000
(1790244138.235153) can0 18A#C5A1004706
(1790244138.243901) can0 18A#C5A1004706
(1790244138.254081) can0 28A#0000000000000000
(1790244138.254758) can0 18A#C5A1004706
(1790244138.264442) can0 18A#C5A1004706
(1790244138.274388) can0 38A#000005
(1790244138.280576) can0 28A#0000000000000000
(1790244138.281171) can0 18A#C5A0004706
(1790244138.284184) can0 18A#C5A0004706
(1790244138.294702) can0 28A#0000000000000000
(1790244138.295256) can0 18A#C5A0004706
(1790244138.304270) can0 18A#C5A0004706
(1790244138.314443) can0 28A#0000000000000000
(1790244138.314939) can0 18A#C5A0004706
(1790244138.324926) can0 38A#000005
(1790244138.325866) can0 18A#C5A0004706
(1790244138.334590) can0 28A#0000000000000000
(1790244138.335040) can0 18A#C5A0004706
(1790244138.344627) can0 18A#C59F004706
(1790244138.355082) can0 28A#0000000000000000
(1790244138.355552) can0 18A#C59F004706
(1790244138.364842) can0 18A#C59F004706
(1790244138.375382) can0 38A#000005
(1790244138.376975) can0 28A#0000000000000000
(1790244138.377804) can0 18A#C59F004706
(1790244138.385299) can0 18A#C59F004706
(1790244138.395284) can0 28A#0000000000000000
(1790244138.396420) can0 18A#C59E004706
(1790244138.405201) can0 18A#C59E004706
(1790244138.415656) can0 28A#0000000000000000
(1790244138.416367) can0 18A#C59E004706
(1790244138.425744) can0 38A#000005
(1790244138.428623) can0 18A#C59E004706
(1790244138.436940) can0 28A#0000000000000000
(1790244138.439039) can0 18A#C59E004706
(1790244138.445671) can0 18A#C59E004706
(1790244138.455611) can0 28A#0000000000000000
(1790244138.456993) can0 18A#C59D004706
(1790244138.467586) can0 18A#C59D004706
(1790244138.475834) can0 38A#000005
(1790244138.476282) can0 28A#0000000000000000
(1790244138.476755) can0 18A#C59D004706
(1790244138.485502) can0 18A#C59D004706
(1790244138.495814) can0 28A#0000000000000000
(1790244138.496372) can0 18A#C59D004706
(1790244138.506121) can0 18A#C59C004706
(1790244138.515969) can0 28A#0000000000000000
(1790244138.516541) can0 18A#C59C004706
(1790244138.526235) can0 38A#000005
(1790244138.527371) can0 18A#C59C004706
(1790244138.536562) can0 28A#0000000000000000
(1790244138.537379) can0 18A#C59C004706
(1790244138.546088) can0 18A#C59B004706
(1790244138.556251) can0 28A#0000000000000000
(1790244138.557148) can0 18A#C59B004706
(1790244138.566738) can0 18A#C59B004706
(1790244138.576360) can0 38A#000005
(1790244138.577325) can0 28A#0000000000000000
(1790244138.577826) can0 18A#C59B004706
(1790244138.586284) can0 18A#C59B004706
(1790244138.596905) can0 28A#0000000000000000
(1790244138.597395) can0 18A#C59A004706
(1790244138.606503) can0 18A#C59A004706
(1790244138.616720) can0 28A#0000000000000000
(1790244138.617241) can0 18A#C59A004706
(1790244138.627799) can0 38A#000005
(1790244138.629355) can0 18A#C59A004706
(1790244138.636719) can0 28A#0000000000000000
(1790244138.637168) can0 18A#C59A004706
(1790244138.646796) can0 18A#C599004706
(1790244138.657291) can0 28A#0000000000000000
(1790244138.657881) can0 18A#C599004706
(1790244138.666986) can0 18A#C599004706
(1790244138.677357) can0 38A#000005
(1790244138.678235) can0 28A#0000000000000000
(1790244138.678810) can0 18A#C599004706
(1790244138.687321) can0 18A#C599004706
(1790244138.697146) can0 28A#0000000000000000
(1790244138.697559) can0 18A#C598004706
(1790244138.707120) can0 18A#C598004706
(1790244138.717778) can0 28A#0000000000000000
(1790244138.718197) can0 18A#C598004706
(1790244138.727868) can0 38A#000005
(1790244138.728377) can0 18A#C598004706
(1790244138.737475) can0 28A#0000000000000000
(1790244138.737850) can0 18A#C597004706
(1790244138.747837) can0 18A#C597004706
(1790244138.757620) can0 28A#0000000000000000
(1790244138.758165) can0 18A#C597004706
(1790244138.767658) can0 18A#C597004706
(1790244138.778267) can0 38A#000005
(1790244138.778766) can0 28A#0000000000000000
(1790244138.779149) can0 18A#C597004706
(1790244138.787777) can0 18A#C596004706
(1790244138.800003) can0 28A#0000000000000000
(1790244138.800575) can0 18A#C596004706
(1790244138.808249) can0 18A#C596004706
(1790244138.818092) can0 28A#0000000000000000
(1790244138.818554) can0 18A#C596004706
(1790244138.828454) can0 38A#000005
(1790244138.828984) can0 18A#C596004706
(1790244138.838566) can0 28A#0000000000000000
(1790244138.838917) can0 18A#C596004706
(1790244138.848203) can0 18A#C596004706
(1790244138.858351) can0 28A#0000000000000000
(1790244138.858897) can0 18A#C595004706
(1790244138.868758) can0 18A#C595004706
(1790244138.878795) can0 38A#000005
(1790244138.879668) can0 28A#0000000000000000
(1790244138.880452) can0 18A#C595004706
(1790244138.888522) can0 18A#C595004706
(1790244138.899119) can0 28A#0000000000000000
(1790244138.899926) can0 18A#C595004706
(1790244138.908631) can0 18A#C595004706
(1790244138.918884) can0 28A#0000000000000000
(1790244138.919410) can0 18A#C594004706
(1790244138.929106) can0 38A#000005
(1790244138.929588) can0 18A#C594004706
(1790244138.938896) can0 28A#0000000000000000
(1790244138.939345) can0 18A#C594004706
(1790244138.949137) can0 18A#C594004706
(1790244138.959480) can0 28A#0000000000000000
(1790244138.960193) can0 18A#C594004706
(1790244138.969180) can0 18A#C594004706
(1790244138.979381) can0 38A#000005
(1790244138.980435) can0 28A#0000000000000000
(1790244138.981207) can0 18A#C594004706
(1790244138.989580) can0 18A#C594004706
(1790244138.999472) can0 28A#0000000000000000
(1790244139.000135) can0 18A#C694174706
(1790244139.009448) can0 18A#CC942F4706
(1790244139.019885) can0 28A#0000000000000000
(1790244139.020408) can0 18A#D193384706
(1790244139.030025) can0 38A#000005
(1790244139.030891) can0 18A#D3933A4706
(1790244139.039559) can0 28A#0000000000000000
(1790244139.039923) can0 18A#D5933C4706
(1790244139.050023) can0 18A#D5933D4706
(1790244139.059645) can0 28A#0000000000000000
(1790244139.060055) can0 18A#D6933D4706
(1790244139.069702) can0 18A#D6933D4706
(1790244139.080494) can0 38A#000005
(1790244139.081104) can0 28A#0000000000000000
(1790244139.081663) can0 18A#D6933D4606
(1790244139.089760) can0 18A#D6923D4706
(1790244139.100001) can0 28A#0000000000000000
(1790244139.100648) can0 18A#D5933D4706
(1790244139.110300) can0 18A#D5933D4606
(1790244139.120031) can0 28A#0000000000000000
(1790244139.120518) can0 18A#D5933D4606
(1790244139.130216) can0 38A#000005
(1790244139.131280) can0 18A#D5933D4606
(1790244139.140438) can0 28A#0000000000000000
(1790244139.140814) can0 18A#D5923C4606
(1790244139.150187) can0 18A#D5923C4606
(1790244139.160218) can0 28A#0000000000000000
(1790244139.160694) can0 18A#D5923C4606
(1790244139.170686) can0 18A#D5933C4606
(1790244139.180443) can0 70A#05
(1790244139.181513) can0 38A#000005
(1790244139.182223) can0 28A#0000000000000000
(1790244139.190352) can0 18A#D4923C4606
(1790244139.200838) can0 28A#0000000000000000
(1790244139.201337) can0 18A#D4923C4606
(1790244139.210323) can0 18A#D4923B4606
(1790244139.220581) can0 28A#0000000000000000
(1790244139.221024) can0 18A#D4923B4606
(1790244139.231129) can0 38A#000005
(1790244139.231711) can0 18A#D4923B4606
(1790244139.240680) can0 28A#0000000000000000
(1790244139.241156) can0 18A#D4923B4606
(1790244139.250650) can0 18A#D4923B4606
(1790244139.261412) can0 28A#0000000000000000
(1790244139.262138) can0 18A#D3923B4606
(1790244139.270781) can0 18A#D3923B4606
(1790244139.281140) can0 38A#000005
(1790244139.282458) can0 28A#0000000000000000
(1790244139.283266) can0 18A#D3923B4606
(1790244139.291303) can0 18A#D3923A4606
(1790244139.301150) can0 28A#0000000000000000
(1790244139.301920) can0 18A#D3923A4606
(1790244139.311119) can0 18A#D3923A4606
(1790244139.321538) can0 28A#0000000000000000
(1790244139.322016) can0 18A#D3913A4606
(1790244139.331360) can0 38A#000005
(1790244139.331880) can0 18A#D3913A4606
(1790244139.341136) can0 28A#0000000000000000
(1790244139.341573) can0 18A#D2913A4606
(1790244139.352059) can0 18A#D292394606
(1790244139.361329) can0 28A#0000000000000000
(1790244139.361805) can0 18A#D292394606
(1790244139.371262) can0 18A#D292394606
(1790244139.381749) can0 38A#000005
(1790244139.382304) can0 28A#0000000000000000
(1790244139.382770) can0 18A#D291394606
(1790244139.391318) can0 18A#D291394606
(1790244139.401501) can0 28A#0000000000000000
(1790244139.402029) can0 18A#D291394606
(1790244139.411813) can0 18A#D292394606
(1790244139.421650) can0 28A#0000000000000000
(1790244139.422188) can0 18A#D192384506
(1790244139.431781) can0 38A#000005
(1790244139.432564) can0 18A#D192384506
(1790244139.442047) can0 28A#0000000000000000
(1790244139.442521) can0 18A#D191384506
(1790244139.451676) can0 18A#D191384506
(1790244139.461762) can0 28A#0000000000000000
(1790244139.462190) can0 18A#D191384506
(1790244139.472074) can0 18A#D192384506
(1790244139.482394) can0 38A#000005
(1790244139.483100) can0 28A#0000000000000000
(1790244139.484024) can0 18A#D192384506
(1790244139.494003) can0 18A#D192374506
(1790244139.502325) can0 28A#0000000000000000
(1790244139.502727) can0 18A#D192374506
(1790244139.511940) can0 18A#D192374506
(1790244139.522161) can0 28A#0000000000000000
(1790244139.522736) can0 18A#D192374506
(1790244139.532602) can0 38A#000005
(1790244139.533825) can0 18A#D192374506
(1790244139.542242) can0 28A#0000000000000000
(1790244139.542774) can0 18A#D192374506
(1790244139.552191) can0 18A#D192374506
(1790244139.562721) can0 28A#0000000000000000
(1790244139.563167) can0 18A#D192374506
(1790244139.572206) can0 18A#D192374506
(1790244139.582438) can0 38A#000005
(1790244139.583084) can0 28A#0000000000000000
(1790244139.583529) can0 18A#D192374506
(1790244139.592722) can0 18A#D192374506
(1790244139.602565) can0 28A#0000000000000000
(1790244139.603101) can0 18A#D192374506
(1790244139.612462) can0 18A#D192384506
(1790244139.623029) can0 28A#0000000000000000
(1790244139.623698) can0 18A#D191384506
(1790244139.633198) can0 38A#000005
(1790244139.634588) can0 18A#D191384506
(1790244139.642771) can0 28A#0000000000000000
(1790244139.643251) can0 18A#D191384506
(1790244139.653148) can0 18A#D191384506
(1790244139.662804) can0 28A#0000000000000000
(1790244139.663270) can0 18A#D192384506
(1790244139.672831) can0 18A#D192384506
(1790244139.683478) can0 38A#000005
(1790244139.684229) can0 28A#0000000000000000
(1790244139.684883) can0 18A#D192384506
(1790244139.692906) can0 18A#D192384506
(1790244139.703043) can0 28A#0000000000000000
(1790244139.703445) can0 18A#D192384606
(1790244139.713323) can0 18A#D192384606
(1790244139.723215) can0 28A#0000000000000000
(1790244139.723830) can0 18A#D292384606
(1790244139.733277) can0 38A#000005
(1790244139.734200) can0 18A#D291394606
(1790244139.743589) can0 28A#0000000000000000
(1790244139.743940) can0 18A#D291394606
(1790244139.753300) can0 18A#D291394606
(1790244139.763342) can0 28A#0000000000000000
(1790244139.763786) can0 18A#D291394606
(1790244139.774621) can0 18A#D292394606
(1790244139.783647) can0 38A#000005
(1790244139.784254) can0 28A#0000000000000000
(1790244139.784720) can0 18A#D292394606
(1790244139.793362) can0 18A#D292394606
(1790244139.803891) can0 28A#0000000000000000
(1790244139.804357) can0 18A#D292394606
(1790244139.813493) can0 18A#D292394606
(1790244139.823642) can0 28A#0000000000000000
(1790244139.824019) can0 18A#D292394606
(1790244139.834491) can0 38A#000005
(1790244139.843586) can0 18A#D292394606
(1790244139.843982) can0 28A#0000000000000000
(1790244139.844314) can0 18A#D292394606
(1790244139.853859) can0 18A#D2923A4606
(1790244139.864261) can0 28A#0000000000000000
(1790244139.864857) can0 18A#D3913A4606
(1790244139.873905) can0 18A#D3923A4606
(1790244139.883949) can0 38A#000005
(1790244139.884681) can0 28A#0000000000000000
(1790244139.885303) can0 18A#D3923A4606
(1790244139.894262) can0 18A#D3923A4606
(1790244139.904029) can0 28A#0000000000000000
(1790244139.904539) can0 18A#D3923A4606
(1790244139.914089) can0 18A#D3923A4606
(1790244139.924801) can0 28A#0000000000000000
(1790244139.927632) can0 18A#D3923A4606
(1790244139.934665) can0 38A#000005
(1790244139.935582) can0 18A#D3923A4606
(1790244139.944252) can0 28A#0000000000000000
(1790244139.944705) can0 18A#D3923A4606
(1790244139.954673) can0 18A#D3923A4606
(1790244139.964413) can0 28A#0000000000000000
(1790244139.964996) can0 18A#D3923A4606
(1790244139.974483) can0 18A#D3923A4606
(1790244139.985249) can0 38A#000005
(1790244139.986440) can0 28A#0000000000000000
(1790244139.987271) can0 18A#D3923A4606
(1790244139.994472) can0 18A#D3923A4606
(1790244140.004580) can0 28A#0000000000000000
(1790244140.005030) can0 18A#D3923A4606
(1790244140.014890) can0 18A#D3923A4606
(1790244140.024734) can0 28A#0000000000000000
(1790244140.025213) can0 18A#D3923A4606
(1790244140.034736) can0 38A#000005
(1790244140.035389) can0 18A#D3923A4606
(1790244140.044989) can0 28A#0000000000000000
(1790244140.045351) can0 18A#D3923A4606
(1790244140.054723) can0 18A#D3923A4606
(1790244140.064791) can0 28A#0000000000000000
(1790244140.065313) can0 18A#D3923A4606
(1790244140.075130) can0 18A#D3923A4606
(1790244140.085018) can0 38A#000005
(1790244140.086208) can0 28A#0000000000000000
(1790244140.086786) can0 18A#D3923A4606
(1790244140.094818) can0 18A#D3923A4606
(1790244140.105400) can0 28A#0000000000000000
(1790244140.105988) can0 18A#D3923A4606
(1790244140.114939) can0 18A#D3923A4606
(1790244140.125133) can0 28A#0000000000000000
(1790244140.125751) can0 18A#D3923B4606
(1790244140.135377) can0 38A#000005
(1790244140.135949) can0 18A#D3923B4606
(1790244140.144991) can0 28A#0000000000000000
(1790244140.145342) can0 18A#D3923B4606
(1790244140.154984) can0 18A#D3923B4606
(1790244140.165388) can0 28A#0000000000000000
(1790244140.165771) can0 18A#D3923B4606
(1790244140.175049) can0 18A#D3923B4606
(1790244140.185633) can0 70A#05
(1790244140.186128) can0 38A#000005
(1790244140.186473) can0 28A#0000000000000000
(1790244140.195538) can0 18A#D3923B4606
(1790244140.205236) can0 28A#0000000000000000
(1790244140.205616) can0 18A#D3923B4606
(1790244140.215279) can0 18A#D3923B4606
(1790244140.225753) can0 28A#0000000000000000
(1790244140.226227) can0 18A#D3923B4606
(1790244140.235321) can0 38A#000005
(1790244140.236185) can0 18A#D3923B4606
(1790244140.245357) can0 28A#0000000000000000
(1790244140.245803) can0 18A#D3923B4606
(1790244140.255757) can0 18A#D3923B4606
(1790244140.265436) can0 28A#0000000000000000
(1790244140.265845) can0 18A#D3923B4606
(1790244140.275400) can0 18A#D3923B4606
(1790244140.286023) can0 38A#000005
(1790244140.286610) can0 28A#0000000000000000
(1790244140.287117) can0 18A#D3923B4606
(1790244140.295444) can0 18A#D3923B4606
(1790244140.305584) can0 28A#0000000000000000
(1790244140.305984) can0 18A#D3923B4606
(1790244140.315872) can0 18A#D3923B4606
(1790244140.325717) can0 28A#0000000000000000
(1790244140.326236) can0 18A#D3923B4606
(1790244140.335792) can0 38A#000005
(1790244140.337169) can0 18A#D3923B4606
(1790244140.346226) can0 28A#0000000000000000
(1790244140.346816) can0 18A#D4923B4606
(1790244140.355925) can0 18A#D4923B4606
(1790244140.365835) can0 28A#0000000000000000
(1790244140.366283) can0 18A#D4923B4606
(1790244140.376216) can0 18A#D4923B4606
(1790244140.385921) can0 38A#000005
(1790244140.386709) can0 28A#0000000000000000
(1790244140.387371) can0 18A#D4923B4606
(1790244140.395884) can0 18A#D4923B4606
(1790244140.406442) can0 28A#0000000000000000
(1790244140.407102) can0 18A#D4923B4606
(1790244140.416083) can0 18A#D4923B4606
(1790244140.425982) can0 28A#0000000000000000
(1790244140.426385) can0 18A#D4923C4606
(1790244140.436518) can0 38A#000005
(1790244140.437200) can0 18A#D4923C4606
(1790244140.446056) can0 28A#0000000000000000
(1790244140.446445) can0 18A#D4923C4606
(1790244140.456063) can0 18A#D4923C4606
(1790244140.466489) can0 28A#0000000000000000
(1790244140.466901) can0 18A#D4923C4606
(1790244140.476190) can0 18A#D4923C4606
(1790244140.486272) can0 38A#000005
(1790244140.486914) can0 28A#0000000000000000
(1790244140.487404) can0 18A#D4923C4606
(1790244140.496614) can0 18A#D4923C4606
(1790244140.506391) can0 28A#0000000000000000
(1790244140.506917) can0 18A#D4923C4606
(1790244140.516697) can0 18A#D4923C4606
(1790244140.526753) can0 28A#0000000000000000
(1790244140.527179) can0 18A#D4923C4606
(1790244140.536489) can0 38A#000005
(1790244140.537385) can0 18A#D4923C4606
(1790244140.546427) can0 28A#0000000000000000
(1790244140.546810) can0 18A#D4923C4606
(1790244140.556775) can0 18A#D4923C4606
(1790244140.566478) can0 28A#0000000000000000
(1790244140.566844) can0 18A#D4923C4606
(1790244140.576474) can0 18A#D4923C4606
(1790244140.587197) can0 38A#000005
(1790244140.587777) can0 28A#0000000000000000
(1790244140.588339) can0 18A#D4923C4606
(1790244140.596539) can0 18A#D4923C4606
(1790244140.606741) can0 28A#0000000000000000
(1790244140.607261) can0 18A#D4923C4606
(1790244140.616914) can0 18A#D4923C4606
(1790244140.626729) can0 28A#0000000000000000
(1790244140.627131) can0 18A#D4923C4606
(1790244140.636702) can0 38A#000005
(1790244140.637479) can0 18A#D4923C4606
(1790244140.647133) can0 28A#0000000000000000
(1790244140.647635) can0 18A#D4923C4606
(1790244140.656847) can0 18A#D4923C4606
(1790244140.667015) can0 28A#0000000000000000
(1790244140.667699) can0 18A#D4923C4606
(1790244140.677260) can0 18A#D4923C4606
(1790244140.687195) can0 38A#000005
(1790244140.687757) can0 28A#0000000000000000
(1790244140.688107) can0 18A#D4933C4606
(1790244140.696890) can0 18A#D4933C4606
(1790244140.707357) can0 28A#0000000000000000
(1790244140.707805) can0 18A#D4933C4606
(1790244140.716904) can0 18A#D5933C4606
(1790244140.727109) can0 28A#0000000000000000
(1790244140.727681) can0 18A#D5923C4606
(1790244140.737506) can0 38A#000005
(1790244140.738444) can0 18A#D5923C4606
(1790244140.747017) can0 28A#0000000000000000
(1790244140.747360) can0 18A#D5923C4606
(1790244140.757143) can0 18A#D5923C4606
(1790244140.767488) can0 28A#0000000000000000
(1790244140.767982) can0 18A#D5923C4606
(1790244140.777160) can0 18A#D5923C4606
(1790244140.787289) can0 38A#000005
(1790244140.788315) can0 28A#0000000000000000
(1790244140.788758) can0 18A#D5923C4606
(1790244140.797648) can0 18A#D5923C4606
(1790244140.807423) can0 28A#0000000000000000
(1790244140.807943) can0 18A#D5923C4606
(1790244140.817225) can0 18A#D5923C4606
(1790244140.827793) can0 28A#0000000000000000
(1790244140.828209) can0 18A#D5923C4606
(1790244140.837492) can0 38A#000005
(1790244140.838403) can0 18A#D5923C4606
(1790244140.847453) can0 28A#0000000000000000
(1790244140.847918) can0 18A#D5923C4606
(1790244140.857922) can0 18A#D5923C4606
(1790244140.867608) can0 28A#0000000000000000
(1790244140.868219) can0 18A#D5923C4606
(1790244140.882057) can0 18A#D5923C4606
(1790244140.887890) can0 38A#000005
(1790244140.888384) can0 28A#0000000000000000
(1790244140.888775) can0 18A#D5923C4606
(1790244140.897473) can0 18A#D5923C4606
(1790244140.907715) can0 28A#0000000000000000
(1790244140.908171) can0 18A#D5923C4606
(1790244140.917950) can0 18A#D5923C4606
(1790244140.927790) can0 28A#0000000000000000
(1790244140.928235) can0 18A#D5923C4606
(1790244140.937946) can0 38A#000005
(1790244140.938839) can0 18A#D5933C4606
(1790244140.948199) can0 28A#0000000000000000
(1790244140.948865) can0 18A#D5933C4606
(1790244140.957832) can0 18A#D5933C4606
(1790244140.967927) can0 28A#0000000000000000
(1790244140.968643) can0 18A#D5933D4606
(1790244140.978274) can0 18A#D5933D4606
(1790244140.988001) can0 38A#000005
(1790244140.988610) can0 28A#0000000000000000
(1790244140.988984) can0 18A#D5933D4606
(1790244140.997945) can0 18A#D5923D4706
(1790244141.008387) can0 28A#0000000000000000
(1790244141.008827) can0 18A#D5923D4706
(1790244141.017860) can0 18A#D5933D4706
(1790244141.027961) can0 28A#0000000000000000
(1790244141.028322) can0 18A#D6933D4606
(1790244141.038539) can0 38A#000005
(1790244141.039068) can0 18A#D6933D4606
(1790244141.048078) can0 28A#0000000000000000
(1790244141.048577) can0 18A#D6933D4606
(1790244141.058201) can0 18A#D6933D4606
(1790244141.068443) can0 28A#0000000000000000
(1790244141.068812) can0 18A#D6933D4606
(1790244141.078088) can0 18A#D6933D4606
(1790244141.089089) can0 38A#000005
(1790244141.089797) can0 28A#0000000000000000
(1790244141.090422) can0 18A#D6933D4606
(1790244141.098465) can0 18A#D6933D4606
(1790244141.108298) can0 28A#0000000000000000
(1790244141.108842) can0 18A#D6933D4606
(1790244141.118170) can0 18A#D6933D4606
(1790244141.128677) can0 28A#0000000000000000
(1790244141.129250) can0 18A#D6933D4606
(1790244141.138317) can0 38A#000005
(1790244141.139092) can0 18A#D6933D4606
(1790244141.148493) can0 28A#0000000000000000
(1790244141.150004) can0 18A#D6933D4606
(1790244141.158666) can0 18A#D6933D4606
(1790244141.168318) can0 28A#0000000000000000
(1790244141.168786) can0 18A#D6933D4606
(1790244141.178369) can0 18A#D6933D4606
(1790244141.189318) can0 70A#05
(1790244141.190070) can0 38A#000005
(1790244141.190877) can0 28A#0000000000000000
(1790244141.198723) can0 18A#D6933D4606
(1790244141.208563) can0 28A#0000000000000000
(1790244141.209294) can0 18A#D6933D4706
(1790244141.218957) can0 18A#D6933D4706
(1790244141.228691) can0 28A#0000000000000000
(1790244141.229364) can0 18A#D6933D4706
(1790244141.238446) can0 38A#000005
(1790244141.239260) can0 18A#D6933D4706
(1790244141.248825) can0 28A#0000000000000000
(1790244141.249380) can0 18A#D6933D4706
(1790244141.258456) can0 18A#D6933D4706
(1790244141.268468) can0 28A#0000000000000000
(1790244141.268834) can0 18A#D6933E4706
(1790244141.278768) can0 18A#D6933E4706
(1790244141.288730) can0 38A#000005
(1790244141.289621) can0 28A#0000000000000000
(1790244141.290113) can0 18A#D6933E4706
(1790244141.298405) can0 18A#D6933E4706
(1790244141.308990) can0 28A#0000000000000000
(1790244141.309430) can0 18A#D6933E4706
(1790244141.318476) can0 18A#D6933E4706
(1790244141.328590) can0 28A#0000000000000000
(1790244141.328974) can0 18A#D6933E4706
(1790244141.339077) can0 38A#000005
(1790244141.339558) can0 18A#D6933E4706
(1790244141.348673) can0 28A#0000000000000000
(1790244141.349203) can0 18A#D6933E4706
(1790244141.358768) can0 18A#D6933E4706
(1790244141.369174) can0 28A#0000000000000000
(1790244141.369816) can0 18A#D6933E4706
(1790244141.378744) can0 18A#D6933E4706
(1790244141.388916) can0 38A#000005
(1790244141.389927) can0 28A#0000000000000000
(1790244141.395847) can0 18A#D6933E4706
(1790244141.398973) can0 18A#D6933E4706
(1790244141.408832) can0 28A#0000000000000000
(1790244141.409486) can0 18A#D6933E4706
(1790244141.419037) can0 18A#D6933E4706
(1790244141.429196) can0 28A#0000000000000000
(1790244141.429752) can0 18A#D6933E4706
(1790244141.438899) can0 38A#000005
(1790244141.439829) can0 18A#D6933E4706
(1790244141.448956) can0 28A#0000000000000000
(1790244141.449710) can0 18A#D6933E4706
(1790244141.459337) can0 18A#D6933E4706
(1790244141.469040) can0 28A#0000000000000000
(1790244141.469785) can0 18A#D6943E4706
(1790244141.478918) can0 18A#D6943E4706
(1790244141.489232) can0 38A#000005
(1790244141.489821) can0 28A#0000000000000000
(1790244141.490283) can0 18A#D7943E4706
(1790244141.498909) can0 18A#D7943E4706
(1790244141.509125) can0 28A#0000000000000000
(1790244141.509705) can0 18A#C694184706
(1790244141.519375) can0 18A#C594094706
(1790244141.529374) can0 28A#0000000000000000
(1790244141.530986) can0 18A#C594054706
(1790244141.538948) can0 38A#000005
(1790244141.539594) can0 18A#C594024706
(1790244141.549287) can0 28A#0000000000000000
(1790244141.549703) can0 18A#C594004706
(1790244141.559052) can0 18A#C594004706
(1790244141.569022) can0 28A#0000000000000000
(1790244141.569406) can0 18A#C594004706
(1790244141.579844) can0 18A#C594004706
(1790244141.589422) can0 38A#000005
(1790244141.590319) can0 28A#0000000000000000
(1790244141.590976) can0 18A#C594004706
(1790244141.599345) can0 18A#C594004706
(1790244141.609746) can0 28A#0000000000000000
(1790244141.610510) can0 18A#C594004706
(1790244141.619141) can0 18A#C594004706
(1790244141.629211) can0 28A#0000000000000000
(1790244141.629715) can0 18A#C594004706
(1790244141.639570) can0 38A#000005
(1790244141.640177) can0 18A#C594004706
(1790244141.649298) can0 28A#0000000000000000
(1790244141.649783) can0 18A#C594004706
(1790244141.659294) can0 18A#C594004706
(1790244141.669713) can0 28A#0000000000000000
(1790244141.670335) can0 18A#C594004706
(1790244141.679288) can0 18A#C594004706
(1790244141.689295) can0 38A#000005
(1790244141.690017) can0 28A#0000000000000000
(1790244141.690703) can0 18A#C594004706
(1790244141.699655) can0 18A#C594004706
(1790244141.709319) can0 28A#0000000000000000
(1790244141.709700) can0 18A#C594004706
(1790244141.719219) can0 18A#C594004706
(1790244141.729801) can0 28A#0000000000000000
(1790244141.730785) can0 18A#C594004706
(1790244141.740184) can0 38A#000005
(1790244141.740749) can0 18A#C594004706
(1790244141.749423) can0 28A#0000000000000000
(1790244141.749795) can0 18A#C594004706
(1790244141.759750) can0 18A#C594004706
(1790244141.769488) can0 28A#0000000000000000
(1790244141.769900) can0 18A#C594004706
(1790244141.779469) can0 18A#C595004706
(1790244141.790113) can0 38A#000005
(1790244141.790643) can0 28A#0000000000000000
(1790244141.791010) can0 18A#C594004706
(1790244141.799402) can0 18A#C594004706
(1790244141.809677) can0 28A#0000000000000000
(1790244141.810128) can0 18A#C594004706
(1790244141.819781) can0 18A#C594004706
(1790244141.829564) can0 28A#0000000000000000
(1790244141.829964) can0 18A#C594004706
(1790244141.839624) can0 38A#000005
(1790244141.840547) can0 18A#C595004706
(1790244141.849896) can0 28A#0000000000000000
(1790244141.850244) can0 18A#C594004706
(1790244141.859564) can0 18A#C594004706
(1790244141.869638) can0 28A#0000000000000000
(1790244141.870032) can0 18A#C594004706
(1790244141.879972) can0 18A#C594004706
(1790244141.889663) can0 38A#000005
(1790244141.890609) can0 28A#0000000000000000
(1790244141.891152) can0 18A#C594004706
(1790244141.899690) can0 18A#C594004706
(1790244141.917402) can0 28A#0000000000000000
(1790244141.917903) can0 18A#C594004706
(1790244141.919616) can0 18A#C595004706
(1790244141.929837) can0 28A#0000000000000000
(1790244141.930429) can0 18A#C594004706
(1790244141.940673) can0 38A#000005
(1790244141.941387) can0 18A#C594004706
(1790244141.949884) can0 28A#0000000000000000
(1790244141.950320) can0 18A#C594004706
(1790244141.959817) can0 18A#C594004706
(1790244141.970117) can0 28A#0000000000000000
(1790244141.970468) can0 18A#C594004706
(1790244141.979821) can0 18A#C594004706
(1790244141.990062) can0 38A#000005
(1790244141.990783) can0 28A#0000000000000000
(1790244141.991237) can0 18A#C594004706
(1790244142.000149) can0 18A#C595004706
(1790244142.009979) can0 28A#0000000000000000
(1790244142.010459) can0 18A#C595004706
(1790244142.019911) can0 18A#C595004706
(1790244142.030325) can0 28A#0000000000000000
(1790244142.030783) can0 18A#C595004706
(1790244142.040164) can0 38A#000005
(1790244142.041435) can0 18A#C595004706
(1790244142.049961) can0 28A#0000000000000000
(1790244142.050507) can0 18A#C595004706
(1790244142.060290) can0 18A#C595004706
(1790244142.070086) can0 28A#0000000000000000
(1790244142.070887) can0 18A#C595004706
(1790244142.079918) can0 18A#C595004706
(1790244142.090287) can0 38A#000005
(1790244142.090706) can0 28A#0000000000000000
(1790244142.091074) can0 18A#C595004706
(1790244142.099772) can0 18A#C595004706
(1790244142.110004) can0 28A#0000000000000000
(1790244142.110474) can0 18A#C595004706
(1790244142.120456) can0 18A#C595004706
(1790244142.130226) can0 28A#0000000000000000
(1790244142.131579) can0 18A#C595004706
(1790244142.140038) can0 38A#000005
(1790244142.140888) can0 18A#C595004706
(1790244142.151703) can0 28A#0000000000000000
(1790244142.152405) can0 18A#C595004706
(1790244142.160105) can0 18A#C595004706
(1790244142.170187) can0 28A#0000000000000000
(1790244142.170804) can0 18A#C595004706
(1790244142.180474) can0 18A#C595004706
(1790244142.190004) can0 70A#05
(1790244142.190557) can0 38A#000005
(1790244142.191096) can0 28A#0000000000000000
(1790244142.200024) can0 18A#C595004706
(1790244142.210490) can0 28A#0000000000000000
(1790244142.211026) can0 18A#C595004706
(1790244142.220013) can0 18A#C595004706
(1790244142.230244) can0 28A#0000000000000000
(1790244142.230920) can0 18A#C595004706
(1790244142.240362) can0 38A#000005
(1790244142.240931) can0 18A#C595004706
(1790244142.249985) can0 28A#0000000000000000
(1790244142.250324) can0 18A#C595004706
(1790244142.259991) can0 18A#C595004706
(1790244142.270400) can0 28A#0000000000000000
(1790244142.270939) can0 18A#C595004706
(1790244142.280049) can0 18A#C596004706
(1790244142.290160) can0 38A#000005
(1790244142.291120) can0 28A#0000000000000000
(1790244142.291712) can0 18A#C596004706
(1790244142.300446) can0 18A#C596004706
(1790244142.310184) can0 28A#0000000000000000
(1790244142.310728) can0 18A#C596004706
(1790244142.319979) can0 18A#C596004706
(1790244142.330555) can0 28A#0000000000000000
(1790244142.331046) can0 18A#C596004706
(1790244142.340020) can0 38A#000005
(1790244142.340562) can0 18A#C596004706
(1790244142.350038) can0 28A#0000000000000000
(1790244142.350461) can0 18A#C596004706
(1790244142.360362) can0 18A#C596004706
(1790244142.370045) can0 28A#0000000000000000
(1790244142.370414) can0 18A#C596004706
(1790244142.379989) can0 18A#C596004706
(1790244142.390702) can0 38A#000005
(1790244142.391189) can0 28A#0000000000000000
(1790244142.391621) can0 18A#C596004706
(1790244142.400056) can0 18A#C596004706
(1790244142.410211) can0 28A#0000000000000000
(1790244142.410863) can0 18A#C596004706
(1790244142.420434) can0 18A#C596004706
(1790244142.430212) can0 28A#0000000000000000
(1790244142.430761) can0 18A#C596004706
(1790244142.440348) can0 38A#000005
(1790244142.441209) can0 18A#C596004706
(1790244142.450575) can0 28A#0000000000000000
(1790244142.451157) can0 18A#C596004706
(1790244142.460196) can0 18A#C596004706
(1790244142.470182) can0 28A#0000000000000000
(1790244142.470647) can0 18A#C596004706
(1790244142.480563) can0 18A#C596004706
(1790244142.490099) can0 38A#000005
(1790244142.490750) can0 28A#0000000000000000
(1790244142.491174) can0 18A#C596004706
(1790244142.500060) can0 18A#C596004706
(1790244142.510550) can0 28A#0000000000000000
(1790244142.510962) can0 18A#C596004706
(1790244142.520121) can0 18A#C596004706
(1790244142.530248) can0 28A#0000000000000000
(1790244142.530656) can0 18A#C596004706
(1790244142.540797) can0 38A#000005
(1790244142.541738) can0 18A#C597004706
(1790244142.550296) can0 28A#0000000000000000
(1790244142.550721) can0 18A#C597004706
(1790244142.560318) can0 18A#C597004706
(1790244142.570799) can0 28A#0000000000000000
(1790244142.573525) can0 18A#C597004706
(1790244142.580156) can0 18A#C597004706
(1790244142.590171) can0 38A#000005
(1790244142.591088) can0 28A#0000000000000000
(1790244142.591539) can0 18A#C597004706
(1790244142.600563) can0 18A#C597004706
(1790244142.610212) can0 28A#0000000000000000
(1790244142.610799) can0 18A#C597004706
(1790244142.620199) can0 18A#C597004706
(1790244142.630540) can0 28A#0000000000000000
(1790244142.630924) can0 18A#C597004706
(1790244142.640440) can0 38A#000005
(1790244142.641495) can0 18A#C597004706
(1790244142.650235) can0 28A#0000000000000000
(1790244142.650753) can0 18A#C597004706
(1790244142.660666) can0 18A#C597004706
(1790244142.670287) can0 28A#0000000000000000
(1790244142.670864) can0 18A#C597004706
(1790244142.680326) can0 18A#C597004706
(1790244142.690641) can0 38A#000005
(1790244142.691391) can0 28A#0000000000000000
(1790244142.691944) can0 18A#C597004706
(1790244142.700256) can0 18A#C597004706
(1790244142.710375) can0 28A#0000000000000000
(1790244142.710802) can0 18A#C597004706
(1790244142.720568) can0 18A#C597004706
(1790244142.730321) can0 28A#0000000000000000
(1790244142.730772) can0 18A#C597004706
(1790244142.740339) can0 38A#000005
(1790244142.741408) can0 18A#C597004706
(1790244142.750648) can0 28A#0000000000000000
(1790244142.750986) can0 18A#C597004706
(1790244142.760332) can0 18A#C597004706
(1790244142.770307) can0 28A#0000000000000000
(1790244142.770738) can0 18A#C597004706
(1790244142.780536) can0 18A#C597004706
(1790244142.790324) can0 38A#000005
(1790244142.791426) can0 28A#0000000000000000
(1790244142.791846) can0 18A#C597004706
(1790244142.800285) can0 18A#C597004706
(1790244142.810938) can0 28A#0000000000000000
(1790244142.811761) can0 18A#C598004706
(1790244142.820344) can0 18A#C598004706
(1790244142.830381) can0 28A#0000000000000000
(1790244142.830872) can0 18A#C598004706
(1790244142.840947) can0 38A#000005
(1790244142.841929) can0 18A#C598004706
(1790244142.850402) can0 28A#0000000000000000
(1790244142.850943) can0 18A#C598004706
(1790244142.860439) can0 18A#C598004706
(1790244142.870866) can0 28A#0000000000000000
(1790244142.871825) can0 18A#C598004706
(1790244142.880473) can0 18A#C598004706
(1790244142.890448) can0 38A#000005
(1790244142.891458) can0 28A#0000000000000000
(1790244142.891835) can0 18A#C598004706
(1790244142.900596) can0 18A#C599004706
(1790244142.910346) can0 28A#0000000000000000
(1790244142.910683) can0 18A#C599004706
(1790244142.920290) can0 18A#C598004706
(1790244142.930774) can0 28A#0000000000000000
(1790244142.931195) can0 18A#C598004706
(1790244142.940420) can0 38A#000005
(1790244142.941396) can0 18A#C598004706
(1790244142.950432) can0 28A#0000000000000000
(1790244142.950841) can0 18A#C598004706
(1790244142.960785) can0 18A#C598004706
(1790244142.970423) can0 28A#0000000000000000
(1790244142.970804) can0 18A#C598004706
(1790244142.980482) can0 18A#C598004706
(1790244142.991228) can0 38A#000005
(1790244142.991724) can0 28A#0000000000000000
(1790244142.992058) can0 18A#C598004706
(1790244143.000366) can0 18A#C598004706
(1790244143.010722) can0 28A#0000000000000000
(1790244143.011363) can0 18A#C598004706
(1790244143.020728) can0 18A#C598004706
(1790244143.030498) can0 28A#0000000000000000
(1790244143.031021) can0 18A#C598004706
(1790244143.040486) can0 38A#000005
(1790244143.041444) can0 18A#C598004706
(1790244143.050824) can0 28A#0000000000000000
(1790244143.051711) can0 18A#C598004706
(1790244143.061627) can0 18A#C598004706
(1790244143.071409) can0 28A#0000000000000000
(1790244143.073048) can0 18A#C599004706
(1790244143.081187) can0 18A#C599004706
(1790244143.090508) can0 38A#000005
(1790244143.091184) can0 28A#0000000000000000
(1790244143.091834) can0 18A#C599004706
(1790244143.100368) can0 18A#C599004706
(1790244143.110889) can0 28A#0000000000000000
(1790244143.111445) can0 18A#C599004706
(1790244143.121209) can0 18A#C599004706
(1790244143.130764) can0 28A#0000000000000000
(1790244143.132675) can0 18A#C599004706
(1790244143.141100) can0 38A#000005
(1790244143.143596) can0 18A#C59A004706
(1790244143.150425) can0 28A#0000000000000000
(1790244143.151418) can0 18A#C59A004706
(1790244143.160470) can0 18A#C59A004706
(1790244143.170769) can0 28A#0000000000000000
(1790244143.171614) can0 18A#C59A004706
(1790244143.180548) can0 18A#C59A004706
(1790244143.190314) can0 70A#05
(1790244143.191124) can0 38A#000005
(1790244143.192131) can0 28A#0000000000000000
(1790244143.201071) can0 18A#C59A004706
(1790244143.210746) can0 28A#0000000000000000
(1790244143.212627) can0 18A#C59A004706
(1790244143.220376) can0 18A#C59A004706
(1790244143.232314) can0 28A#0000000000000000
(1790244143.236146) can0 18A#C59A004706
(1790244143.240510) can0 38A#000005
(1790244143.241066) can0 18A#C59A004706
(1790244143.250300) can0 28A#0000000000000000
(1790244143.250649) can0 18A#C59A004706
(1790244143.260631) can0 18A#C59A004706
(1790244143.270351) can0 28A#0000000000000000
(1790244143.270939) can0 18A#C59A004706
(1790244143.280340) can0 18A#C59A004706
(1790244143.290691) can0 38A#000005
(1790244143.291643) can0 28A#0000000000000000
(1790244143.292278) can0 18A#C59A004706
(1790244143.300297) can0 18A#C59A004706
(1790244143.310477) can0 28A#0000000000000000
(1790244143.311386) can0 18A#C59A004706
(1790244143.320472) can0 18A#C59A004706
(1790244143.330310) can0 28A#0000000000000000
(1790244143.330737) can0 18A#C59A004706
(1790244143.340370) can0 38A#000005
(1790244143.341335) can0 18A#C59A004706
(1790244143.350729) can0 28A#0000000000000000
(1790244143.351393) can0 18A#C59A004706
(1790244143.360363) can0 18A#C59A004706
(1790244143.370235) can0 28A#0000000000000000
(1790244143.370604) can0 18A#C59A004706
(1790244143.380554) can0 18A#C59A004706
(1790244143.390466) can0 38A#000005
(1790244143.391898) can0 28A#0000000000000000
(1790244143.392598) can0 18A#C59A004706
(1790244143.400256) can0 18A#C59B004706
(1790244143.410618) can0 28A#0000000000000000
(1790244143.411151) can0 18A#C59B004706
(1790244143.420150) can0 18A#C59B004706
(1790244143.430110) can0 28A#0000000000000000
(1790244143.430490) can0 18A#C59B004706
(1790244143.440552) can0 38A#000005
(1790244143.441193) can0 18A#C59B004706
(1790244143.450128) can0 28A#0000000000000000
(1790244143.450522) can0 18A#C59B004706
(1790244143.460174) can0 18A#C59B004706
(1790244143.470560) can0 28A#0000000000000000
(1790244143.471171) can0 18A#C59B004706
(1790244143.480288) can0 18A#C59B004706
(1790244143.490449) can0 38A#000005
(1790244143.491338) can0 28A#0000000000000000
(1790244143.491746) can0 18A#C59B004706
(1790244143.500429) can0 18A#C59B004706
(1790244143.510172) can0 28A#0000000000000000
(1790244143.510566) can0 18A#C59B004706
(1790244143.521963) can0 18A#C59B004706
(1790244143.531546) can0 28A#0000000000000000
(1790244143.535422) can0 18A#C59B004706
(1790244143.540106) can0 38A#000005
(1790244143.540947) can0 18A#C59B004706
(1790244143.550082) can0 28A#0000000000000000
(1790244143.550437) can0 18A#C59B004706
(1790244143.560468) can0 18A#C59B004706
(1790244143.570148) can0 28A#0000000000000000
(1790244143.570651) can0 18A#C59B004706
(1790244143.580093) can0 18A#C59B004706
(1790244143.590550) can0 38A#000005
(1790244143.591114) can0 28A#0000000000000000
(1790244143.591504) can0 18A#C59B004706
(1790244143.600054) can0 18A#C59B004706
(1790244143.610155) can0 28A#0000000000000000
(1790244143.610660) can0 18A#C59B004706
(1790244143.620354) can0 18A#C59B004706
(1790244143.630091) can0 28A#0000000000000000
(1790244143.630492) can0 18A#C59B004706
(1790244143.640135) can0 38A#000005
(1790244143.641104) can0 18A#C59B004706
(1790244143.650491) can0 28A#0000000000000000
(1790244143.651079) can0 18A#C59C004706
(1790244143.660172) can0 18A#C59C004706
(1790244143.670132) can0 28A#0000000000000000
(1790244143.670775) can0 18A#C59C004706
(1790244143.680423) can0 18A#C59C004706
(1790244143.691126) can0 38A#000005
(1790244143.692044) can0 28A#0000000000000000
(1790244143.694560) can0 18A#C59C004706
(1790244143.699868) can0 18A#C59C004706
(1790244143.710319) can0 28A#0000000000000000
(1790244143.710778) can0 18A#C59B004706
(1790244143.719897) can0 18A#C59C004706
(1790244143.730088) can0 28A#0000000000000000
(1790244143.730623) can0 18A#C59C004706
(1790244143.740407) can0 38A#000005
(1790244143.741101) can0 18A#C59C004706
(1790244143.749989) can0 28A#0000000000000000
(1790244143.750311) can0 18A#C59C004706
(1790244143.760052) can0 18A#C59C004706
(1790244143.770732) can0 28A#0000000000000000
(1790244143.771389) can0 18A#C59C004706
(1790244143.779917) can0 18A#C59C004706
(1790244143.790002) can0 38A#000005
(1790244143.790610) can0 28A#0000000000000000
(1790244143.791004) can0 18A#C59C004706
(1790244143.800228) can0 18A#C59C004706
(1790244143.810011) can0 28A#0000000000000000
(1790244143.810400) can0 18A#C59C004706
(1790244143.819877) can0 18A#C59C004706
(1790244143.830318) can0 28A#0000000000000000
(1790244143.830724) can0 18A#C59C004706
(1790244143.839962) can0 38A#000005
(1790244143.840923) can0 18A#C59C004706
(1790244143.850005) can0 28A#0000000000000000
(1790244143.850497) can0 18A#C59C004706
(1790244143.860234) can0 18A#C59C004706
(1790244143.869979) can0 28A#0000000000000000
(1790244143.870397) can0 18A#C59C004706
(1790244143.879924) can0 18A#C59C004706
(1790244143.890214) can0 38A#000005
(1790244143.890986) can0 28A#0000000000000000
(1790244143.891494) can0 18A#C59C004706
(1790244143.899828) can0 18A#C59C004706
(1790244143.910021) can0 28A#0000000000000000
(1790244143.910483) can0 18A#C59C004706
(1790244143.920207) can0 18A#C59D004706
(1790244143.930019) can0 28A#0000000000000000
(1790244143.930501) can0 18A#C59D004706
(1790244143.939882) can0 38A#000005
(1790244143.940407) can0 18A#C59D004706
(1790244143.950190) can0 28A#0000000000000000
(1790244143.950540) can0 18A#C59D004706
(1790244143.959825) can0 18A#C59D004706
(1790244143.969821) can0 28A#0000000000000000
(1790244143.970475) can0 18A#C59D004706
(1790244143.980106) can0 18A#C59D004706
(1790244143.989919) can0 38A#000005
(1790244143.991132) can0 28A#0000000000000000
(1790244143.993219) can0 18A#C59D004706
(1790244143.999741) can0 18A#C59D004706
(1790244144.010243) can0 28A#0000000000000000
(1790244144.010705) can0 18A#C59D004706
(1790244144.019771) can0 18A#C59D004706
(1790244144.029894) can0 28A#0000000000000000
(1790244144.030403) can0 18A#C59D004706
(1790244144.040655) can0 38A#000005
(1790244144.041670) can0 18A#C59D004706
(1790244144.049894) can0 28A#0000000000000000
(1790244144.050427) can0 18A#C59D004706
(1790244144.059793) can0 18A#C59D004706
(1790244144.070096) can0 28A#0000000000000000
(1790244144.070551) can0 18A#C59D004706
(1790244144.079723) can0 18A#C59D004706
(1790244144.089954) can0 38A#000005
(1790244144.091123) can0 28A#0000000000000000
(1790244144.091701) can0 18A#C59D004706
(1790244144.099958) can0 18A#C59D004706
(1790244144.109692) can0 28A#0000000000000000
(1790244144.110040) can0 18A#C59D004706
(1790244144.119530) can0 18A#C59D004706
(1790244144.130100) can0 28A#0000000000000000
(1790244144.130558) can0 18A#C59D004706
(1790244144.139666) can0 38A#000005
(1790244144.140540) can0 18A#C59D004706
(1790244144.149646) can0 28A#0000000000000000
(1790244144.150018) can0 18A#C59D004706
(1790244144.159876) can0 18A#C59E004706
(1790244144.169613) can0 28A#0000000000000000
(1790244144.169940) can0 18A#C59E004706
(1790244144.179541) can0 18A#C59E004706
(1790244144.189953) can0 70A#05
(1790244144.191199) can0 38A#000005
(1790244144.191877) can0 28A#0000000000000000
(1790244144.199438) can0 18A#C59E004706
(1790244144.209648) can0 28A#0000000000000000
(1790244144.210214) can0 18A#C59E004706
(1790244144.219740) can0 18A#C59E004706
(1790244144.229405) can0 28A#0000000000000000
(1790244144.229827) can0 18A#C59E004706
(1790244144.239316) can0 38A#000005
(1790244144.239997) can0 18A#C59E004706
(1790244144.249721) can0 28A#0000000000000000
(1790244144.250072) can0 18A#C59E004706
(1790244144.259384) can0 18A#C59E004706
(1790244144.269521) can0 28A#0000000000000000
(1790244144.270095) can0 18A#C59E004706
(1790244144.279712) can0 18A#C59E004706
(1790244144.289730) can0 38A#000005
(1790244144.291341) can0 28A#0000000000000000
(1790244144.291961) can0 18A#C59E004706
(1790244144.299493) can0 18A#C59E004706
(1790244144.309818) can0 28A#0000000000000000
(1790244144.310416) can0 18A#C59E004706
(1790244144.319283) can0 18A#C59E004706
(1790244144.329341) can0 28A#0000000000000000
(1790244144.329759) can0 18A#C59E004706
(1790244144.339617) can0 38A#000005
(1790244144.340450) can0 18A#C59E004706
(1790244144.349291) can0 28A#0000000000000000
(1790244144.349851) can0 18A#C59E004706
(1790244144.359296) can0 18A#C59E004706
(1790244144.369571) can0 28A#0000000000000000
(1790244144.369992) can0 18A#C59E004706
(1790244144.379227) can0 18A#C59E004706
(1790244144.389441) can0 38A#000005
(1790244144.390558) can0 28A#0000000000000000
(1790244144.390977) can0 18A#C59E004706
(1790244144.399496) can0 18A#C59E004706
(1790244144.409467) can0 28A#0000000000000000
(1790244144.410431) can0 18A#C59E004706
(1790244144.419170) can0 18A#C59F004706
(1790244144.429541) can0 28A#0000000000000000
(1790244144.429971) can0 18A#C59F004706
(1790244144.439020) can0 38A#000005
(1790244144.439963) can0 18A#C59F004706
(1790244144.449145) can0 28A#0000000000000000
(1790244144.449651) can0 18A#C59F004706
(1790244144.459515) can0 18A#C59F004706
(1790244144.469088) can0 28A#0000000000000000
(1790244144.469595) can0 18A#C59F004706
(1790244144.478916) can0 18A#C59F004706
(1790244144.489796) can0 38A#000005
(1790244144.490258) can0 28A#0000000000000000
(1790244144.490625) can0 18A#C59F004706
(1790244144.498910) can0 18A#C59F004706
(1790244144.509074) can0 28A#0000000000000000
(1790244144.509537) can0 18A#C59F004706
(1790244144.519319) can0 18A#C59F004706
(1790244144.529107) can0 28A#0000000000000000
(1790244144.529586) can0 18A#C59F004706
(1790244144.538855) can0 38A#000005
(1790244144.539635) can0 18A#C59F004706
(1790244144.549263) can0 28A#0000000000000000
(1790244144.549675) can0 18A#C59F004706
(1790244144.558926) can0 18A#C59F004706
(1790244144.569010) can0 28A#0000000000000000
(1790244144.569697) can0 18A#C59F004706
(1790244144.579291) can0 18A#C59F004706
(1790244144.588942) can0 38A#000005
(1790244144.591071) can0 28A#0000000000000000
(1790244144.591731) can0 18A#C59F004706
(1790244144.599034) can0 18A#C59F004706
(1790244144.609209) can0 28A#0000000000000000
(1790244144.609685) can0 18A#C59F004706
(1790244144.618750) can0 18A#C59F004706
(1790244144.628823) can0 28A#0000000000000000
(1790244144.629289) can0 18A#C59F004706
(1790244144.639172) can0 38A#000005
(1790244144.640454) can0 18A#C59F004706
(1790244144.648789) can0 28A#0000000000000000
(1790244144.649284) can0 18A#C59F004706
(1790244144.658775) can0 18A#C59F004706
(1790244144.669135) can0 28A#0000000000000000
(1790244144.669644) can0 18A#C59F004706
(1790244144.678716) can0 18A#C59F004706
(1790244144.688889) can0 38A#000005
(1790244144.690772) can0 28A#0000000000000000
(1790244144.691411) can0 18A#C5A0004706
(1790244144.698988) can0 18A#C5A0004706
(1790244144.708787) can0 28A#0000000000000000
(1790244144.709196) can0 18A#C5A0004706
(1790244144.718581) can0 18A#C5A0004706
(1790244144.729119) can0 28A#0000000000000000
(1790244144.729681) can0 18A#C5A0004706
(1790244144.738792) can0 38A#000005
(1790244144.740208) can0 18A#C5A0004706
(1790244144.748567) can0 28A#0000000000000000
(1790244144.748951) can0 18A#C5A0004706
(1790244144.758856) can0 18A#C5A0004706
(1790244144.768521) can0 28A#0000000000000000
(1790244144.769101) can0 18A#C5A0004706
(1790244144.778550) can0 18A#C5A0004706
(1790244144.789024) can0 38A#000005
(1790244144.790565) can0 28A#0000000000000000
(1790244144.791191) can0 18A#C5A0004706
(1790244144.798739) can0 18A#C5A0004706
(1790244144.808708) can0 28A#0000000000000000
(1790244144.809421) can0 18A#C5A0004706
(1790244144.818877) can0 18A#C5A0004706
(1790244144.828609) can0 28A#0000000000000000
(1790244144.829088) can0 18A#C5A0004706
(1790244144.838323) can0 38A#000005
(1790244144.839188) can0 18A#C5A0004706
(1790244144.848879) can0 28A#0000000000000000
(1790244144.849554) can0 18A#C5A0004706
(1790244144.858602) can0 18A#C5A0004706
(1790244144.868586) can0 28A#0000000000000000
(1790244144.869628) can0 18A#C5A0004706
(1790244144.878725) can0 18A#C5A0004706
(1790244144.888237) can0 38A#000005
(1790244144.888884) can0 28A#0000000000000000
(1790244144.889614) can0 18A#C5A0004706
(1790244144.898470) can0 18A#C5A0004706
(1790244144.908836) can0 28A#0000000000000000
(1790244144.909313) can0 18A#C5A0004706
(1790244144.918332) can0 18A#C5A0004706
(1790244144.928399) can0 28A#0000000000000000
(1790244144.928983) can0 18A#C5A0004706
(1790244144.938748) can0 38A#000005
(1790244144.939838) can0 18A#C5A0004706
(1790244144.948369) can0 28A#0000000000000000
(1790244144.948945) can0 18A#C5A0004706
(1790244144.958454) can0 18A#C5A0004706
(1790244144.968668) can0 28A#0000000000000000
(1790244144.969210) can0 18A#C5A0004706
(1790244144.978167) can0 18A#C5A1004706
(1790244144.988148) can0 38A#000005
(1790244144.988984) can0 28A#0000000000000000
(1790244144.989411) can0 18A#C5A1004706
(1790244144.998460) can0 18A#C5A1004706
(1790244145.008241) can0 28A#0000000000000000
(1790244145.008655) can0 18A#C5A1004706
(1790244145.018220) can0 18A#C5A1004706
(1790244145.028468) can0 28A#0000000000000000
(1790244145.028892) can0 18A#C5A1004706
(1790244145.037946) can0 38A#000005
(1790244145.038901) can0 18A#C5A1004706
(1790244145.048089) can0 28A#0000000000000000
(1790244145.048628) can0 18A#C5A1004706
(1790244145.058389) can0 18A#C5A1004706
(1790244145.068011) can0 28A#0000000000000000
(1790244145.068386) can0 18A#C5A1004706
(1790244145.077936) can0 18A#C5A1004706
(1790244145.088331) can0 38A#000005
(1790244145.089659) can0 28A#0000000000000000
(1790244145.090247) can0 18A#C5A1004706
(1790244145.098293) can0 18A#C5A1004706
(1790244145.107964) can0 28A#0000000000000000
(1790244145.108371) can0 18A#C5A1004706
(1790244145.118140) can0 18A#C5A1004706
(1790244145.127977) can0 28A#0000000000000000
(1790244145.128670) can0 18A#C5A1004706
(1790244145.137695) can0 38A#000005
(1790244145.138762) can0 18A#C5A1004706
(1790244145.148193) can0 28A#0000000000000000
(1790244145.148641) can0 18A#C5A1004706
(1790244145.157875) can0 18A#C5A1004706
(1790244145.167751) can0 28A#0000000000000000
(1790244145.168110) can0 18A#C5A1004706
(1790244145.178045) can0 18A#C5A1004706
(1790244145.187507) can0 70A#05
(1790244145.187964) can0 38A#000005
(1790244145.188456) can0 28A#0000000000000000
(1790244145.197568) can0 18A#C5A1004706
(1790244145.208055) can0 28A#0000000000000000
(1790244145.208467) can0 18A#C5A1004706
(1790244145.217546) can0 18A#C5A1004706
(1790244145.227718) can0 28A#0000000000000000
(1790244145.228310) can0 18A#C5A1004706
(1790244145.238328) can0 38A#000005
(1790244145.240443) can0 18A#C5A2004706
(1790244145.247569) can0 28A#0000000000000000
(1790244145.248006) can0 18A#C5A2004706
(1790244145.257556) can0 18A#C5A2004706
(1790244145.267979) can0 28A#0000000000000000
(1790244145.268558) can0 18A#C5A2004706
(1790244145.277488) can0 18A#C5A2004706
(1790244145.287403) can0 38A#000005
(1790244145.288151) can0 28A#0000000000000000
(1790244145.288898) can0 18A#C5A2004706
(1790244145.297671) can0 18A#C5A2004706
(1790244145.307384) can0 28A#0000000000000000
(1790244145.307792) can0 18A#C5A2004706
(1790244145.317301) can0 18A#C5A2004706
(1790244145.327674) can0 28A#0000000000000000
(1790244145.328121) can0 18A#C5A2004706
(1790244145.337279) can0 38A#000005
(1790244145.338375) can0 18A#C5A2004706
(1790244145.347432) can0 28A#0000000000000000
(1790244145.348150) can0 18A#C5A2004706
(1790244145.357630) can0 18A#C5A2004706
(1790244145.367326) can0 28A#0000000000000000
(1790244145.368051) can0 18A#C5A2004706
(1790244145.377312) can0 18A#C5A2004706
(1790244145.387970) can0 38A#000005
(1790244145.389642) can0 28A#0000000000000000
(1790244145.390306) can0 18A#C5A2004706
(1790244145.397133) can0 18A#C5A2004706
(1790244145.407396) can0 28A#0000000000000000
(1790244145.408583) can0 18A#C5A2004706
(1790244145.417483) can0 18A#C5A2004706
(1790244145.427217) can0 28A#0000000000000000
(1790244145.427725) can0 18A#C5A2004706
(1790244145.436982) can0 38A#000005
(1790244145.438503) can0 18A#C5A2004706
(1790244145.447317) can0 28A#0000000000000000
(1790244145.447694) can0 18A#C5A2004706
(1790244145.457111) can0 18A#C5A2004706
(1790244145.466996) can0 28A#0000000000000000
(1790244145.467420) can0 18A#C5A2004706
(1790244145.477282) can0 18A#C5A2004706
(1790244145.486902) can0 38A#000005
(1790244145.487974) can0 28A#0000000000000000
(1790244145.488475) can0 18A#C5A2004706
(1790244145.496839) can0 18A#C5A3004706
(1790244145.507358) can0 28A#0000000000000000
(1790244145.507819) can0 18A#C5A3004706
(1790244145.516744) can0 18A#C5A3004706
(1790244145.526812) can0 28A#0000000000000000
(1790244145.527155) can0 18A#C5A3004706
(1790244145.537183) can0 38A#000005
(1790244145.538031) can0 18A#C5A3004706
(1790244145.546860) can0 28A#0000000000000000
(1790244145.547317) can0 18A#C5A3004706
(1790244145.556665) can0 18A#C5A3004706
(1790244145.567048) can0 28A#0000000000000000
(1790244145.567473) can0 18A#C5A3004706
(1790244145.576607) can0 18A#C5A3004706
(1790244145.586785) can0 38A#000005
(1790244145.588179) can0 28A#0000000000000000
(1790244145.588788) can0 18A#C5A3004706
(1790244145.597098) can0 18A#C5A3004706
(1790244145.606727) can0 28A#0000000000000000
(1790244145.607315) can0 18A#C5A3004706
(1790244145.618203) can0 18A#C5A3004706
(1790244145.628527) can0 28A#0000000000000000
(1790244145.628942) can0 18A#C5A3004706
(1790244145.636398) can0 38A#000005
(1790244145.636884) can0 18A#C5A3004706
(1790244145.646608) can0 28A#0000000000000000
(1790244145.647075) can0 18A#C5A3004706
(1790244145.656996) can0 18A#C5A3004706
(1790244145.666490) can0 28A#0000000000000000
(1790244145.666909) can0 18A#C5A3004706
(1790244145.676470) can0 18A#C5A3004706
(1790244145.686847) can0 38A#000005
(1790244145.687563) can0 28A#0000000000000000
(1790244145.688204) can0 18A#C5A3004706
(1790244145.696433) can0 18A#C5A3004706
(1790244145.706385) can0 28A#0000000000000000
(1790244145.706820) can0 18A#C5A3004706
(1790244145.716645) can0 18A#C5A3004706
(1790244145.726660) can0 28A#0000000000000000
(1790244145.727173) can0 18A#C5A3004706
(1790244145.736220) can0 38A#000005
(1790244145.736941) can0 18A#C5A3004706
(1790244145.746729) can0 28A#0000000000000000
(1790244145.747255) can0 18A#C5A3004706
(1790244145.756389) can0 18A#C5A4004706
(1790244145.767215) can0 28A#0000000000000000
(1790244145.767752) can0 18A#C5A4004706
(1790244145.776608) can0 18A#C5A4004706
(1790244145.786244) can0 38A#000005
(1790244145.787036) can0 28A#0000000000000000
(1790244145.787591) can0 18A#C5A4004706
(1790244145.796284) can0 18A#C5A4004706
(1790244145.806638) can0 28A#0000000000000000
(1790244145.807227) can0 18A#C5A4004706
(1790244145.816093) can0 18A#C5A4004706
(1790244145.826128) can0 28A#0000000000000000
(1790244145.826669) can0 18A#C5A4004706
(1790244145.836365) can0 38A#000005
(1790244145.836961) can0 18A#C5A4004706
(1790244145.845957) can0 28A#0000000000000000
(1790244145.846257) can0 18A#C5A4004706
(1790244145.855959) can0 18A#C5A4004706
(1790244145.866342) can0 28A#0000000000000000
(1790244145.866789) can0 18A#C5A4004706
(1790244145.875977) can0 18A#C5A4004706
(1790244145.885787) can0 38A#000005
(1790244145.886392) can0 28A#0000000000000000
(1790244145.887279) can0 18A#C5A4004706
(1790244145.896165) can0 18A#C5A4004706
(1790244145.905928) can0 28A#0000000000000000
(1790244145.906408) can0 18A#C5A4004706
(1790244145.915749) can0 18A#C5A4004706
(1790244145.926188) can0 28A#0000000000000000
(1790244145.926601) can0 18A#C5A4004706
(1790244145.935616) can0 38A#000005
(1790244145.936272) can0 18A#C5A4004706
(1790244145.945774) can0 28A#0000000000000000
(1790244145.946161) can0 18A#C5A4004706
(1790244145.956209) can0 18A#C5A4004706
(1790244145.965668) can0 28A#0000000000000000
(1790244145.966034) can0 18A#C5A4004706
(1790244145.975689) can0 18A#C5A4004706
(1790244145.986082) can0 38A#000005
(1790244145.986865) can0 28A#0000000000000000
(1790244145.987281) can0 18A#C5A4004706
(1790244145.995562) can0 18A#C5A4004706
(1790244146.005967) can0 28A#0000000000000000
(1790244146.006687) can0 18A#C5A4004706
(1790244146.016727) can0 18A#C5A4004706
(1790244146.025831) can0 28A#0000000000000000
(1790244146.026742) can0 18A#C5A4004706
(1790244146.035736) can0 38A#000005
(1790244146.036705) can0 18A#C5A4004706
(1790244146.046974) can0 28A#0000000000000000
(1790244146.050834) can0 18A#C5A5004706
(1790244146.055615) can0 18A#C5A5004706
(1790244146.067399) can0 28A#0000000000000000
(1790244146.069145) can0 18A#C5A5004706
(1790244146.076885) can0 18A#C5A5004706
(1790244146.085841) can0 38A#000005
(1790244146.087075) can0 28A#0000000000000000
(1790244146.087892) can0 18A#C5A5004706
(1790244146.095738) can0 18A#C5A5004706
(1790244146.105956) can0 28A#0000000000000000
(1790244146.106606) can0 18A#C5A5004706
(1790244146.115321) can0 18A#C5A5004706
(1790244146.125713) can0 28A#0000000000000000
(1790244146.126456) can0 18A#C5A5004706
(1790244146.135667) can0 38A#000005
(1790244146.136457) can0 18A#C5A5004706
(1790244146.145953) can0 28A#0000000000000000
(1790244146.146511) can0 18A#C5A5004706
(1790244146.155083) can0 18A#C5A5004706
(1790244146.165363) can0 28A#0000000000000000
(1790244146.165684) can0 18A#C5A5004706
(1790244146.174954) can0 18A#C5A5004706
(1790244146.184833) can0 70A#05
(1790244146.185352) can0 38A#000005
(1790244146.186206) can0 28A#0000000000000000
(1790244146.195272) can0 18A#C5A5004706
(1790244146.204970) can0 28A#0000000000000000
(1790244146.205370) can0 18A#C5A5004706
(1790244146.214849) can0 18A#C5A5004706
(1790244146.225266) can0 28A#0000000000000000
(1790244146.225677) can0 18A#C5A5004706
(1790244146.235071) can0 38A#000005
(1790244146.236373) can0 18A#C5A5004706
(1790244146.244885) can0 28A#0000000000000000
(1790244146.245381) can0 18A#C5A5004706
(1790244146.255115) can0 18A#C5A5004706
(1790244146.264771) can0 28A#0000000000000000
(1790244146.265189) can0 18A#C5A5004706
(1790244146.274608) can0 18A#C5A5004706
(1790244146.285090) can0 38A#000005
(1790244146.286012) can0 28A#0000000000000000
(1790244146.286608) can0 18A#C5A5004706
(1790244146.294556) can0 18A#C5A5004706
(1790244146.304731) can0 28A#0000000000000000
(1790244146.305289) can0 18A#C5A5004706
(1790244146.314937) can0 18A#C5A5004706
(1790244146.324628) can0 28A#0000000000000000
(1790244146.325206) can0 18A#C5A6004706
(1790244146.334473) can0 38A#000005
(1790244146.335832) can0 18A#C5A6004706
(1790244146.344931) can0 28A#0000000000000000
(1790244146.345737) can0 18A#C5A6004706
(1790244146.354533) can0 18A#C5A6004706
(1790244146.364838) can0 28A#0000000000000000
(1790244146.365667) can0 18A#C5A6004706
(1790244146.374799) can0 18A#C5A6004706
(1790244146.384313) can0 38A#000005
(1790244146.385545) can0 28A#0000000000000000
(1790244146.386651) can0 18A#C5A6004706
(1790244146.394212) can0 18A#C5A6004706
(1790244146.404657) can0 28A#0000000000000000
(1790244146.405224) can0 18A#C5A6004706
(1790244146.414163) can0 18A#C5A6FF4706
(1790244146.424299) can0 28A#0000000000000000
(1790244146.424861) can0 18A#C5A6FF4706
(1790244146.434933) can0 38A#000005
(1790244146.436457) can0 18A#C5A6FF4706
(1790244146.444253) can0 28A#0000000000000000
(1790244146.444886) can0 18A#C5A6FF4706
(1790244146.454175) can0 18A#C5A6FF4706
(1790244146.464419) can0 28A#0000000000000000
(1790244146.464811) can0 18A#C5A6FF4706
(1790244146.474043) can0 18A#C5A6FF4706
(1790244146.483876) can0 38A#000005
(1790244146.484590) can0 28A#0000000000000000
(1790244146.485420) can0 18A#C5A6FF4706
(1790244146.494235) can0 18A#C5A6FF4706
(1790244146.504090) can0 28A#0000000000000000
(1790244146.504564) can0 18A#C5A6FF4706
(1790244146.513833) can0 18A#C5A6FF4706
(1790244146.524312) can0 28A#0000000000000000
(1790244146.524833) can0 18A#C5A6FF4706
(1790244146.533737) can0 38A#000005
(1790244146.534332) can0 18A#C5A6FF4706
(1790244146.543815) can0 28A#0000000000000000
(1790244146.544217) can0 18A#C5A6FF4706
(1790244146.554110) can0 18A#C5A6FF4706
(1790244146.563810) can0 28A#0000000000000000
(1790244146.564340) can0 18A#C5A6FF4706
(1790244146.574343) can0 18A#C6A6FF4706
(1790244146.583987) can0 38A#000005
(1790244146.584772) can0 28A#0000000000000000
(1790244146.585137) can0 18A#C6A7FE4706
(1790244146.593563) can0 18A#C6A7FD4706
(1790244146.603745) can0 28A#0000000000000000
(1790244146.604331) can0 18A#C6A7FD4706
(1790244146.613911) can0 18A#C7A7FD4706
(1790244146.623745) can0 28A#0000000000000000
(1790244146.624428) can0 18A#C7A7FC4706
(1790244146.633420) can0 38A#000005
(1790244146.634130) can0 18A#C7A7FC4706
(1790244146.643808) can0 28A#0000000000000000
(1790244146.644244) can0 18A#C7A7FC4706
(1790244146.653498) can0 18A#C7A7FB4706
(1790244146.663406) can0 28A#0000000000000000
(1790244146.663861) can0 18A#C7A7FB4706
(1790244146.673666) can0 18A#C7A8FB4706
(1790244146.683303) can0 38A#000005
(1790244146.684316) can0 28A#0000000000000000
(1790244146.685550) can0 18A#C7A8FB4706
(1790244146.693331) can0 18A#C7A8FB4706
(1790244146.703716) can0 28A#0000000000000000
(1790244146.704206) can0 18A#C7A8FB4706
(1790244146.713174) can0 18A#C7A8FB4706
(1790244146.723240) can0 28A#0000000000000000
(1790244146.723658) can0 18A#C7A8FB4706
(1790244146.733623) can0 38A#000005
(1790244146.734669) can0 18A#C7A8FB4706
(1790244146.743156) can0 28A#0000000000000000
(1790244146.743559) can0 18A#C7A8FB4706
(1790244146.753077) can0 18A#C7A8FB4706
(1790244146.763484) can0 28A#0000000000000000
(1790244146.763941) can0 18A#C7A8FB4706
(1790244146.773642) can0 18A#C7A8FB4706
(1790244146.782962) can0 38A#000005
(1790244146.784496) can0 28A#0000000000000000
(1790244146.785103) can0 18A#C7A8FB4706
(1790244146.793192) can0 18A#C7A8FB4706
(1790244146.802941) can0 28A#0000000000000000
(1790244146.803340) can0 18A#C7A8FB4706
(1790244146.812861) can0 18A#C7A8FB4706
(1790244146.823300) can0 28A#0000000000000000
(1790244146.823720) can0 18A#C7A8FB4706
(1790244146.832787) can0 38A#000005
(1790244146.833787) can0 18A#C7A7FB4706
(1790244146.842848) can0 28A#0000000000000000
(1790244146.843430) can0 18A#C8A7FA4706
(1790244146.853284) can0 18A#C8A8FA4706
(1790244146.862817) can0 28A#0000000000000000
(1790244146.863411) can0 18A#C8A8FA4706
(1790244146.872741) can0 18A#C8A8F94706
(1790244146.883278) can0 38A#000005
(1790244146.885440) can0 28A#0000000000000000
(1790244146.886181) can0 18A#C8A8F94706
(1790244146.892725) can0 18A#C8A8F94706
(1790244146.902729) can0 28A#0000000000000000
(1790244146.903373) can0 18A#C8A8F94706
(1790244146.912818) can0 18A#C9A8F84706
(1790244146.922503) can0 28A#0000000000000000
(1790244146.922987) can0 18A#C9A9F84706
(1790244146.932372) can0 38A#000005
(1790244146.933085) can0 18A#C9A9F74706
(1790244146.942869) can0 28A#0000000000000000
(1790244146.943212) can0 18A#C9A9F74706
(1790244146.952378) can0 18A#C9A9F74706
(1790244146.962398) can0 28A#0000000000000000
(1790244146.962877) can0 18A#C9A9F74706
(1790244146.972821) can0 18A#C9A9F74706
(1790244146.982385) can0 38A#000005
(1790244146.984414) can0 28A#0000000000000000
(1790244146.985412) can0 18A#C9A9F74706
(1790244146.992262) can0 18A#C9A9F74706
(1790244147.002751) can0 28A#0000000000000000
(1790244147.003460) can0 18A#C9A9F74706
(1790244147.012251) can0 18A#C9A9F74706
(1790244147.022357) can0 28A#0000000000000000
(1790244147.022974) can0 18A#C9A9F74706
(1790244147.032839) can0 38A#000005
(1790244147.033893) can0 18A#C9A9F74706
(1790244147.042169) can0 28A#0000000000000000
(1790244147.042850) can0 18A#C9A9F74706
(1790244147.052029) can0 18A#C9A9F74706
(1790244147.062422) can0 28A#0000000000000000
(1790244147.062971) can0 18A#C9A9F74706
(1790244147.071899) can0 18A#C9A9F74706
(1790244147.082127) can0 38A#000005
(1790244147.083676) can0 28A#0000000000000000
(1790244147.084888) can0 18A#C9A9F74706
(1790244147.092192) can0 18A#C9A9F74706
(1790244147.101986) can0 28A#0000000000000000
(1790244147.102509) can0 18A#C9A8F74706
(1790244147.111752) can0 18A#CAA8F74706
(1790244147.122141) can0 28A#0000000000000000
(1790244147.122505) can0 18A#CAA9F64706
(1790244147.131680) can0 38A#000005
(1790244147.132150) can0 18A#CAA9F64706
(1790244147.141831) can0 28A#0000000000000000
(1790244147.142211) can0 18A#CAA9F64706
(1790244147.152007) can0 18A#CAA9F64706
(1790244147.161606) can0 28A#0000000000000000
(1790244147.162001) can0 18A#CAA9F54706
(1790244147.171491) can0 18A#CAA9F54706
(1790244147.181715) can0 70A#05
(1790244147.182494) can0 38A#000005
(1790244147.183404) can0 28A#0000000000000000
(1790244147.191495) can0 18A#CBAAF54706
(1790244147.201467) can0 28A#0000000000000000
(1790244147.201861) can0 18A#CAAAF54706
(1790244147.211648) can0 18A#CAAAF54706
(1790244147.221502) can0 28A#0000000000000000
(1790244147.222028) can0 18A#CAAAF54706
(1790244147.231296) can0 38A#000005
(1790244147.233136) can0 18A#CAAAF54706
(1790244147.241727) can0 28A#0000000000000000
(1790244147.242341) can0 18A#CAAAF54706
(1790244147.251532) can0 18A#CAAAF54706
(1790244147.261216) can0 28A#0000000000000000
(1790244147.261604) can0 18A#CAAAF54706
(1790244147.271457) can0 18A#CAAAF54706
(1790244147.281125) can0 38A#000005
(1790244147.282324) can0 28A#0000000000000000
(1790244147.283330) can0 18A#CAAAF54706
(1790244147.291120) can0 18A#CAAAF54706
(1790244147.301946) can0 28A#0000000000000000
(1790244147.302707) can0 18A#CAAAF54706
(1790244147.311023) can0 18A#CAAAF54706
(1790244147.321105) can0 28A#0000000000000000
(1790244147.321620) can0 18A#CAAAF54706
(1790244147.331369) can0 38A#000005
(1790244147.332025) can0 18A#CAAAF54706
(1790244147.340861) can0 28A#0000000000000000
(1790244147.341249) can0 18A#CAAAF54706
(1790244147.350904) can0 18A#CAAAF54706
(1790244147.361500) can0 28A#0000000000000000
(1790244147.362161) can0 18A#CBAAF44706
(1790244147.370874) can0 18A#CBAAF44706
(1790244147.380936) can0 38A#000005
(1790244147.383209) can0 28A#0000000000000000
(1790244147.384097) can0 18A#CBA9F44706
(1790244147.391109) can0 18A#CBA9F34706
(1790244147.400803) can0 28A#0000000000000000
(1790244147.401442) can0 18A#CBAAF34706
(1790244147.410572) can0 18A#CBAAF34706
(1790244147.420985) can0 28A#0000000000000000
(1790244147.421557) can0 18A#CBAAF34706
(1790244147.430515) can0 38A#000005
(1790244147.432287) can0 18A#CCAAF24706
(1790244147.440624) can0 28A#0000000000000000
(1790244147.441351) can0 18A#CCAAF24706
(1790244147.450826) can0 18A#CCABF24706
(1790244147.460422) can0 28A#0000000000000000
(1790244147.460900) can0 18A#CCABF24706
(1790244147.470489) can0 18A#CCABF24706
(1790244147.480611) can0 38A#000005
(1790244147.482121) can0 28A#0000000000000000
(1790244147.482680) can0 18A#CCABF24706
(1790244147.490243) can0 18A#CCABF24706
(1790244147.500359) can0 28A#0000000000000000
(1790244147.501031) can0 18A#CCABF24706
(1790244147.510473) can0 18A#CCABF24706
(1790244147.520290) can0 28A#0000000000000000
(1790244147.520795) can0 18A#CCABF24706
(1790244147.530040) can0 38A#000005
(1790244147.530529) can0 18A#CCABF24706
(1790244147.540481) can0 28A#0000000000000000
(1790244147.540934) can0 18A#CCABF24706
(1790244147.550134) can0 18A#CCABF24706
(1790244147.560142) can0 28A#0000000000000000
(1790244147.561025) can0 18A#CCABF24706
(1790244147.570408) can0 18A#CCABF24706
(1790244147.580207) can0 38A#000005
(1790244147.582144) can0 28A#0000000000000000
(1790244147.582878) can0 18A#CCABF24706
(1790244147.589899) can0 18A#CCABF24706
(1790244147.600389) can0 28A#0000000000000000
(1790244147.601095) can0 18A#CCABF24706
(1790244147.609716) can0 18A#CCABF24706
(1790244147.619780) can0 28A#0000000000000000
(1790244147.620200) can0 18A#CCABF24706
(1790244147.629927) can0 38A#000005
(1790244147.630580) can0 18A#CCABF24706
(1790244147.639693) can0 28A#0000000000000000
(1790244147.640160) can0 18A#CCABF24706
(1790244147.652179) can0 18A#CDAAF14706
(1790244147.662161) can0 28A#0000000000000000
(1790244147.663645) can0 18A#CDAAF14706
(1790244147.669524) can0 18A#CDABF14706
(1790244147.679491) can0 38A#000005
(1790244147.680467) can0 28A#0000000000000000
(1790244147.682006) can0 18A#CDABF04706
(1790244147.690329) can0 18A#CDABF04706
(1790244147.699558) can0 28A#0000000000000000
(1790244147.700039) can0 18A#CDABF04706
(1790244147.709368) can0 18A#CDABF04706
(1790244147.719739) can0 28A#0000000000000000
(1790244147.720302) can0 18A#CDACF04706
(1790244147.729261) can0 38A#000005
(1790244147.730293) can0 18A#CEACEF4706
(1790244147.739300) can0 28A#0000000000000000
(1790244147.739862) can0 18A#CDACEF4706
(1790244147.749671) can0 18A#CDACF04706
(1790244147.759364) can0 28A#0000000000000000
(1790244147.760189) can0 18A#CDACF04706
(1790244147.769249) can0 18A#CDACF04706
(1790244147.779711) can0 38A#000005
(1790244147.780741) can0 28A#0000000000000000
(1790244147.781175) can0 18A#CDACF04706
(1790244147.789137) can0 18A#CDACF04706
(1790244147.799180) can0 28A#0000000000000000
(1790244147.799677) can0 18A#CDACF04706
(1790244147.809258) can0 18A#CDACF04706
(1790244147.819000) can0 28A#0000000000000000
(1790244147.819472) can0 18A#CDACF04706
(1790244147.828938) can0 38A#000005
(1790244147.830396) can0 18A#CDACF04706
(1790244147.839278) can0 28A#0000000000000000
(1790244147.839911) can0 18A#CDACF04706
(1790244147.848897) can0 18A#CDACF04706
(1790244147.858860) can0 28A#0000000000000000
(1790244147.859393) can0 18A#CDACF04706
(1790244147.869040) can0 18A#CDACF04706
(1790244147.878753) can0 38A#000005
(1790244147.880544) can0 28A#0000000000000000
(1790244147.881374) can0 18A#CDACF04706
(1790244147.888725) can0 18A#CDACF04706
(1790244147.899312) can0 28A#0000000000000000
(1790244147.900324) can0 18A#CEACEF4706
(1790244147.908702) can0 18A#CEACEF4706
(1790244147.918655) can0 28A#0000000000000000
(1790244147.919220) can0 18A#CEACEF4706
(1790244147.928811) can0 38A#000005
(1790244147.930750) can0 18A#CEABEF4706
(1790244147.938539) can0 28A#0000000000000000
(1790244147.939161) can0 18A#CEACEF4706
(1790244147.948469) can0 18A#CEACEE4706
(1790244147.958779) can0 28A#0000000000000000
(1790244147.959266) can0 18A#CEACEE4706
(1790244147.968358) can0 18A#CEACEE4706
(1790244147.978204) can0 38A#000005
(1790244147.978877) can0 28A#0000000000000000
(1790244147.979689) can0 18A#CEACEE4706
(1790244147.988466) can0 18A#CEADEF4706
(1790244147.998246) can0 28A#0000000000000000
(1790244147.998650) can0 18A#CFADEF4706
(1790244148.008101) can0 18A#CEADEF4706
(1790244148.018519) can0 28A#0000000000000000
(1790244148.019023) can0 18A#CEADEF4706
(1790244148.028001) can0 38A#000005
(1790244148.028720) can0 18A#CEADEF4706
(1790244148.038069) can0 28A#0000000000000000
(1790244148.038523) can0 18A#CEADEF4706
(1790244148.048332) can0 18A#CEADEF4706
(1790244148.057958) can0 28A#0000000000000000
(1790244148.058589) can0 18A#CEADEF4706
(1790244148.067851) can0 18A#CEADEF4706
(1790244148.078186) can0 38A#000005
(1790244148.079428) can0 28A#0000000000000000
(1790244148.080743) can0 18A#CEADEF4706
(1790244148.087841) can0 18A#CEADEF4706
(1790244148.098039) can0 28A#0000000000000000
(1790244148.098649) can0 18A#CEADEF4706
(1790244148.107991) can0 18A#CEADEF4706
(1790244148.117936) can0 28A#0000000000000000
(1790244148.124150) can0 18A#CEADEF4706
(1790244148.127517) can0 38A#000005
(1790244148.127915) can0 18A#CEADEF4706
(1790244148.137887) can0 28A#0000000000000000
(1790244148.138252) can0 18A#CEADEF4706
(1790244148.147549) can0 18A#CEADEF4706
(1790244148.157446) can0 28A#0000000000000000
(1790244148.157836) can0 18A#CFADEF4706
(1790244148.167800) can0 18A#CFADEF4706
(1790244148.177211) can0 70A#05
(1790244148.177536) can0 38A#000005
(1790244148.178183) can0 28A#0000000000000000
(1790244148.187301) can0 18A#CFADF04706
(1790244148.197735) can0 28A#0000000000000000
(1790244148.198361) can0 18A#CFADF04706
(1790244148.207222) can0 18A#CFADF04706
(1790244148.217235) can0 28A#0000000000000000
(1790244148.217720) can0 18A#CFADF04706
(1790244148.227375) can0 38A#000005
(1790244148.228070) can0 18A#CFADF04706
(1790244148.237079) can0 28A#0000000000000000
(1790244148.237427) can0 18A#CFADF14706
(1790244148.246970) can0 18A#D0AEF04706
(1790244148.257381) can0 28A#0000000000000000
(1790244148.257895) can0 18A#D0AEF04706
(1790244148.266868) can0 18A#D0AEF04706
(1790244148.276772) can0 38A#000005
(1790244148.277170) can0 28A#0000000000000000
(1790244148.277786) can0 18A#CFADF04706
(1790244148.287132) can0 18A#CFAEF14706
(1790244148.296915) can0 28A#0000000000000000
(1790244148.297396) can0 18A#D0AEF04706
(1790244148.306724) can0 18A#D0AEF04706
(1790244148.317111) can0 28A#0000000000000000
(1790244148.317842) can0 18A#CFAEF04706
(1790244148.326618) can0 38A#000005
(1790244148.327526) can0 18A#CFAEF04706
(1790244148.336669) can0 28A#0000000000000000
(1790244148.337142) can0 18A#D0AEF04706
(1790244148.346967) can0 18A#D0AEF04706
(1790244148.356658) can0 28A#0000000000000000
(1790244148.357415) can0 18A#D0AEF04706
(1790244148.366548) can0 18A#D0AEF04706
(1790244148.376891) can0 38A#000005
(1790244148.378731) can0 28A#0000000000000000
(1790244148.379575) can0 18A#D0AEF04706
(1790244148.386355) can0 18A#CFAEF04706
(1790244148.396548) can0 28A#0000000000000000
(1790244148.397136) can0 18A#D0AEF04706
(1790244148.406716) can0 18A#D0AEF04706
(1790244148.416273) can0 28A#0000000000000000
(1790244148.416815) can0 18A#D0AEF04706
(1790244148.426043) can0 38A#000005
(1790244148.426376) can0 18A#CFAEF04706
(1790244148.436543) can0 28A#0000000000000000
(1790244148.436917) can0 18A#D0AEF04706
(1790244148.446100) can0 18A#D0AEF04706
(1790244148.456036) can0 28A#0000000000000000
(1790244148.456394) can0 18A#D0AEF14706
(1790244148.466321) can0 18A#D0AEF14706
(1790244148.475893) can0 38A#000005
(1790244148.476596) can0 28A#0000000000000000
(1790244148.477598) can0 18A#D0AEF14706
(1790244148.485880) can0 18A#D0AEF14706
(1790244148.496439) can0 28A#0000000000000000
(1790244148.497049) can0 18A#D0AEF14706
(1790244148.505830) can0 18A#D0AEF14706
(1790244148.515905) can0 28A#0000000000000000
(1790244148.516506) can0 18A#D0AEF24706
(1790244148.525992) can0 38A#000005
(1790244148.527255) can0 18A#D0AFF24706
(1790244148.535647) can0 28A#0000000000000000
(1790244148.536008) can0 18A#D1AFF24706
(1790244148.545537) can0 18A#D1AFF24706
(1790244148.555875) can0 28A#0000000000000000
(1790244148.556204) can0 18A#D1AFF24706
(1790244148.565561) can0 18A#D1AFF24706
(1790244148.575518) can0 38A#000005
(1790244148.577013) can0 28A#0000000000000000
(1790244148.578012) can0 18A#D1AFF24706
(1790244148.586656) can0 18A#D1AFF24706
(1790244148.595585) can0 28A#0000000000000000
(1790244148.596143) can0 18A#D1AFF24706
(1790244148.605346) can0 18A#D1AFF24706
(1790244148.615958) can0 28A#0000000000000000
(1790244148.616727) can0 18A#D1AFF24706
(1790244148.625247) can0 38A#000005
(1790244148.626187) can0 18A#D1AFF24706
(1790244148.640283) can0 28A#0000000000000000
(1790244148.640683) can0 18A#D1AFF24706
(1790244148.645448) can0 18A#D1AFF24706
(1790244148.655141) can0 28A#0000000000000000
(1790244148.655539) can0 18A#D1AFF24706
(1790244148.665125) can0 18A#D1AFF24706
(1790244148.675242) can0 38A#000005
(1790244148.676081) can0 28A#0000000000000000
(1790244148.676647) can0 18A#D1AFF24706
(1790244148.684877) can0 18A#D1AFF24706
(1790244148.694996) can0 28A#0000000000000000
(1790244148.695370) can0 18A#D1AFF24706
(1790244148.705137) can0 18A#D1AFF24706
(1790244148.714960) can0 28A#0000000000000000
(1790244148.715466) can0 18A#D1AFF24706
(1790244148.724696) can0 38A#000005
(1790244148.725125) can0 18A#D1AFF24706
(1790244148.735140) can0 28A#0000000000000000
(1790244148.735628) can0 18A#D1AFF24706
(1790244148.744759) can0 18A#D1AFF24706
(1790244148.754820) can0 28A#0000000000000000
(1790244148.755576) can0 18A#D1AFF24706
(1790244148.765021) can0 18A#D1AFF34706
(1790244148.774771) can0 38A#000005
(1790244148.776466) can0 28A#0000000000000000
(1790244148.777024) can0 18A#D1AFF34706
(1790244148.784430) can0 18A#D1B0F34706
(1790244148.794866) can0 28A#0000000000000000
(1790244148.795318) can0 18A#D2B0F24706
(1790244148.804295) can0 18A#D2B0F24706
(1790244148.814338) can0 28A#0000000000000000
(1790244148.814732) can0 18A#D1B0F24706
(1790244148.824549) can0 38A#000005
(1790244148.825687) can0 18A#D1B0F34706
(1790244148.834399) can0 28A#0000000000000000
(1790244148.834948) can0 18A#D2B0F24706
(1790244148.844352) can0 18A#D2B0F24706
(1790244148.854659) can0 28A#0000000000000000
(1790244148.855198) can0 18A#D1B0F24706
(1790244148.864187) can0 18A#D1B0F24706
(1790244148.874131) can0 38A#000005
(1790244148.875453) can0 28A#0000000000000000
(1790244148.877470) can0 18A#D2B0F24706
(1790244148.884420) can0 18A#D2B0F24706
(1790244148.894226) can0 28A#0000000000000000
(1790244148.895022) can0 18A#D2B0F24706
(1790244148.903928) can0 18A#D1B0F24706
(1790244148.914505) can0 28A#0000000000000000
(1790244148.915172) can0 18A#D2B0F24706
(1790244148.923819) can0 38A#000005
(1790244148.924664) can0 18A#D2B0F24706
(1790244148.933819) can0 28A#0000000000000000
(1790244148.934251) can0 18A#D2B0F24706
(1790244148.944081) can0 18A#D2B0F24706
(1790244148.953720) can0 28A#0000000000000000
(1790244148.954226) can0 18A#D2B0F24706
(1790244148.963780) can0 18A#D2B0F24706
(1790244148.974165) can0 38A#000005
(1790244148.975682) can0 28A#0000000000000000
(1790244148.976667) can0 18A#D2B0F34706
(1790244148.983558) can0 18A#D2B0F34706
(1790244148.993706) can0 28A#0000000000000000
(1790244148.994352) can0 18A#D2B0F34706
(1790244149.003843) can0 18A#D2B0F34706
(1790244149.013689) can0 28A#0000000000000000
(1790244149.014424) can0 18A#D2B0F34706
(1790244149.023441) can0 38A#000005
(1790244149.024410) can0 18A#D2B0F34706
(1790244149.033817) can0 28A#0000000000000000
(1790244149.034544) can0 18A#D2B0F34706
(1790244149.043309) can0 18A#D2B0F34706
(1790244149.053249) can0 28A#0000000000000000
(1790244149.053782) can0 18A#D3B1F34706
(1790244149.063418) can0 18A#D3B1F34706
(1790244149.073020) can0 38A#000005
(1790244149.073756) can0 28A#0000000000000000
(1790244149.074821) can0 18A#D3B1F34706
(1790244149.082986) can0 18A#D2B0F34706
(1790244149.093400) can0 28A#0000000000000000
(1790244149.093793) can0 18A#D3B1F34706
(1790244149.102909) can0 18A#D3B1F34706
(1790244149.113162) can0 28A#0000000000000000
(1790244149.113932) can0 18A#D2B0F34706
(1790244149.123090) can0 38A#000005
(1790244149.123596) can0 18A#D2B0F44706
(1790244149.132838) can0 28A#0000000000000000
(1790244149.133214) can0 18A#D2B1F44706
(1790244149.142737) can0 18A#D3B1F34706
(1790244149.153014) can0 28A#0000000000000000
(1790244149.153363) can0 18A#D2B1F34706
(1790244149.162822) can0 18A#D3B0F34706
(1790244149.172509) can0 70A#05
(1790244149.172865) can0 38A#000005
(1790244149.173707) can0 28A#0000000000000000
(1790244149.182831) can0 18A#D2B0F44706
(1790244149.192596) can0 28A#0000000000000000
(1790244149.193129) can0 18A#D3B0F34706
(1790244149.202289) can0 18A#D3B1F34706
(1790244149.212774) can0 28A#0000000000000000
(1790244149.213164) can0 18A#D3B0F34706
(1790244149.222167) can0 38A#000005
(1790244149.222502) can0 18A#D3B1F34706
(1790244149.232374) can0 28A#0000000000000000
(1790244149.232953) can0 18A#D3B1F34706
(1790244149.242622) can0 18A#D3B1F34706
(1790244149.252365) can0 28A#0000000000000000
(1790244149.253137) can0 18A#D3B1F34706
(1790244149.262183) can0 18A#D3B1F34706
(1790244149.272391) can0 38A#000005
(1790244149.273715) can0 28A#0000000000000000
(1790244149.274150) can0 18A#D3B1F34706
(1790244149.281914) can0 18A#D3B1F34706
(1790244149.292032) can0 28A#0000000000000000
(1790244149.292493) can0 18A#D3B1F34706
(1790244149.302229) can0 18A#D3B2F44706
(1790244149.311880) can0 28A#0000000000000000
(1790244149.312286) can0 18A#D3B2F44706
(1790244149.321682) can0 38A#000005
(1790244149.322109) can0 18A#D3B2F44706
(1790244149.332194) can0 28A#0000000000000000
(1790244149.332639) can0 18A#D4B2F34706
(1790244149.341697) can0 18A#D3B1F44706
(1790244149.351718) can0 28A#0000000000000000
(1790244149.352376) can0 18A#D3B1F44706
(1790244149.361994) can0 18A#D3B2F44706
(1790244149.371621) can0 38A#000005
(1790244149.373178) can0 28A#0000000000000000
(1790244149.374302) can0 18A#D3B2F44706
(1790244149.381529) can0 18A#D3B1F44706
(1790244149.392036) can0 28A#0000000000000000
(1790244149.392822) can0 18A#D3B1F44706
(1790244149.401362) can0 18A#D3B1F44706
(1790244149.411496) can0 28A#0000000000000000
(1790244149.412166) can0 18A#D3B2F44706
(1790244149.421639) can0 38A#000005
(1790244149.423143) can0 18A#D3B1F44706
(1790244149.431377) can0 28A#0000000000000000
(1790244149.431993) can0 18A#D3B2F44706
(1790244149.441180) can0 18A#D3B1F44706
(1790244149.451522) can0 28A#0000000000000000
(1790244149.452049) can0 18A#D3B1F44706
(1790244149.461046) can0 18A#D3B1F44706
(1790244149.470905) can0 38A#000005
(1790244149.471278) can0 28A#0000000000000000
(1790244149.471931) can0 18A#D3B1F44706
(1790244149.481258) can0 18A#D4B2F44706
(1790244149.491111) can0 28A#0000000000000000
(1790244149.491654) can0 18A#D4B2F34706
(1790244149.500801) can0 18A#D4B2F34706
(1790244149.511334) can0 28A#0000000000000000
(1790244149.512024) can0 18A#D4B2F44706
