(1790244019.915025) can0 18A#C5DC00D006
(1790244019.925395) can0 28A#0000000000000000
(1790244019.925796) can0 18A#C5DC00D006
(1790244019.934874) can0 38A#000005
(1790244019.935217) can0 18A#C5DC00D006
(1790244019.944976) can0 28A#0000000000000000
(1790244019.945416) can0 18A#C5DC00D006
(1790244019.955538) can0 18A#C5DD00D006
(1790244019.965150) can0 28A#0000000000000000
(1790244019.966559) can0 18A#C5DD00D006
(1790244019.974996) can0 18A#C5DD00D006
(1790244019.985034) can0 38A#000005
(1790244019.985439) can0 28A#0000000000000000
(1790244019.985762) can0 18A#C5DE00D006
(1790244019.994750) can0 18A#C5DE00D006
(1790244020.005741) can0 28A#0000000000000000
(1790244020.006581) can0 18A#C5DE00D006
(1790244020.014967) can0 18A#C5DF00CF06
(1790244020.024673) can0 28A#0000000000000000
(1790244020.025275) can0 18A#C5DF00CF06
(1790244020.034453) can0 38A#000005
(1790244020.035092) can0 18A#C5E000CF06
(1790244020.044857) can0 28A#0000000000000000
(1790244020.045341) can0 18A#C5E000CF06
(1790244020.054769) can0 18A#C5E000CF06
(1790244020.064511) can0 28A#0000000000000000
(1790244020.065364) can0 18A#C5E000CF06
(1790244020.074684) can0 18A#C5E100CF06
(1790244020.084284) can0 38A#000005
(1790244020.085124) can0 28A#0000000000000000
(1790244020.085792) can0 18A#C5E100CF06
(1790244020.094164) can0 18A#C5E100CF06
(1790244020.104835) can0 28A#0000000000000000
(1790244020.105652) can0 18A#C5E200CF06
(1790244020.114048) can0 18A#C5E200CF06
(1790244020.130667) can0 28A#0000000000000000
(1790244020.131143) can0 18A#C5E200CF06
(1790244020.134166) can0 38A#000005
(1790244020.134512) can0 18A#C5E300CF06
(1790244020.143914) can0 28A#0000000000000000
(1790244020.144302) can0 18A#C5E300CF06
(1790244020.153919) can0 18A#C5E300CF06
(1790244020.164147) can0 28A#0000000000000000
(1790244020.164608) can0 18A#C5E400CE06
(1790244020.173767) can0 18A#C5E400CE06
(1790244020.183661) can0 70A#05
(1790244020.184192) can0 38A#000005
(1790244020.184596) can0 28A#0000000000000000
(1790244020.193923) can0 18A#C5E500CE06
(1790244020.203846) can0 28A#0000000000000000
(1790244020.204309) can0 18A#C5E500CE06
(1790244020.213410) can0 18A#C5E600CE06
(1790244020.223861) can0 28A#0000000000000000
(1790244020.224304) can0 18A#C5E600CE06
(1790244020.233320) can0 38A#000005
(1790244020.233823) can0 18A#C5E600CE06
(1790244020.243436) can0 28A#0000000000000000
(1790244020.243961) can0 18A#C5E700CE06
(1790244020.253841) can0 18A#C5E700CE06
(1790244020.263269) can0 28A#0000000000000000
(1790244020.263714) can0 18A#C5E800CE06
(1790244020.273216) can0 18A#C5E800CE06
(1790244020.283496) can0 38A#000005
(1790244020.284292) can0 28A#0000000000000000
(1790244020.284923) can0 18A#C5E800CE06
(1790244020.293099) can0 18A#C5E900CE06
(1790244020.303818) can0 28A#0000000000000000
(1790244020.304630) can0 18A#C5E900CE06
(1790244020.313339) can0 18A#C5E900CE06
(1790244020.323035) can0 28A#0000000000000000
(1790244020.323604) can0 18A#C5EA00CE06
(1790244020.332798) can0 38A#000005
(1790244020.333212) can0 18A#C5EA00CD06
(1790244020.343200) can0 28A#0000000000000000
(1790244020.343653) can0 18A#C5EA00CD06
(1790244020.353257) can0 18A#C5EB00CD06
(1790244020.362767) can0 28A#0000000000000000
(1790244020.363365) can0 18A#C5EB00CD06
(1790244020.373028) can0 18A#C5EC00CD06
(1790244020.382567) can0 38A#000005
(1790244020.383145) can0 28A#0000000000000000
(1790244020.383612) can0 18A#C5EC00CD06
(1790244020.392559) can0 18A#C5EC00CD06
(1790244020.403195) can0 28A#0000000000000000
(1790244020.404048) can0 18A#C5ED00CD06
(1790244020.412325) can0 18A#C5ED00CD06
(1790244020.422463) can0 28A#0000000000000000
(1790244020.422897) can0 18A#C5ED00CD06
(1790244020.432555) can0 38A#000005
(1790244020.433017) can0 18A#C5EE00CD06
(1790244020.442346) can0 28A#0000000000000000
(1790244020.442813) can0 18A#C5EE00CD06
(1790244020.452176) can0 18A#C5EE00CD06
(1790244020.462499) can0 28A#0000000000000000
(1790244020.463059) can0 18A#C5EF00CD06
(1790244020.472126) can0 18A#C5EF00CD06
(1790244020.482052) can0 38A#000005
(1790244020.482634) can0 28A#0000000000000000
(1790244020.483157) can0 18A#C5F000CD06
(1790244020.492297) can0 18A#C5F000CD06
(1790244020.502825) can0 28A#0000000000000000
(1790244020.503516) can0 18A#C5F000CD06
(1790244020.512139) can0 18A#C5F100CD06
(1790244020.522298) can0 28A#0000000000000000
(1790244020.522900) can0 18A#C5F100CD06
(1790244020.531782) can0 38A#000005
(1790244020.532357) can0 18A#C5F100CD06
(1790244020.541830) can0 28A#0000000000000000
(1790244020.542400) can0 18A#C5F200CD06
(1790244020.552140) can0 18A#C5F200CD06
(1790244020.561697) can0 28A#0000000000000000
(1790244020.562193) can0 18A#C5F200CD06
(1790244020.571750) can0 18A#C5F300CC06
(1790244020.582196) can0 38A#000005
(1790244020.583643) can0 28A#0000000000000000
(1790244020.584517) can0 18A#C5F300CC06
(1790244020.591694) can0 18A#C5F300CC06
(1790244020.601750) can0 28A#0000000000000000
(1790244020.602443) can0 18A#C5F400CD06
(1790244020.611821) can0 18A#C5F400CD06
(1790244020.621516) can0 28A#0000000000000000
(1790244020.622256) can0 18A#C5F400CD06
(1790244020.631238) can0 38A#000005
(1790244020.631875) can0 18A#C5F500CC06
(1790244020.641668) can0 28A#0000000000000000
(1790244020.642255) can0 18A#C5F500CC06
(1790244020.651213) can0 18A#C5F500CC06
(1790244020.661219) can0 28A#0000000000000000
(1790244020.661952) can0 18A#C5F600CC06
(1790244020.671486) can0 18A#C5F600CC06
(1790244020.680975) can0 38A#000005
(1790244020.681626) can0 28A#0000000000000000
(1790244020.682238) can0 18A#C5F600CC06
(1790244020.690923) can0 18A#C5F700CC06
(1790244020.701484) can0 28A#0000000000000000
(1790244020.702213) can0 18A#C5F700CC06
(1790244020.710747) can0 18A#C5F700CC06
(1790244020.720855) can0 28A#0000000000000000
(1790244020.721443) can0 18A#C5F800CC06
(1790244020.731198) can0 38A#000005
(1790244020.732054) can0 18A#C5F800CC06
(1790244020.740790) can0 28A#0000000000000000
(1790244020.741490) can0 18A#C5F800CC06
(1790244020.751454) can0 18A#C5F900CC06
(1790244020.761983) can0 28A#0000000000000000
(1790244020.763700) can0 18A#C5F900CC06
(1790244020.773009) can0 18A#C5F900CC06
(1790244020.781201) can0 38A#000005
(1790244020.783244) can0 28A#0000000000000000
(1790244020.784180) can0 18A#C5FA00CD06
(1790244020.790634) can0 18A#C5FB00CC06
(1790244020.800398) can0 28A#0000000000000000
(1790244020.800948) can0 18A#C5FB00CD06
(1790244020.810266) can0 18A#C5FB00CC06
(1790244020.820677) can0 28A#0000000000000000
(1790244020.821212) can0 18A#C5FC00CD06
(1790244020.830089) can0 38A#000005
(1790244020.830741) can0 18A#C5FC00CD06
(1790244020.840200) can0 28A#0000000000000000
(1790244020.840708) can0 18A#C5FC00CC06
(1790244020.850657) can0 18A#C5FC00CD06
(1790244020.860075) can0 28A#0000000000000000
(1790244020.860606) can0 18A#C5FD00CD06
(1790244020.870371) can0 18A#C5FD00CD06
(1790244020.880330) can0 38A#000005
(1790244020.881253) can0 28A#0000000000000000
(1790244020.882080) can0 18A#C5FD00CD06
(1790244020.889847) can0 18A#C5FE00CD06
(1790244020.901278) can0 28A#0000000000000000
(1790244020.902600) can0 18A#C5FE00CD06
(1790244020.910105) can0 18A#C5FE00CD06
(1790244020.919848) can0 28A#0000000000000000
(1790244020.920664) can0 18A#C5FF00CD06
(1790244020.929619) can0 38A#000005
(1790244020.930252) can0 18A#C5FF00CD06
(1790244020.939920) can0 28A#0000000000000000
(1790244020.940309) can0 18A#C5FF00CD06
(1790244020.949672) can0 18A#C50000CD06
(1790244020.959462) can0 28A#0000000000000000
(1790244020.959829) can0 18A#C50000CD06
(1790244020.969743) can0 18A#C50000CD06
(1790244020.979317) can0 38A#000005
(1790244020.979967) can0 28A#0000000000000000
(1790244020.980607) can0 18A#C50000CD06
(1790244020.989522) can0 18A#C50000CD06
(1790244020.999616) can0 28A#0000000000000000
(1790244021.000025) can0 18A#C50100CD06
(1790244021.009104) can0 18A#C50100CD06
(1790244021.019301) can0 28A#0000000000000000
(1790244021.020140) can0 18A#C50100CD06
(1790244021.029495) can0 38A#000005
(1790244021.030246) can0 18A#C50200CD06
(1790244021.039127) can0 28A#0000000000000000
(1790244021.039784) can0 18A#C50200CD06
(1790244021.049285) can0 18A#C50200CD06
(1790244021.059360) can0 28A#0000000000000000
(1790244021.060474) can0 18A#C50300CD06
(1790244021.068883) can0 18A#C50300CD06
(1790244021.078688) can0 38A#000005
(1790244021.079184) can0 28A#0000000000000000
(1790244021.079673) can0 18A#C50300CD06
(1790244021.089087) can0 18A#C50400CD06
(1790244021.098916) can0 28A#0000000000000000
(1790244021.099423) can0 18A#C50400CD06
(1790244021.108515) can0 18A#C50500CD06
(1790244021.118873) can0 28A#0000000000000000
(1790244021.119242) can0 18A#C50500CD06
(1790244021.128392) can0 38A#000005
(1790244021.128774) can0 18A#C605FFCD06
(1790244021.138556) can0 28A#0000000000000000
(1790244021.139072) can0 18A#C606FECD06
(1790244021.148687) can0 18A#C606FDCD06
(1790244021.162521) can0 28A#0000000000000000
(1790244021.162890) can0 18A#C706FDCD06
(1790244021.168209) can0 18A#C707FCCD06
(1790244021.178433) can0 70A#05
(1790244021.178843) can0 38A#000005
(1790244021.179334) can0 28A#0000000000000000
(1790244021.188119) can0 18A#C807FBCE06
(1790244021.198439) can0 28A#0000000000000000
(1790244021.199210) can0 18A#C807FACE06
(1790244021.208309) can0 18A#C808F9CE06
(1790244021.218100) can0 28A#0000000000000000
(1790244021.218773) can0 18A#C808F9CE06
(1790244021.227942) can0 38A#000005
(1790244021.228751) can0 18A#C909F8CE06
(1790244021.238301) can0 28A#0000000000000000
(1790244021.238961) can0 18A#CA09F7CE06
(1790244021.249153) can0 18A#CA09F7CE06
(1790244021.257790) can0 28A#0000000000000000
(1790244021.258490) can0 18A#CA0AF6CE06
(1790244021.268151) can0 18A#CA0AF5CE06
(1790244021.277852) can0 38A#000005
(1790244021.278878) can0 28A#0000000000000000
(1790244021.279700) can0 18A#CA0AF5CE06
(1790244021.287550) can0 18A#CB0BF4CE06
(1790244021.298481) can0 28A#0000000000000000
(1790244021.299123) can0 18A#CB0BF4CE06
(1790244021.307404) can0 18A#CB0BF3CE06
(1790244021.317497) can0 28A#0000000000000000
(1790244021.318137) can0 18A#CB0CF3CE06
(1790244021.327671) can0 38A#000005
(1790244021.328392) can0 18A#CC0CF2CE06
(1790244021.337260) can0 28A#0000000000000000
(1790244021.337651) can0 18A#CC0CF2CE06
(1790244021.347291) can0 18A#CD0DF1CE06
(1790244021.357629) can0 28A#0000000000000000
(1790244021.358160) can0 18A#CD0DF1CE06
(1790244021.367098) can0 18A#CD0DF0CE06
(1790244021.377072) can0 38A#000005
(1790244021.377651) can0 28A#0000000000000000
(1790244021.378281) can0 18A#CD0EF0CE06
(1790244021.387454) can0 18A#CE0FEFCE06
(1790244021.397730) can0 28A#0000000000000000
(1790244021.398532) can0 18A#CE0FEFCE06
(1790244021.406987) can0 18A#CE0FEFCF06
(1790244021.417473) can0 28A#0000000000000000
(1790244021.418210) can0 18A#CE0FEECF06
(1790244021.426784) can0 38A#000005
(1790244021.427551) can0 18A#CE0FEECF06
(1790244021.436738) can0 28A#0000000000000000
(1790244021.437282) can0 18A#CF10EDCF06
(1790244021.447875) can0 18A#CF10EDCF06
(1790244021.456539) can0 28A#0000000000000000
(1790244021.456945) can0 18A#CF10EDCF06
(1790244021.466436) can0 18A#D011ECCF06
(1790244021.476633) can0 38A#000005
(1790244021.477041) can0 28A#0000000000000000
(1790244021.477435) can0 18A#D011EBCF06
(1790244021.486471) can0 18A#D011EBCF06
(1790244021.496689) can0 28A#0000000000000000
(1790244021.497546) can0 18A#D012EBCF06
(1790244021.506531) can0 18A#D112EACF06
(1790244021.516292) can0 28A#0000000000000000
(1790244021.516829) can0 18A#D112EACF06
(1790244021.526227) can0 38A#000005
(1790244021.526951) can0 18A#D213E9CF06
(1790244021.536435) can0 28A#0000000000000000
(1790244021.536969) can0 18A#D213E9CF06
(1790244021.546919) can0 18A#D214E9CF06
(1790244021.556046) can0 28A#0000000000000000
(1790244021.556846) can0 18A#D214E8CF06
(1790244021.566265) can0 18A#D214E8CF06
(1790244021.575838) can0 38A#000005
(1790244021.576452) can0 28A#0000000000000000
(1790244021.576960) can0 18A#D315E7CF06
(1790244021.585796) can0 18A#D315E7CF06
(1790244021.596473) can0 28A#0000000000000000
(1790244021.597096) can0 18A#D315E7CF06
(1790244021.605657) can0 18A#D316E6CF06
(1790244021.615750) can0 28A#0000000000000000
(1790244021.616398) can0 18A#D416E6D006
(1790244021.625868) can0 38A#000005
(1790244021.626665) can0 18A#D416E5CF06
(1790244021.635645) can0 28A#0000000000000000
(1790244021.636253) can0 18A#D417E5D006
(1790244021.645826) can0 18A#D417E5D006
(1790244021.655694) can0 28A#0000000000000000
(1790244021.656074) can0 18A#D518E4D006
(1790244021.665393) can0 18A#D518E4D006
(1790244021.675162) can0 38A#000005
(1790244021.675555) can0 28A#0000000000000000
(1790244021.675837) can0 18A#D518E4D006
(1790244021.685441) can0 18A#D619E3D006
(1790244021.695797) can0 28A#0000000000000000
(1790244021.696426) can0 18A#D619E3D006
(1790244021.705032) can0 18A#D619E3D006
(1790244021.715352) can0 28A#0000000000000000
(1790244021.715778) can0 18A#D619E2D006
(1790244021.724846) can0 38A#000005
(1790244021.725359) can0 18A#D61AE2D006
(1790244021.735012) can0 28A#0000000000000000
(1790244021.735560) can0 18A#D71AE2D006
(1790244021.745497) can0 18A#D81BE1D006
(1790244021.754953) can0 28A#0000000000000000
(1790244021.755733) can0 18A#D81BE1D006
(1790244021.764785) can0 18A#D81BE1D006
(1790244021.774925) can0 38A#000005
(1790244021.775308) can0 28A#0000000000000000
(1790244021.775656) can0 18A#D81CE0D006
(1790244021.784506) can0 18A#D81CE0D006
(1790244021.795267) can0 28A#0000000000000000
(1790244021.795886) can0 18A#D81CE0D006
(1790244021.804725) can0 18A#D91DDFD106
(1790244021.814491) can0 28A#0000000000000000
(1790244021.814973) can0 18A#D91DDFD006
(1790244021.824366) can0 38A#000005
(1790244021.824933) can0 18A#D91DE0D106
(1790244021.834688) can0 28A#0000000000000000
(1790244021.835218) can0 18A#D91EE0D106
(1790244021.844303) can0 18A#D91EE0D106
(1790244021.854190) can0 28A#0000000000000000
(1790244021.854614) can0 18A#DA1EE0D106
(1790244021.864496) can0 18A#DA1EE0D106
(1790244021.873949) can0 38A#000005
(1790244021.874414) can0 28A#0000000000000000
(1790244021.874853) can0 18A#DA1FE1D106
(1790244021.883940) can0 18A#DA1FE0D106
(1790244021.894820) can0 28A#0000000000000000
(1790244021.895462) can0 18A#DA1FE0D106
(1790244021.903798) can0 18A#DA1FE1D106
(1790244021.914032) can0 28A#0000000000000000
(1790244021.914593) can0 18A#DB20E1D106
(1790244021.924068) can0 38A#000005
(1790244021.924619) can0 18A#DB20E1D106
(1790244021.933776) can0 28A#0000000000000000
(1790244021.934295) can0 18A#DB21E1D106
(1790244021.943972) can0 18A#DB21E1D106
(1790244021.954082) can0 28A#0000000000000000
(1790244021.954941) can0 18A#DB21E2D106
(1790244021.963892) can0 18A#DC22E1D106
(1790244021.973479) can0 38A#000005
(1790244021.974155) can0 28A#0000000000000000
(1790244021.974668) can0 18A#DC22E1D106
(1790244021.983726) can0 18A#DC22E2D106
(1790244021.993492) can0 28A#0000000000000000
(1790244021.994198) can0 18A#DC22E2D106
(1790244022.004174) can0 18A#DC23E2D106
(1790244022.013596) can0 28A#0000000000000000
(1790244022.013950) can0 18A#DC23E2D206
(1790244022.023051) can0 38A#000005
(1790244022.023517) can0 18A#DD23E2D206
(1790244022.033285) can0 28A#0000000000000000
(1790244022.033902) can0 18A#DD24E2D206
(1790244022.043912) can0 18A#DD24E2D206
(1790244022.053130) can0 28A#0000000000000000
(1790244022.053767) can0 18A#DD24E2D206
(1790244022.062950) can0 18A#DD25E2D206
(1790244022.073243) can0 38A#000005
(1790244022.073965) can0 28A#0000000000000000
(1790244022.074537) can0 18A#DE25E2D206
(1790244022.082732) can0 18A#DE25E2D206
(1790244022.093110) can0 28A#0000000000000000
(1790244022.093598) can0 18A#DE25E2D206
(1790244022.102909) can0 18A#DE26E2D206
(1790244022.112710) can0 28A#0000000000000000
(1790244022.113140) can0 18A#DE26E2D206
(1790244022.122512) can0 38A#000005
(1790244022.123111) can0 18A#DE26E2D206
(1790244022.132934) can0 28A#0000000000000000
(1790244022.133902) can0 18A#DF26E2D206
(1790244022.142562) can0 18A#DF26E2D206
(1790244022.152417) can0 28A#0000000000000000
(1790244022.153014) can0 18A#DF27E2D306
(1790244022.162709) can0 18A#DF27E2D306
(1790244022.172188) can0 70A#05
(1790244022.172709) can0 38A#000005
(1790244022.173383) can0 28A#0000000000000000
(1790244022.191280) can0 18A#DF28E3D306
(1790244022.192603) can0 28A#0000000000000000
(1790244022.193116) can0 18A#DF28E3D306
(1790244022.201939) can0 18A#DF28E3D306
(1790244022.212192) can0 28A#0000000000000000
(1790244022.213259) can0 18A#E029E3D306
(1790244022.222253) can0 38A#000005
(1790244022.223152) can0 18A#E029E3D306
(1790244022.231953) can0 28A#0000000000000000
(1790244022.232474) can0 18A#DF29E4D306
(1790244022.242068) can0 18A#E029E3D306
(1790244022.252162) can0 28A#0000000000000000
(1790244022.252797) can0 18A#E02AE3D406
(1790244022.261703) can0 18A#E02AE4D406
(1790244022.271609) can0 38A#000005
(1790244022.272340) can0 28A#0000000000000000
(1790244022.273200) can0 18A#E02AE4D406
(1790244022.281840) can0 18A#E02AE4D406
(1790244022.292262) can0 28A#0000000000000000
(1790244022.293087) can0 18A#E12BE4D406
(1790244022.301557) can0 18A#E02BE4D406
(1790244022.311870) can0 28A#0000000000000000
(1790244022.312387) can0 18A#E12BE4D406
(1790244022.321301) can0 38A#000005
(1790244022.321953) can0 18A#E12BE4D406
(1790244022.331354) can0 28A#0000000000000000
(1790244022.332016) can0 18A#E12BE4D506
(1790244022.341595) can0 18A#E12CE5D406
(1790244022.351136) can0 28A#0000000000000000
(1790244022.351519) can0 18A#E12CE5D506
(1790244022.361076) can0 18A#E12CE5D506
(1790244022.371302) can0 38A#000005
(1790244022.371943) can0 28A#0000000000000000
(1790244022.372503) can0 18A#E12DE5D506
(1790244022.380888) can0 18A#E12DE5D506
(1790244022.391304) can0 28A#0000000000000000
(1790244022.392686) can0 18A#E12DE6D506
(1790244022.401164) can0 18A#E12DE6D506
(1790244022.410929) can0 28A#0000000000000000
(1790244022.412214) can0 18A#E12DE6D506
(1790244022.420827) can0 38A#000005
(1790244022.421578) can0 18A#E22EE6D606
(1790244022.431051) can0 28A#0000000000000000
(1790244022.431636) can0 18A#E22EE6D606
(1790244022.440676) can0 18A#E22EE7D606
(1790244022.450591) can0 28A#0000000000000000
(1790244022.451105) can0 18A#E22EE7D706
(1790244022.460828) can0 18A#E22FE7D706
(1790244022.470330) can0 38A#000005
(1790244022.470849) can0 28A#0000000000000000
(1790244022.471279) can0 18A#E12FE8D706
(1790244022.480358) can0 18A#E22FE8D706
(1790244022.490657) can0 28A#0000000000000000
(1790244022.491295) can0 18A#E22FE8D706
(1790244022.500199) can0 18A#E22FE8D806
(1790244022.510181) can0 28A#0000000000000000
(1790244022.510587) can0 18A#E230E8D806
(1790244022.520248) can0 38A#000005
(1790244022.520629) can0 18A#E230E9D806
(1790244022.530018) can0 28A#0000000000000000
(1790244022.530411) can0 18A#E230E9D806
(1790244022.540412) can0 18A#E230E9D906
(1790244022.550271) can0 28A#0000000000000000
(1790244022.550895) can0 18A#E230EAD906
(1790244022.559820) can0 18A#E231EAD906
(1790244022.569654) can0 38A#000005
(1790244022.570144) can0 28A#0000000000000000
(1790244022.570494) can0 18A#E231EBD906
(1790244022.580017) can0 18A#E231EBDA06
(1790244022.589795) can0 28A#0000000000000000
(1790244022.590328) can0 18A#E231EBDA06
(1790244022.599429) can0 18A#E231EBDB06
(1790244022.609871) can0 28A#0000000000000000
(1790244022.610243) can0 18A#E231ECDC06
(1790244022.619319) can0 38A#000005
(1790244022.619799) can0 18A#E331ECDC06
(1790244022.629392) can0 28A#0000000000000000
(1790244022.629779) can0 18A#E331ECDD06
(1790244022.639891) can0 18A#E331ECDD06
(1790244022.649265) can0 28A#0000000000000000
(1790244022.650262) can0 18A#E331ECDE06
(1790244022.659226) can0 18A#E331ECDF06
(1790244022.669303) can0 38A#000005
(1790244022.669678) can0 28A#0000000000000000
(1790244022.669996) can0 18A#E331ECE006
(1790244022.678971) can0 18A#E331ECE006
(1790244022.689565) can0 28A#0000000000000000
(1790244022.697862) can0 18A#E331EDE106
(1790244022.699689) can0 18A#E331EDE206
(1790244022.708930) can0 28A#0000000000000000
(1790244022.709376) can0 18A#E331EDE306
(1790244022.718689) can0 38A#000005
(1790244022.719285) can0 18A#E331EDE406
(1790244022.729130) can0 28A#0000000000000000
(1790244022.729638) can0 18A#E331EDE506
(1790244022.738858) can0 18A#E330EEE606
(1790244022.748616) can0 28A#0000000000000000
(1790244022.749109) can0 18A#E330EEE806
(1790244022.758825) can0 18A#E430EEE906
(1790244022.768401) can0 38A#000005
(1790244022.768980) can0 28A#0000000000000000
(1790244022.769520) can0 18A#E430EEEA06
(1790244022.778337) can0 18A#E42FEFEC06
(1790244022.789297) can0 28A#0000000000000000
(1790244022.789973) can0 18A#E42FEFED06
(1790244022.798257) can0 18A#E42FEFEE06
(1790244022.808310) can0 28A#0000000000000000
(1790244022.809333) can0 18A#E42EEFF006
(1790244022.818504) can0 38A#000005
(1790244022.819261) can0 18A#E42EEFF206
(1790244022.828288) can0 28A#0000000000000000
(1790244022.828928) can0 18A#E42EEFF306
(1790244022.838563) can0 18A#E42DF0F606
(1790244022.848276) can0 28A#0000000000000000
(1790244022.848644) can0 18A#E42CF0F806
(1790244022.857901) can0 18A#E52CF1FA06
(1790244022.867725) can0 38A#000005
(1790244022.868479) can0 28A#0000000000000000
(1790244022.869092) can0 18A#E52AF1FD06
(1790244022.878043) can0 18A#E528F1010E
(1790244022.887867) can0 28A#10FD4D0000000000
(1790244022.888895) can0 18A#E526F1040E
(1790244022.897623) can0 18A#E5DFF12C0E
(1790244022.907960) can0 28A#10FD4A0000000000
(1790244022.908377) can0 18A#E5D6F13B0E
(1790244022.917383) can0 38A#000005
(1790244022.917745) can0 18A#E5D2F13F0E
(1790244022.927579) can0 28A#10FD470000000000
(1790244022.928071) can0 18A#E5CDF2430E
(1790244022.937843) can0 18A#E5CAF2450E
(1790244022.947388) can0 28A#10FD440000000000
(1790244022.947914) can0 18A#E5C9F2450E
(1790244022.957342) can0 18A#E6C8F2450E
(1790244022.967531) can0 38A#000005
(1790244022.968194) can0 28A#10FD400000000000
(1790244022.968900) can0 18A#E6C8F2460E
(1790244022.977235) can0 18A#E6C8F2460E
(1790244022.987611) can0 28A#10FD3E0000000000
(1790244022.989531) can0 18A#E6C8F3460E
(1790244022.997363) can0 18A#E6C8F3460E
(1790244023.007357) can0 28A#10FD3A0000000000
(1790244023.008568) can0 18A#E6C8F3460E
(1790244023.016927) can0 38A#000005
(1790244023.017621) can0 18A#E6C8F3460E
(1790244023.029005) can0 28A#10FD370000000000
(1790244023.029544) can0 18A#E6C8F3460E
(1790244023.036914) can0 18A#E6C9F3460E
(1790244023.046661) can0 28A#10FD330000000000
(1790244023.047012) can0 18A#E6C8F4460E
(1790244023.056938) can0 18A#E6C8F4460E
(1790244023.066479) can0 38A#000005
(1790244023.066948) can0 28A#10FD300000000000
(1790244023.067305) can0 18A#E7C8F4460E
(1790244023.076524) can0 18A#E7C9F4460E
(1790244023.087633) can0 28A#10FD2C0000000000
(1790244023.088464) can0 18A#E7C9F4460E
(1790244023.096365) can0 18A#E7C8F5460E
(1790244023.106350) can0 28A#10FD280000000000
(1790244023.106743) can0 18A#E7C8F5460E
(1790244023.116444) can0 38A#000005
(1790244023.116798) can0 18A#E7C9F5460E
(1790244023.126141) can0 28A#10FD260000000000
(1790244023.126545) can0 18A#E7C9F5460E
(1790244023.136544) can0 18A#E7C9F5460E
(1790244023.146368) can0 28A#10FD220000000000
(1790244023.146735) can0 18A#E7C9F5460E
(1790244023.155939) can0 18A#E7C9F5470E
(1790244023.165812) can0 70A#05
(1790244023.166282) can0 38A#000005
(1790244023.166764) can0 28A#10FD1F0000000000
(1790244023.176155) can0 18A#E8C9F5470E
(1790244023.186080) can0 28A#10FD1C0000000000
(1790244023.187414) can0 18A#E8C8F5470E
(1790244023.195821) can0 18A#E8C9F5470E
(1790244023.206178) can0 28A#10FD180000000000
(1790244023.206760) can0 18A#E8C9F6470E
(1790244023.218823) can0 38A#000005
(1790244023.219564) can0 18A#E8C9F5470E
(1790244023.225600) can0 28A#10FD150000000000
(1790244023.226205) can0 18A#E8C9F5470E
(1790244023.236375) can0 18A#E8C9F5470E
(1790244023.245421) can0 28A#10FD130000000000
(1790244023.245893) can0 18A#E8C9F6470E
(1790244023.255328) can0 18A#E8C9F6470E
(1790244023.265579) can0 38A#000005
(1790244023.266278) can0 28A#10FD0E0000000000
(1790244023.266961) can0 18A#E9C9F5470E
(1790244023.275121) can0 18A#E9C9F5470E
(1790244023.285464) can0 28A#10FD0B0000000000
(1790244023.286411) can0 18A#E9C9F5470E
(1790244023.295310) can0 18A#E9C9F6470E
(1790244023.305033) can0 28A#10FD080000000000
(1790244023.305567) can0 18A#E9C9F6470E
(1790244023.314815) can0 38A#000005
(1790244023.315441) can0 18A#E9C9F6470E
(1790244023.325337) can0 28A#10FD050000000000
(1790244023.326100) can0 18A#E9C9F5470E
(1790244023.335598) can0 18A#E9C9F5470E
(1790244023.344837) can0 28A#10FD030000000000
(1790244023.345598) can0 18A#E9C9F5470E
(1790244023.355011) can0 18A#E9C9F5470E
(1790244023.364436) can0 38A#000005
(1790244023.364824) can0 28A#10FD040000000000
(1790244023.365136) can0 18A#E9C9F5470E
(1790244023.374478) can0 18A#EACAF4480E
(1790244023.385371) can0 28A#10FD030000000000
(1790244023.385974) can0 18A#EACAF4480E
(1790244023.394286) can0 18A#EACAF4470E
(1790244023.404420) can0 28A#10FD030000000000
(1790244023.405095) can0 18A#EACAF4470E
(1790244023.414669) can0 38A#000005
(1790244023.415588) can0 18A#EACAF3470E
(1790244023.424292) can0 28A#10FD000000000000
(1790244023.424856) can0 18A#EACAF3470E
(1790244023.434255) can0 18A#EACAF3470E
(1790244023.444545) can0 28A#10FDFFFF00000000
(1790244023.445529) can0 18A#EACAF3470E
(1790244023.454048) can0 18A#EACBF3470E
(1790244023.464014) can0 38A#000005
(1790244023.464859) can0 28A#10FDFCFF00000000
(1790244023.465838) can0 18A#EBCBF2470E
(1790244023.474426) can0 18A#EBCBF2470E
(1790244023.484156) can0 28A#10FDF9FF00000000
(1790244023.485544) can0 18A#EBCBF2470E
(1790244023.493716) can0 18A#EBCCF2470E
(1790244023.504105) can0 28A#10FDF5FF00000000
(1790244023.504752) can0 18A#ECCCF1470E
(1790244023.513600) can0 38A#000005
(1790244023.514473) can0 18A#ECCCF1470E
(1790244023.523668) can0 28A#10FDF2FF00000000
(1790244023.524402) can0 18A#ECCCF2470E
(1790244023.535345) can0 18A#ECCCF2470E
(1790244023.543359) can0 28A#10FDEFFF00000000
(1790244023.543712) can0 18A#ECCDF2470E
(1790244023.553269) can0 18A#ECCDF2470E
(1790244023.563546) can0 38A#000005
(1790244023.563996) can0 28A#10FDEAFF00000000
(1790244023.564353) can0 18A#ECCDF2470E
(1790244023.573200) can0 18A#ECCDF2470E
(1790244023.583506) can0 28A#10FDE6FF00000000
(1790244023.585221) can0 18A#ECCEF2470E
(1790244023.593416) can0 18A#ECCFF2470E
(1790244023.603158) can0 28A#10FDE3FF00000000
(1790244023.603925) can0 18A#ECCFF2470E
(1790244023.613012) can0 38A#000005
(1790244023.614061) can0 18A#ECCFF3460E
(1790244023.623223) can0 28A#10FDDEFF00000000
(1790244023.623635) can0 18A#EDCFF2460E
(1790244023.633197) can0 18A#EDCFF2460E
(1790244023.642693) can0 28A#10FDDBFF00000000
(1790244023.643117) can0 18A#EDD0F3460E
(1790244023.653028) can0 18A#EDD1F3460E
(1790244023.662551) can0 38A#000005
(1790244023.663047) can0 28A#10FDD7FF00000000
(1790244023.663415) can0 18A#ECD1F3460E
(1790244023.672450) can0 18A#ECD1F3460E
(1790244023.682977) can0 28A#10FDD2FF00000000
(1790244023.683518) can0 18A#EDD2F3450E
(1790244023.692311) can0 18A#EDD2F3450E
(1790244023.702357) can0 28A#10FDCFFF00000000
(1790244023.702869) can0 18A#EDD2F3450E
(1790244023.712522) can0 38A#000005
(1790244023.713034) can0 18A#EDD3F3450E
(1790244023.722492) can0 28A#10FDCCFF00000000
(1790244023.730289) can0 18A#EDD3F4450E
(1790244023.732325) can0 18A#EED4F3450E
(1790244023.742439) can0 28A#10FDC8FF00000000
(1790244023.742950) can0 18A#EED4F3440E
(1790244023.752047) can0 18A#EDD4F4440E
(1790244023.761855) can0 38A#000005
(1790244023.762389) can0 28A#10FDC6FF00000000
(1790244023.762972) can0 18A#EDD5F4440E
(1790244023.773148) can0 18A#EED7F3430E
(1790244023.782152) can0 28A#10FDC4FF00000000
(1790244023.783195) can0 18A#EED7F3430E
(1790244023.791692) can0 18A#EED8F3420E
(1790244023.802056) can0 28A#10FDC3FF00000000
(1790244023.802529) can0 18A#EEF0F40F0E
(1790244023.811507) can0 38A#000005
(1790244023.812043) can0 18A#EEF0F4020E
(1790244023.821596) can0 28A#10FDC3FF00000000
(1790244023.822101) can0 18A#EFF0F3F70E
(1790244023.831904) can0 18A#EFF0F3F20E
(1790244023.841403) can0 28A#10FDC2FF00000000
(1790244023.841790) can0 18A#EFF0F3F10E
(1790244023.851322) can0 18A#EFF0F3EF0E
(1790244023.861544) can0 38A#000005
(1790244023.862053) can0 28A#10FDC1FF00000000
(1790244023.862650) can0 18A#EFF0F3EF0E
(1790244023.871155) can0 18A#EFF0F3EF0E
(1790244023.881383) can0 28A#10FDC1FF00000000
(1790244023.882969) can0 18A#EFF0F3EE0E
(1790244023.891396) can0 18A#EFF0F2EE0E
(1790244023.901163) can0 28A#10FDC0FF00000000
(1790244023.901890) can0 18A#EFF0F3EE0E
(1790244023.910938) can0 38A#000005
(1790244023.911816) can0 18A#EFF0F3EF0E
(1790244023.921359) can0 28A#10FDBFFF00000000
(1790244023.922012) can0 18A#EFF0F3EF0E
(1790244023.931195) can0 18A#EFF0F3EF0E
(1790244023.940902) can0 28A#10FDBFFF00000000
(1790244023.941914) can0 18A#F0F1F2EF0E
(1790244023.951068) can0 18A#F0F1F2EF0E
(1790244023.960653) can0 38A#000005
(1790244023.961509) can0 28A#10FDBDFF00000000
(1790244023.962143) can0 18A#F0F1F3EF0E
(1790244023.970513) can0 18A#F0F1F3EF0E
(1790244023.981380) can0 28A#10FDBCFF00000000
(1790244023.983120) can0 18A#F0F1F2EF0E
(1790244023.990419) can0 18A#F0F1F2EF0E
(1790244024.000497) can0 28A#10FDBDFF00000000
(1790244024.001305) can0 18A#F0F1F2EF0E
(1790244024.010648) can0 38A#000005
(1790244024.011380) can0 18A#F0F1F2EF0E
(1790244024.020278) can0 28A#10FDBDFF00000000
(1790244024.020815) can0 18A#F1F1F2EF0E
(1790244024.030214) can0 18A#F1F2F2EF0E
(1790244024.040401) can0 28A#10FDBCFF00000000
(1790244024.040754) can0 18A#F1F2F2EF0E
(1790244024.049950) can0 18A#F1F2F2EF0E
(1790244024.059780) can0 38A#000005
(1790244024.060179) can0 28A#10FDBCFF00000000
(1790244024.060511) can0 18A#F1F2F2EF0E
(1790244024.070178) can0 18A#F1F3F2EF0E
(1790244024.080192) can0 28A#1AFDBFFF00000000
(1790244024.080724) can0 18A#F2F3F2EF0E
(1790244024.089682) can0 18A#F2F3F2EF0E
(1790244024.100009) can0 28A#20FDBBFF00000000
(1790244024.100449) can0 18A#F2F3F2EF0E
(1790244024.109421) can0 38A#000005
(1790244024.109938) can0 18A#F2F3F2EF0E
(1790244024.119529) can0 28A#15FDBAFF00000000
(1790244024.119932) can0 18A#F2F3F3EF0E
(1790244024.130167) can0 18A#F2F3F3EF0E
(1790244024.139366) can0 28A#2AFDB9FF00000000
(1790244024.139850) can0 18A#F2F3F2EF0E
(1790244024.149334) can0 18A#F2F4F2EF0E
(1790244024.159480) can0 70A#05
(1790244024.159966) can0 38A#000005
(1790244024.160512) can0 28A#3AFDBAFF00000000
(1790244024.169209) can0 18A#F2F4F3EF0E
(1790244024.179446) can0 28A#3AFDB8FF00000000
(1790244024.180408) can0 18A#F3F4F2F00E
(1790244024.189584) can0 18A#F3F4F2F00E
(1790244024.199040) can0 28A#44FDBAFF00000000
(1790244024.199656) can0 18A#F3F4F2F00E
(1790244024.208880) can0 38A#000005
(1790244024.209618) can0 18A#F3F4F2F00E
(1790244024.219271) can0 28A#4AFDB9FF00000000
(1790244024.219878) can0 18A#F3F5F2EF0E
(1790244024.228903) can0 18A#F3F4F2EF0E
(1790244024.241101) can0 28A#4AFDB7FF00000000
(1790244024.244229) can0 18A#F3F5F3F00E
(1790244024.248946) can0 18A#F4F5F2F00C
(1790244024.258491) can0 38A#000005
(1790244024.259069) can0 28A#4FFDB6FF00000000
(1790244024.259521) can0 18A#F4F5F2F00C
(1790244024.268395) can0 18A#F4F5F3EF0C
(1790244024.279386) can0 28A#4FFDB5FF00000000
(1790244024.280046) can0 18A#F4F5F3F00C
(1790244024.288306) can0 18A#F4F5F2F00C
(1790244024.298610) can0 28A#54FDB5FF00000000
(1790244024.299368) can0 18A#F4F5F3F00C
(1790244024.308492) can0 38A#000005
(1790244024.309215) can0 18A#F4F6F3F00E
(1790244024.318263) can0 28A#5AFDB6FF00000000
(1790244024.318966) can0 18A#F4F6F3F00C
(1790244024.328685) can0 18A#F4F5F3F00C
(1790244024.338331) can0 28A#5FFDB5FF00000000
(1790244024.338867) can0 18A#F5F6F3F00C
(1790244024.347939) can0 18A#F5F6F3F00C
(1790244024.357740) can0 38A#000005
(1790244024.358265) can0 28A#5FFDB4FF00000000
(1790244024.358708) can0 18A#F5F6F3F00C
(1790244024.368045) can0 18A#F5F6F4F00C
(1790244024.378021) can0 28A#64FDB3FF00000000
(1790244024.379353) can0 18A#F5F6F3F00C
(1790244024.387734) can0 18A#F5F7F3F00C
(1790244024.398036) can0 28A#64FDB2FF00000000
(1790244024.398703) can0 18A#F5F6F3F00C
(1790244024.407507) can0 38A#000005
(1790244024.408254) can0 18A#F6F7F3F00C
(1790244024.417440) can0 28A#6FFDB2FF00000000
(1790244024.417928) can0 18A#F6F7F3F00C
(1790244024.428024) can0 18A#F6F7F3F10C
(1790244024.437298) can0 28A#6FFDB2FF00000000
(1790244024.437750) can0 18A#F6F7F3F10C
(1790244024.447230) can0 18A#F6F7F3F00C
(1790244024.457457) can0 38A#000005
(1790244024.458139) can0 28A#74FDB3FF00000000
(1790244024.458723) can0 18A#F6F8F3F00C
(1790244024.467185) can0 18A#F6F8F3F00C
(1790244024.477554) can0 28A#74FDB1FF00000000
(1790244024.478853) can0 18A#F6F8F4F10C
(1790244024.487272) can0 18A#F7F8F3F10C
(1790244024.497008) can0 28A#79FDB0FF00000000
(1790244024.497618) can0 18A#F7F8F3F10C
(1790244024.506735) can0 38A#000005
(1790244024.507419) can0 18A#F7F8F3F10C
(1790244024.517200) can0 28A#79FDAFFF00000000
(1790244024.517837) can0 18A#F7F8F4F10C
(1790244024.527082) can0 18A#F7F8F4F10C
(1790244024.537575) can0 28A#7EFDAFFF00000000
(1790244024.538413) can0 18A#F8F8F3F10C
(1790244024.547387) can0 18A#F8F9F3F104
(1790244024.556484) can0 38A#000005
(1790244024.559179) can0 28A#84FDAFFF00000000
(1790244024.559805) can0 18A#F8F9F3F20C
(1790244024.566321) can0 18A#F7F9F4F104
(1790244024.576882) can0 28A#84FDB0FF00000000
(1790244024.577886) can0 18A#F8F9F3F10C
(1790244024.586168) can0 18A#F8F9F3F104
(1790244024.596159) can0 28A#0000000000000000
(1790244024.596563) can0 18A#F8F9F4F204
(1790244024.606404) can0 38A#000005
(1790244024.606894) can0 18A#F9FAF3F104
(1790244024.616073) can0 28A#0000000000000000
(1790244024.616624) can0 18A#F8FAF4F104
(1790244024.626185) can0 18A#F9FAF4F204
(1790244024.636288) can0 28A#0000000000000000
(1790244024.636751) can0 18A#F9FAF4F204
(1790244024.645872) can0 18A#F9FAF3F20C
(1790244024.655652) can0 38A#000005
(1790244024.656075) can0 28A#0000000000000000
(1790244024.656416) can0 18A#F9FAF3F204
(1790244024.665893) can0 18A#F9FAF3F204
(1790244024.675851) can0 28A#0000000000000000
(1790244024.677156) can0 18A#F9FBF3F104
(1790244024.685497) can0 18A#F9FAF4F204
(1790244024.695862) can0 28A#0000000000000000
(1790244024.696314) can0 18A#F9FAF3F204
(1790244024.705271) can0 38A#000005
(1790244024.705724) can0 18A#F9FAF3F204
(1790244024.715415) can0 28A#0000000000000000
(1790244024.715966) can0 18A#F9FAF4F204
(1790244024.725799) can0 18A#F9FAF4F204
(1790244024.735278) can0 28A#0000000000000000
(1790244024.735930) can0 18A#F9FAF4F204
(1790244024.745222) can0 18A#F9FAF4F204
(1790244024.758289) can0 38A#000005
(1790244024.759318) can0 28A#0000000000000000
(1790244024.760229) can0 18A#F9FAF4F204
(1790244024.764894) can0 18A#F9FAF4F204
(1790244024.775244) can0 28A#0000000000000000
(1790244024.776301) can0 18A#F9FAF4F204
(1790244024.785130) can0 18A#F9FAF4F204
(1790244024.794819) can0 28A#0000000000000000
(1790244024.795246) can0 18A#F9FAF4F204
(1790244024.804577) can0 38A#000005
(1790244024.805011) can0 18A#F9FAF4F204
(1790244024.814895) can0 28A#0000000000000000
(1790244024.815248) can0 18A#F9FAF4F204
(1790244024.824780) can0 18A#F9FAF4F204
(1790244024.834552) can0 28A#0000000000000000
(1790244024.835033) can0 18A#F9FAF4F204
(1790244024.844825) can0 18A#F9FAF4F204
(1790244024.854221) can0 38A#000005
(1790244024.854702) can0 28A#0000000000000000
(1790244024.855145) can0 18A#F9FAF4F204
(1790244024.864242) can0 18A#F9FBF4F10C
(1790244024.875340) can0 28A#99FDB0FF00000000
(1790244024.875978) can0 18A#FAFBF4F10C
(1790244024.884137) can0 18A#FAFBF3F10C
(1790244024.894173) can0 28A#99FDB1FF00000000
(1790244024.894802) can0 18A#FAFBF3F10C
(1790244024.904392) can0 38A#000005
(1790244024.905219) can0 18A#FAFBF3F10C
(1790244024.914010) can0 28A#9EFDB3FF00000000
(1790244024.914640) can0 18A#FAFBF3F00C
(1790244024.924006) can0 18A#FAFBF3F00C
(1790244024.934259) can0 28A#9EFDB5FF00000000
(1790244024.934796) can0 18A#FAFBF2F00C
(1790244024.943768) can0 18A#FAFBF3F00C
(1790244024.953568) can0 38A#000005
(1790244024.954161) can0 28A#A3FDB7FF00000000
(1790244024.954754) can0 18A#FAFCF3F00C
(1790244024.963981) can0 18A#FAFCF3F00C
(1790244024.973804) can0 28A#A3FDB8FF00000000
(1790244024.975683) can0 18A#FAFCF3F00C
(1790244024.983405) can0 18A#FAFCF3F00E
(1790244024.994047) can0 28A#A8FDBBFF00000000
(1790244024.994602) can0 18A#FBFBF2F00E
(1790244025.003270) can0 38A#000005
(1790244025.003962) can0 18A#FBFCF2EF0E
(1790244025.013338) can0 28A#A8FDBDFF00000000
(1790244025.013946) can0 18A#FBFCF2EF0E
(1790244025.023574) can0 18A#FBFCF2EF0E
(1790244025.033097) can0 28A#AEFDBFFF00000000
(1790244025.033466) can0 18A#FBFCF2EF0E
(1790244025.042988) can0 18A#FBFCF2EE0E
(1790244025.053167) can0 38A#000005
(1790244025.053589) can0 28A#AEFDC2FF00000000
(1790244025.053947) can0 18A#FBFCF1EE0E
(1790244025.062893) can0 18A#FBFCF2EE0E
(1790244025.073526) can0 28A#B3FDC4FF00000000
(1790244025.075071) can0 18A#FBFCF2EE0E
(1790244025.083070) can0 18A#FBFCF2EE0E
(1790244025.092767) can0 28A#B3FDC6FF00000000
(1790244025.093328) can0 18A#FBFCF2EE0E
(1790244025.102519) can0 38A#000005
(1790244025.102976) can0 18A#FBFDF2ED0E
(1790244025.112851) can0 28A#B8FDCAFF00000000
(1790244025.113234) can0 18A#FBFDF2ED0E
(1790244025.122449) can0 18A#FCFDF1ED0E
(1790244025.133821) can0 28A#B8FDCCFF00000000
(1790244025.135314) can0 18A#FCFDF1ED0E
(1790244025.142604) can0 18A#FCFDF1EC0E
(1790244025.152716) can0 70A#05
(1790244025.154584) can0 38A#000005
(1790244025.155658) can0 28A#BEFDCFFF00000000
(1790244025.163115) can0 18A#FCFDF1EC0E
(1790244025.172525) can0 28A#BEFDD2FF00000000
(1790244025.174630) can0 18A#FCFDF1EC0E
(1790244025.182959) can0 18A#FCFDF1EC0E
(1790244025.193078) can0 28A#C3FDD5FF00000000
(1790244025.195071) can0 18A#FCFDF1EC0E
(1790244025.203522) can0 38A#000005
(1790244025.205350) can0 18A#FDFDF0EC0E
(1790244025.212511) can0 28A#C3FDD8FF00000000
(1790244025.215078) can0 18A#FDFEF0EC0E
(1790244025.221683) can0 18A#FDFEF0EC0E
(1790244025.233938) can0 28A#C8FDDCFF00000000
(1790244025.235792) can0 18A#FDFEF0EB0E
(1790244025.241692) can0 18A#FDFEF0EB0E
(1790244025.252669) can0 38A#000005
(1790244025.254804) can0 28A#C8FDE0FF00000000
(1790244025.255702) can0 18A#FCFEF0EB0E
(1790244025.261785) can0 18A#FDFEF0EB0E
(1790244025.272082) can0 28A#CDFDE3FF00000000
(1790244025.273592) can0 18A#FDFEF0EB0E
(1790244025.281337) can0 18A#FDFDF0200E
(1790244025.292518) can0 28A#CDFDE7FF00000000
(1790244025.294367) can0 18A#FDF5F0350E
(1790244025.302201) can0 38A#000005
(1790244025.304393) can0 18A#FDF1F03A0E
(1790244025.311973) can0 28A#CDFDEBFF00000000
(1790244025.313688) can0 18A#FDECF03F0E
(1790244025.321238) can0 18A#FDEAF0410E
(1790244025.330982) can0 28A#D3FDEEFF00000000
(1790244025.331441) can0 18A#FDE9F0410E
(1790244025.340826) can0 18A#FEE9EF420E
(1790244025.351016) can0 38A#000005
(1790244025.351384) can0 28A#D3FDF3FF00000000
(1790244025.351692) can0 18A#FEE9EF420E
(1790244025.360662) can0 18A#FEE9EF420E
(1790244025.370839) can0 28A#D8FDF7FF00000000
(1790244025.371587) can0 18A#FEE9EF420E
(1790244025.380833) can0 18A#FEE9EF420E
(1790244025.390500) can0 28A#D8FDFBFF00000000
(1790244025.390921) can0 18A#FEE9EF420E
(1790244025.400283) can0 38A#000005
(1790244025.400737) can0 18A#FEE9EF420E
(1790244025.410718) can0 28A#DDFD000000000000
(1790244025.411180) can0 18A#FEE9EF420E
(1790244025.420427) can0 18A#FEE9EE420E
(1790244025.430304) can0 28A#D3FD020000000000
(1790244025.431118) can0 18A#FEE9EE420E
(1790244025.440496) can0 18A#FEE9EE420E
(1790244025.450067) can0 38A#000005
(1790244025.450864) can0 28A#D3FD060000000000
(1790244025.451536) can0 18A#FEE9EE420E
(1790244025.459929) can0 18A#FEE9EE420E
(1790244025.470818) can0 28A#D3FD0B0000000000
(1790244025.471437) can0 18A#FEE9EE420E
(1790244025.479714) can0 18A#FEE9EE420E
(1790244025.489846) can0 28A#D3FD0E0000000000
(1790244025.490286) can0 18A#FEE9EE420E
(1790244025.499911) can0 38A#000005
(1790244025.500387) can0 18A#FFE9ED420E
(1790244025.509733) can0 28A#D8FD120000000000
(1790244025.510263) can0 18A#FFE9ED420E
(1790244025.519629) can0 18A#FFE9ED420E
(1790244025.529987) can0 28A#D8FD170000000000
(1790244025.530829) can0 18A#FFEAED420E
(1790244025.539469) can0 18A#FFEAED420E
(1790244025.549309) can0 38A#000005
(1790244025.549852) can0 28A#D8FD1B0000000000
(1790244025.550349) can0 18A#FFEAEC420E
(1790244025.559596) can0 18A#FFEAEC420E
(1790244025.569477) can0 28A#D8FD1E0000000000
(1790244025.571215) can0 18A#FFEAEC420E
(1790244025.579167) can0 18A#00EAEC420E
(1790244025.589530) can0 28A#D8FD230000000000
(1790244025.590108) can0 18A#00EAEC420E
(1790244025.598919) can0 38A#000005
(1790244025.599529) can0 18A#00EAEC420E
(1790244025.609016) can0 28A#D8FD260000000000
(1790244025.609612) can0 18A#00EAEC420E
(1790244025.619316) can0 18A#FFEAEC420E
(1790244025.628838) can0 28A#D8FD290000000000
(1790244025.629384) can0 18A#FFEAEC420E
(1790244025.638714) can0 18A#FFEBEC420E
(1790244025.648966) can0 38A#000005
(1790244025.649497) can0 28A#DDFD2E0000000000
(1790244025.649945) can0 18A#00EAEC420E
(1790244025.658503) can0 18A#FFEBED420E
(1790244025.668752) can0 28A#DDFD310000000000
(1790244025.669889) can0 18A#00EBED420E
(1790244025.678662) can0 18A#00EBED420E
(1790244025.688380) can0 28A#DDFD340000000000
(1790244025.688847) can0 18A#00EBED420E
(1790244025.698192) can0 38A#000005
(1790244025.698802) can0 18A#00EBEC420E
(1790244025.708616) can0 28A#DDFD380000000000
(1790244025.709284) can0 18A#00EBEC420E
(1790244025.718830) can0 18A#00EBEC420E
(1790244025.728168) can0 28A#DDFD3B0000000000
(1790244025.728785) can0 18A#00EBED420E
(1790244025.738726) can0 18A#00EBED420E
(1790244025.747952) can0 38A#000005
(1790244025.748416) can0 28A#DDFD3E0000000000
(1790244025.748770) can0 18A#00EBED420E
(1790244025.757805) can0 18A#00EBED420E
(1790244025.768480) can0 28A#DDFD410000000000
(1790244025.768960) can0 18A#00EBED420E
(1790244025.777579) can0 18A#00EBED420E
(1790244025.787648) can0 28A#DDFD440000000000
(1790244025.788074) can0 18A#00EBEC420E
(1790244025.797791) can0 38A#000005
(1790244025.798412) can0 18A#00EBEC420E
(1790244025.807478) can0 28A#D8FD460000000000
(1790244025.807894) can0 18A#00EBEC420E
(1790244025.817570) can0 18A#00ECEC410E
(1790244025.827758) can0 28A#D8FD490000000000
(1790244025.828394) can0 18A#00ECEC410E
(1790244025.837236) can0 18A#00ECEC410E
(1790244025.847085) can0 38A#000005
(1790244025.847522) can0 28A#D8FD4B0000000000
(1790244025.848059) can0 18A#00EBEC410E
(1790244025.857426) can0 18A#00ECEC410E
(1790244025.867368) can0 28A#D8FD4D0000000000
(1790244025.868485) can0 18A#00ECEC410E
(1790244025.876931) can0 18A#00ECEC410E
(1790244025.887374) can0 28A#D8FD500000000000
(1790244025.888114) can0 18A#00ECEC410E
(1790244025.896810) can0 38A#000005
(1790244025.897656) can0 18A#00ECEC410E
(1790244025.906862) can0 28A#0000000000000000
(1790244025.907456) can0 18A#00ECEC4106
(1790244025.917310) can0 18A#00ECEC4106
(1790244025.926806) can0 28A#0000000000000000
(1790244025.927650) can0 18A#00ECEC4106
(1790244025.936626) can0 18A#01ECEC4106
(1790244025.946772) can0 38A#000005
(1790244025.947407) can0 28A#0000000000000000
(1790244025.948271) can0 18A#01ECEC4106
(1790244025.956382) can0 18A#01ECEC4106
(1790244025.966526) can0 28A#0000000000000000
(1790244025.968729) can0 18A#01ECEC4106
(1790244025.976538) can0 18A#01ECEB4106
(1790244025.986218) can0 28A#0000000000000000
(1790244025.986912) can0 18A#01ECEB4106
(1790244025.996088) can0 38A#000005
(1790244025.996677) can0 18A#01ECEB4106
(1790244026.006464) can0 28A#0000000000000000
(1790244026.007029) can0 18A#01ECEB4106
(1790244026.016271) can0 18A#01ECEB4106
(1790244026.025954) can0 28A#0000000000000000
(1790244026.026601) can0 18A#01ECEB4106
(1790244026.036190) can0 18A#01ECEB4106
(1790244026.045678) can0 38A#000005
(1790244026.046357) can0 28A#0000000000000000
(1790244026.046880) can0 18A#01ECEB4106
(1790244026.055955) can0 18A#01ECEB4106
(1790244026.066118) can0 28A#0000000000000000
(1790244026.066627) can0 18A#01ECEA4106
(1790244026.075414) can0 18A#01ECEA4106
(1790244026.085664) can0 28A#0000000000000000
(1790244026.086212) can0 18A#01ECEA4106
(1790244026.095784) can0 38A#000005
(1790244026.096415) can0 18A#01EDEA4106
(1790244026.105289) can0 28A#0000000000000000
(1790244026.105767) can0 18A#01EDEA4106
(1790244026.115309) can0 18A#01EDEA4106
(1790244026.125472) can0 28A#0000000000000000
(1790244026.125906) can0 18A#01EDEA4106
(1790244026.135038) can0 18A#01EDEA4106
(1790244026.144822) can0 70A#05
(1790244026.145317) can0 38A#000005
(1790244026.145726) can0 28A#0000000000000000
(1790244026.155179) can0 18A#02EDE94106
(1790244026.164879) can0 28A#0000000000000000
(1790244026.165825) can0 18A#02EDE94106
(1790244026.174675) can0 18A#02EDE94106
(1790244026.185042) can0 28A#0000000000000000
(1790244026.185535) can0 18A#02EDE94106
(1790244026.194550) can0 38A#000005
(1790244026.195086) can0 18A#02EDE94106
(1790244026.204718) can0 28A#0000000000000000
(1790244026.205302) can0 18A#02EDE84106
(1790244026.215719) can0 18A#02EDE84106
(1790244026.224414) can0 28A#0000000000000000
(1790244026.224932) can0 18A#02EDE84106
(1790244026.234403) can0 18A#02EDE84106
(1790244026.244602) can0 38A#000005
(1790244026.245315) can0 28A#0000000000000000
(1790244026.245926) can0 18A#03EDE84106
(1790244026.254206) can0 18A#03EDE84106
(1790244026.264466) can0 28A#0000000000000000
(1790244026.266710) can0 18A#02EDE74106
(1790244026.274353) can0 18A#03EDE74106
(1790244026.284211) can0 28A#0000000000000000
(1790244026.285133) can0 18A#03EDE74106
(1790244026.293802) can0 38A#000005
(1790244026.294181) can0 18A#03EDE74106
(1790244026.304207) can0 28A#0000000000000000
(1790244026.304718) can0 18A#03EDE74106
(1790244026.314089) can0 18A#03EDE74106
(1790244026.323711) can0 28A#0000000000000000
(1790244026.324216) can0 18A#03EDE74106
(1790244026.333934) can0 18A#03EDE64106
(1790244026.343454) can0 38A#000005
(1790244026.343885) can0 28A#0000000000000000
(1790244026.344260) can0 18A#03EDE64106
(1790244026.353354) can0 18A#03EDE64106
(1790244026.363832) can0 28A#0000000000000000
(1790244026.364755) can0 18A#03EDE64106
(1790244026.373226) can0 18A#03EDE64106
(1790244026.383378) can0 28A#0000000000000000
(1790244026.384007) can0 18A#03EDE64106
(1790244026.393380) can0 38A#000005
(1790244026.393864) can0 18A#03EDE64106
(1790244026.403046) can0 28A#0000000000000000
(1790244026.403432) can0 18A#03EDE64106
(1790244026.413156) can0 18A#03EDE64106
(1790244026.423427) can0 28A#0000000000000000
(1790244026.423946) can0 18A#03EDE54106
(1790244026.432800) can0 18A#03EDE54106
(1790244026.442728) can0 38A#000005
(1790244026.443371) can0 28A#0000000000000000
(1790244026.443871) can0 18A#03EDE54106
(1790244026.453098) can0 18A#03EDE54106
(1790244026.463240) can0 28A#0000000000000000
(1790244026.465629) can0 18A#03EDE54106
(1790244026.472615) can0 18A#03EDE54106
(1790244026.482912) can0 28A#0000000000000000
(1790244026.483811) can0 18A#03EDE54106
(1790244026.492379) can0 38A#000005
(1790244026.493116) can0 18A#03EDE54106
(1790244026.502527) can0 28A#0000000000000000
(1790244026.503314) can0 18A#03EDE44106
(1790244026.513293) can0 18A#03EDE44106
(1790244026.522210) can0 28A#0000000000000000
(1790244026.522738) can0 18A#03EDE44106
(1790244026.532107) can0 18A#03EDE44106
(1790244026.542312) can0 38A#000005
(1790244026.542886) can0 28A#0000000000000000
(1790244026.543362) can0 18A#04EDE44106
(1790244026.551928) can0 18A#04EDE34106
(1790244026.562271) can0 28A#0000000000000000
(1790244026.563790) can0 18A#03EDE34106
(1790244026.572210) can0 18A#04EDE34106
(1790244026.581768) can0 28A#0000000000000000
(1790244026.582260) can0 18A#03EDE44106
(1790244026.591493) can0 38A#000005
(1790244026.591866) can0 18A#04EDE34106
(1790244026.601875) can0 28A#0000000000000000
(1790244026.602288) can0 18A#03EDE34106
(1790244026.611516) can0 18A#03EDE34106
(1790244026.621440) can0 28A#0000000000000000
(1790244026.621914) can0 18A#0339E31906
(1790244026.631697) can0 18A#033BE30906
(1790244026.641204) can0 38A#000005
(1790244026.641749) can0 28A#0000000000000000
(1790244026.642139) can0 18A#033BE30606
(1790244026.651087) can0 18A#033BE30206
(1790244026.661552) can0 28A#0000000000000000
(1790244026.662723) can0 18A#033BE30006
(1790244026.670888) can0 18A#033BE30006
(1790244026.680994) can0 28A#0000000000000000
(1790244026.681427) can0 18A#033BE30006
(1790244026.691149) can0 38A#000005
(1790244026.691721) can0 18A#033BE30006
(1790244026.700865) can0 28A#0000000000000000
(1790244026.701414) can0 18A#033BE30006
(1790244026.710988) can0 18A#043BE30006
(1790244026.721111) can0 28A#0000000000000000
(1790244026.721845) can0 18A#043BE20006
(1790244026.730652) can0 18A#043BE20006
(1790244026.740494) can0 38A#000005
(1790244026.741152) can0 28A#0000000000000000
(1790244026.741657) can0 18A#043BE20006
(1790244026.750766) can0 18A#043BE20006
(1790244026.761037) can0 28A#0000000000000000
(1790244026.762937) can0 18A#043BE20006
(1790244026.770445) can0 18A#043BE20006
(1790244026.780666) can0 28A#0000000000000000
(1790244026.781426) can0 18A#043BE20006
(1790244026.790165) can0 38A#000005
(1790244026.790891) can0 18A#043BE20006
(1790244026.800128) can0 28A#0000000000000000
(1790244026.800757) can0 18A#043BE20006
(1790244026.810486) can0 18A#043BE20006
(1790244026.819909) can0 28A#0000000000000000
(1790244026.820381) can0 18A#043BE20006
(1790244026.829923) can0 18A#043BE20006
(1790244026.840127) can0 38A#000005
(1790244026.841042) can0 28A#0000000000000000
(1790244026.841787) can0 18A#043BE20006
(1790244026.849645) can0 18A#043BE20006
(1790244026.859764) can0 28A#0000000000000000
(1790244026.860852) can0 18A#043BE20006
(1790244026.869763) can0 18A#043BE20006
(1790244026.879470) can0 28A#0000000000000000
(1790244026.879859) can0 18A#043BE20006
(1790244026.889262) can0 38A#000005
(1790244026.889740) can0 18A#033BE20006
(1790244026.899729) can0 28A#0000000000000000
(1790244026.900277) can0 18A#033BE20006
(1790244026.909535) can0 18A#033BE20006
(1790244026.919288) can0 28A#0000000000000000
(1790244026.920190) can0 18A#033BE20006
(1790244026.929615) can0 18A#033BE20006
(1790244026.939021) can0 38A#000005
(1790244026.939787) can0 28A#0000000000000000
(1790244026.940385) can0 18A#033BE20006
(1790244026.949131) can0 18A#033BE20006
(1790244026.959571) can0 28A#0000000000000000
(1790244026.961022) can0 18A#033BE20006
(1790244026.968829) can0 18A#033BE20006
(1790244026.979099) can0 28A#0000000000000000
(1790244026.980189) can0 18A#033BE20006
(1790244026.989187) can0 38A#000005
(1790244026.990633) can0 18A#033BE20006
(1790244026.998592) can0 28A#0000000000000000
(1790244026.999028) can0 18A#033BE20006
(1790244027.008477) can0 18A#033BE20006
(1790244027.018815) can0 28A#0000000000000000
(1790244027.019187) can0 18A#033BE20006
(1790244027.028248) can0 18A#033BE20006
(1790244027.038128) can0 38A#000005
(1790244027.038614) can0 28A#0000000000000000
(1790244027.039037) can0 18A#023BE30006
(1790244027.048512) can0 18A#023BE30006
(1790244027.058487) can0 28A#0000000000000000
(1790244027.060049) can0 18A#023BE30006
(1790244027.068481) can0 18A#023BE30006
(1790244027.078657) can0 28A#0000000000000000
(1790244027.080845) can0 18A#023BE30006
(1790244027.087808) can0 38A#000005
(1790244027.088204) can0 18A#033BE20006
(1790244027.098481) can0 28A#0000000000000000
(1790244027.099128) can0 18A#033BE20006
(1790244027.108486) can0 18A#033BE20006
(1790244027.117787) can0 28A#0000000000000000
(1790244027.118502) can0 18A#033BE20006
(1790244027.127537) can0 18A#033BE20006
(1790244027.137674) can0 70A#05
(1790244027.137969) can0 38A#000005
(1790244027.138297) can0 28A#0000000000000000
(1790244027.147350) can0 18A#033BE20006
(1790244027.157476) can0 28A#0000000000000000
(1790244027.158533) can0 18A#033BE20006
(1790244027.167523) can0 18A#033BE20006
(1790244027.177499) can0 28A#0000000000000000
(1790244027.178136) can0 18A#033BE20006
(1790244027.187016) can0 38A#000005
(1790244027.187522) can0 18A#033BE20006
(1790244027.197373) can0 28A#0000000000000000
(1790244027.197803) can0 18A#033BE20006
(1790244027.206856) can0 18A#033BE20006
(1790244027.216938) can0 28A#0000000000000000
(1790244027.217415) can0 18A#033BE20006
(1790244027.227038) can0 18A#033BE20006
(1790244027.236557) can0 38A#000005
(1790244027.236886) can0 28A#0000000000000000
(1790244027.237136) can0 18A#033BE20006
(1790244027.246549) can0 18A#033BE20006
(1790244027.257160) can0 28A#0000000000000000
(1790244027.258019) can0 18A#033BE20006
(1790244027.266484) can0 18A#033BE20006
(1790244027.276567) can0 28A#0000000000000000
(1790244027.277166) can0 18A#033BE20006
(1790244027.286589) can0 38A#000005
(1790244027.287073) can0 18A#033BE20006
(1790244027.296290) can0 28A#0000000000000000
(1790244027.296712) can0 18A#033BE20006
(1790244027.306404) can0 18A#033BE20006
(1790244027.316531) can0 28A#0000000000000000
(1790244027.324519) can0 18A#033BE20006
(1790244027.329109) can0 18A#033BE20006
(1790244027.335877) can0 38A#000005
(1790244027.336349) can0 28A#0000000000000000
(1790244027.336890) can0 18A#033BE20006
(1790244027.346250) can0 18A#033BE20006
(1790244027.356136) can0 28A#0000000000000000
(1790244027.357857) can0 18A#033BE20006
(1790244027.365668) can0 18A#033BE20006
(1790244027.375983) can0 28A#0000000000000000
(1790244027.376390) can0 18A#033BE20006
(1790244027.385463) can0 38A#000005
(1790244027.385840) can0 18A#033BE20006
(1790244027.395590) can0 28A#0000000000000000
(1790244027.396224) can0 18A#033BE20006
(1790244027.406099) can0 18A#033BE20006
(1790244027.415431) can0 28A#0000000000000000
(1790244027.415895) can0 18A#033BE20006
(1790244027.425252) can0 18A#033BE20006
(1790244027.435529) can0 38A#000005
(1790244027.436170) can0 28A#0000000000000000
(1790244027.436762) can0 18A#033BE20006
(1790244027.445104) can0 18A#023BE20006
(1790244027.455393) can0 28A#0000000000000000
(1790244027.457732) can0 18A#033BE20006
(1790244027.465242) can0 18A#033BE20006
(1790244027.474914) can0 28A#0000000000000000
(1790244027.475362) can0 18A#033BE20006
(1790244027.484766) can0 38A#000005
(1790244027.485301) can0 18A#033BE20006
(1790244027.495035) can0 28A#0000000000000000
(1790244027.495474) can0 18A#033BE20006
(1790244027.504796) can0 18A#033BE20006
(1790244027.514683) can0 28A#0000000000000000
(1790244027.515363) can0 18A#033BE20006
(1790244027.524891) can0 18A#033BE20006
(1790244027.534359) can0 38A#000005
(1790244027.535086) can0 28A#0000000000000000
(1790244027.535592) can0 18A#033BE20006
(1790244027.544409) can0 18A#033BE20006
(1790244027.554931) can0 28A#0000000000000000
(1790244027.556730) can0 18A#033BE20006
(1790244027.566275) can0 18A#033BE20006
(1790244027.574132) can0 28A#0000000000000000
(1790244027.574532) can0 18A#033BE20006
(1790244027.584262) can0 38A#000005
(1790244027.584652) can0 18A#033BE20006
(1790244027.594064) can0 28A#0000000000000000
(1790244027.594639) can0 18A#033BE20006
(1790244027.603844) can0 18A#033BE20006
(1790244027.614249) can0 28A#0000000000000000
(1790244027.614797) can0 18A#033BE20006
(1790244027.623675) can0 18A#033BE20006
(1790244027.633503) can0 38A#000005
(1790244027.633892) can0 28A#0000000000000000
(1790244027.634214) can0 18A#033BE20006
(1790244027.643871) can0 18A#033BE20006
(1790244027.653600) can0 28A#0000000000000000
(1790244027.654865) can0 18A#033BE20006
(1790244027.663441) can0 18A#033BE20006
(1790244027.673927) can0 28A#0000000000000000
(1790244027.674752) can0 18A#033BE20006
(1790244027.683308) can0 38A#000005
(1790244027.684195) can0 18A#033BE20006
(1790244027.693344) can0 28A#0000000000000000
(1790244027.693997) can0 18A#033BE20006
(1790244027.703888) can0 18A#033BE20006
(1790244027.713101) can0 28A#0000000000000000
(1790244027.713514) can0 18A#033BE20006
(1790244027.722964) can0 18A#023BE30006
(1790244027.733109) can0 38A#000005
(1790244027.733485) can0 28A#0000000000000000
(1790244027.733796) can0 18A#033BE20006
(1790244027.742808) can0 18A#023BE30006
(1790244027.753179) can0 28A#0000000000000000
(1790244027.754287) can0 18A#023BE30006
(1790244027.762983) can0 18A#023BE30006
(1790244027.773570) can0 28A#0000000000000000
(1790244027.774010) can0 18A#023BE30006
(1790244027.782420) can0 38A#000005
(1790244027.782863) can0 18A#023BE30006
(1790244027.792819) can0 28A#0000000000000000
(1790244027.793303) can0 18A#023BE30006
(1790244027.802252) can0 18A#023BE30006
(1790244027.812251) can0 28A#0000000000000000
(1790244027.812647) can0 18A#023BE30006
(1790244027.822550) can0 18A#023BE30006
(1790244027.835805) can0 38A#000005
(1790244027.836787) can0 28A#0000000000000000
(1790244027.837464) can0 18A#023BE30006
(1790244027.841991) can0 18A#023BE30006
(1790244027.852683) can0 28A#0000000000000000
(1790244027.853627) can0 18A#023BE30006
(1790244027.861883) can0 18A#023BE30006
(1790244027.872030) can0 28A#0000000000000000
(1790244027.872613) can0 18A#023BE30006
(1790244027.882139) can0 38A#000005
(1790244027.882864) can0 18A#023BE30006
(1790244027.891861) can0 28A#0000000000000000
(1790244027.892447) can0 18A#023BE30006
(1790244027.901854) can0 18A#023BE30006
(1790244027.911932) can0 28A#0000000000000000
(1790244027.912590) can0 18A#023BE30006
(1790244027.921506) can0 18A#023BE30006
(1790244027.931368) can0 38A#000005
(1790244027.932074) can0 28A#0000000000000000
(1790244027.932676) can0 18A#023BE30006
(1790244027.941656) can0 18A#023BE30006
(1790244027.951391) can0 28A#0000000000000000
(1790244027.953212) can0 18A#023BE30006
(1790244027.961111) can0 18A#023BE30006
(1790244027.971468) can0 28A#0000000000000000
(1790244027.972049) can0 18A#023BE30006
(1790244027.980921) can0 38A#000005
(1790244027.981628) can0 18A#023BE30006
(1790244027.991037) can0 28A#0000000000000000
(1790244027.991691) can0 18A#033BE30006
(1790244028.001565) can0 18A#033BE20006
(1790244028.010861) can0 28A#0000000000000000
(1790244028.011526) can0 18A#033BE20006
(1790244028.020774) can0 18A#033BE20006
(1790244028.031048) can0 38A#000005
(1790244028.032146) can0 28A#0000000000000000
(1790244028.032883) can0 18A#033BE20006
(1790244028.040550) can0 18A#033BE20006
(1790244028.050671) can0 28A#0000000000000000
(1790244028.051882) can0 18A#033BE20006
(1790244028.060620) can0 18A#033BE20006
(1790244028.070275) can0 28A#0000000000000000
(1790244028.070678) can0 18A#033BE20006
(1790244028.080275) can0 38A#000005
(1790244028.080898) can0 18A#033BE20006
(1790244028.090725) can0 28A#0000000000000000
(1790244028.091496) can0 18A#033BE20006
(1790244028.100088) can0 18A#033BE20006
(1790244028.109983) can0 28A#0000000000000000
(1790244028.110396) can0 18A#033BE20006
(1790244028.120238) can0 18A#033BE20006
(1790244028.129648) can0 70A#05
(1790244028.129977) can0 38A#000005
(1790244028.130292) can0 28A#0000000000000000
(1790244028.139717) can0 18A#033BE20006
(1790244028.150069) can0 28A#0000000000000000
(1790244028.150635) can0 18A#033BE20006
(1790244028.159450) can0 18A#033BE20006
(1790244028.169572) can0 28A#0000000000000000
(1790244028.170048) can0 18A#033BE20006
(1790244028.179662) can0 38A#000005
(1790244028.180097) can0 18A#033BE20006
(1790244028.189380) can0 28A#0000000000000000
(1790244028.189851) can0 18A#033BE20006
(1790244028.199489) can0 18A#033BE20006
(1790244028.209636) can0 28A#0000000000000000
(1790244028.210301) can0 18A#033BE20006
(1790244028.219099) can0 18A#033BE20006
(1790244028.228986) can0 38A#000005
(1790244028.229497) can0 28A#0000000000000000
(1790244028.229842) can0 18A#033BE20006
(1790244028.239258) can0 18A#033BE20006
(1790244028.249000) can0 28A#0000000000000000
(1790244028.249467) can0 18A#033BE20006
(1790244028.258719) can0 18A#033BE20006
(1790244028.269099) can0 28A#0000000000000000
(1790244028.269532) can0 18A#033BE20006
(1790244028.278535) can0 38A#000005
(1790244028.279388) can0 18A#033BE20006
(1790244028.288792) can0 28A#0000000000000000
(1790244028.289424) can0 18A#033BE20006
(1790244028.299599) can0 18A#033BE20006
(1790244028.308431) can0 28A#0000000000000000
(1790244028.308919) can0 18A#033BE20006
(1790244028.318318) can0 18A#033BE20006
(1790244028.328439) can0 38A#000005
(1790244028.328807) can0 28A#0000000000000000
(1790244028.329132) can0 18A#033BE20006
(1790244028.338058) can0 18A#043BE20006
(1790244028.348122) can0 28A#0000000000000000
(1790244028.348712) can0 18A#033BE20006
(1790244028.358276) can0 18A#033BE20006
(1790244028.368023) can0 28A#0000000000000000
(1790244028.368667) can0 18A#043BE20006
(1790244028.377804) can0 38A#000005
(1790244028.378309) can0 18A#033BE20006
(1790244028.388174) can0 28A#0000000000000000
(1790244028.388627) can0 18A#043BE10006
(1790244028.397648) can0 18A#043BE10006
(1790244028.407654) can0 28A#0000000000000000
(1790244028.408131) can0 18A#033BE20006
(1790244028.417829) can0 18A#043BE10006
(1790244028.427419) can0 38A#000005
(1790244028.427961) can0 28A#0000000000000000
(1790244028.428325) can0 18A#033BE20006
(1790244028.437436) can0 18A#033BE20006
(1790244028.447924) can0 28A#0000000000000000
(1790244028.448713) can0 18A#033BE20006
(1790244028.457459) can0 18A#033BE20006
(1790244028.467958) can0 28A#0000000000000000
(1790244028.469857) can0 18A#033BE20006
(1790244028.477415) can0 38A#000005
(1790244028.479317) can0 18A#043BE20006
(1790244028.488655) can0 28A#0000000000000000
(1790244028.490558) can0 18A#033BE20006
(1790244028.497174) can0 18A#033BE20006
(1790244028.509309) can0 28A#0000000000000000
(1790244028.511130) can0 18A#043BE20006
(1790244028.517001) can0 18A#043BE20006
(1790244028.527429) can0 38A#000005
(1790244028.528552) can0 28A#0000000000000000
(1790244028.529460) can0 18A#043BE20006
(1790244028.537111) can0 18A#043BE20006
(1790244028.547032) can0 28A#0000000000000000
(1790244028.549466) can0 18A#043BE20006
(1790244028.556544) can0 18A#043BE20006
(1790244028.566745) can0 28A#0000000000000000
(1790244028.567187) can0 18A#043BE20006
(1790244028.576213) can0 38A#000005
(1790244028.576610) can0 18A#043BE20006
(1790244028.586186) can0 28A#0000000000000000
(1790244028.586575) can0 18A#043BE20006
(1790244028.596650) can0 18A#043BE20006
(1790244028.606022) can0 28A#0000000000000000
(1790244028.606369) can0 18A#043BE20006
(1790244028.615934) can0 18A#043BE20006
(1790244028.626113) can0 38A#000005
(1790244028.626524) can0 28A#0000000000000000
(1790244028.626903) can0 18A#043BE20006
(1790244028.635845) can0 18A#043BE20006
(1790244028.645945) can0 28A#0000000000000000
(1790244028.646554) can0 18A#043BE20006
(1790244028.655941) can0 18A#043BE20006
(1790244028.665645) can0 28A#0000000000000000
(1790244028.666220) can0 18A#043BE20006
(1790244028.675449) can0 38A#000005
(1790244028.675898) can0 18A#043BE20006
(1790244028.685854) can0 28A#0000000000000000
(1790244028.686368) can0 18A#043BE20006
(1790244028.695347) can0 18A#043BE20006
(1790244028.705381) can0 28A#0000000000000000
(1790244028.705915) can0 18A#043BE20006
(1790244028.715521) can0 18A#043BE20006
(1790244028.724977) can0 38A#000005
(1790244028.725407) can0 28A#0000000000000000
(1790244028.725664) can0 18A#043BE20006
(1790244028.734930) can0 18A#043BE20006
(1790244028.745392) can0 28A#0000000000000000
(1790244028.746564) can0 18A#043BE20006
(1790244028.754795) can0 18A#043BE20006
(1790244028.764819) can0 28A#0000000000000000
(1790244028.765366) can0 18A#043BE20006
(1790244028.774963) can0 38A#000005
(1790244028.775394) can0 18A#043BE20006
(1790244028.784660) can0 28A#0000000000000000
(1790244028.785064) can0 18A#043BE20006
(1790244028.794503) can0 18A#043BE20006
(1790244028.804884) can0 28A#0000000000000000
(1790244028.805823) can0 18A#043BE20006
(1790244028.814505) can0 18A#043BE20006
(1790244028.824251) can0 38A#000005
(1790244028.824641) can0 28A#0000000000000000
(1790244028.824921) can0 18A#043BE20006
(1790244028.834554) can0 18A#043BE20006
(1790244028.844161) can0 28A#0000000000000000
(1790244028.844895) can0 18A#043BE20006
(1790244028.861238) can0 18A#043BE20006
(1790244028.864377) can0 28A#0000000000000000
(1790244028.864713) can0 18A#043BE30006
(1790244028.873811) can0 38A#000005
(1790244028.874305) can0 18A#043BE30006
(1790244028.883903) can0 28A#0000000000000000
(1790244028.884465) can0 18A#043BE20006
(1790244028.894328) can0 18A#043BE20006
(1790244028.903720) can0 28A#0000000000000000
(1790244028.904241) can0 18A#043BE20006
(1790244028.913680) can0 18A#043BE20006
(1790244028.923905) can0 38A#000005
(1790244028.924657) can0 28A#0000000000000000
(1790244028.925209) can0 18A#043BE20006
(1790244028.933462) can0 18A#043BE20006
(1790244028.943733) can0 28A#0000000000000000
(1790244028.945619) can0 18A#043BE20006
(1790244028.953648) can0 18A#043BE20006
(1790244028.963321) can0 28A#0000000000000000
(1790244028.963853) can0 18A#043BE30006
(1790244028.973116) can0 38A#000005
(1790244028.973818) can0 18A#043BE30006
(1790244028.983445) can0 28A#0000000000000000
(1790244028.983889) can0 18A#043BE30006
(1790244028.993104) can0 18A#043BE30006
(1790244029.002974) can0 28A#0000000000000000
(1790244029.003451) can0 18A#043BE30006
(1790244029.013218) can0 18A#043BE20006
(1790244029.022751) can0 38A#000005
(1790244029.023238) can0 28A#0000000000000000
(1790244029.023692) can0 18A#043BE20006
(1790244029.032599) can0 18A#043BE20006
(1790244029.043210) can0 28A#0000000000000000
(1790244029.044172) can0 18A#043BE20006
(1790244029.052495) can0 18A#043BE20006
(1790244029.062545) can0 28A#0000000000000000
(1790244029.063211) can0 18A#043BE30006
(1790244029.072576) can0 38A#000005
(1790244029.072966) can0 18A#033BE30006
(1790244029.082302) can0 28A#0000000000000000
(1790244029.082747) can0 18A#033BE30006
(1790244029.092148) can0 18A#033BE30006
(1790244029.102602) can0 28A#0000000000000000
(1790244029.103189) can0 18A#033BE30006
(1790244029.112094) can0 18A#033BE30006
(1790244029.121910) can0 70A#05
(1790244029.122274) can0 38A#000005
(1790244029.122629) can0 28A#0000000000000000
(1790244029.132141) can0 18A#043BE30006
(1790244029.141787) can0 28A#0000000000000000
(1790244029.142445) can0 18A#043BE30006
(1790244029.151620) can0 18A#043BE30006
(1790244029.162092) can0 28A#0000000000000000
(1790244029.162602) can0 18A#043BE20006
(1790244029.171483) can0 38A#000005
(1790244029.172074) can0 18A#043BE30006
(1790244029.181568) can0 28A#0000000000000000
(1790244029.182044) can0 18A#043BE20006
(1790244029.192009) can0 18A#043BE30006
(1790244029.201438) can0 28A#0000000000000000
(1790244029.202089) can0 18A#043BE30006
(1790244029.211326) can0 18A#043BE30006
(1790244029.221472) can0 38A#000005
(1790244029.222125) can0 28A#0000000000000000
(1790244029.222667) can0 18A#043BE30006
(1790244029.231103) can0 18A#033BE30006
(1790244029.241412) can0 28A#0000000000000000
(1790244029.243109) can0 18A#033BE30006
(1790244029.251209) can0 18A#033BE30006
(1790244029.260968) can0 28A#0000000000000000
(1790244029.261558) can0 18A#033BE30006
(1790244029.270709) can0 38A#000005
(1790244029.271103) can0 18A#033BE30006
(1790244029.281013) can0 28A#0000000000000000
(1790244029.281403) can0 18A#043BE30006
(1790244029.290514) can0 18A#043BE30006
(1790244029.300591) can0 28A#0000000000000000
(1790244029.301061) can0 18A#033BE30006
(1790244029.310786) can0 18A#043BE30006
(1790244029.320319) can0 38A#000005
(1790244029.320691) can0 28A#0000000000000000
(1790244029.320967) can0 18A#043BE20006
(1790244029.330302) can0 18A#033BE30006
(1790244029.340912) can0 28A#0000000000000000
(1790244029.342362) can0 18A#03FEE32706
(1790244029.350126) can0 18A#04FBE33106
(1790244029.360211) can0 28A#0000000000000000
(1790244029.360686) can0 18A#04F4E33B06
(1790244029.370199) can0 38A#000005
(1790244029.370571) can0 18A#04F1E33E06
(1790244029.379891) can0 28A#0000000000000000
(1790244029.380288) can0 18A#04EFE33F06
(1790244029.389732) can0 18A#04EEE34006
(1790244029.400027) can0 28A#0000000000000000
(1790244029.400413) can0 18A#03EEE34106
(1790244029.409636) can0 18A#04EEE34106
(1790244029.419625) can0 38A#000005
(1790244029.420285) can0 28A#0000000000000000
(1790244029.420760) can0 18A#03EEE34106
(1790244029.429868) can0 18A#04EDE34106
(1790244029.439535) can0 28A#0000000000000000
(1790244029.440971) can0 18A#04EDE34106
(1790244029.449388) can0 18A#04EDE34106
(1790244029.459807) can0 28A#0000000000000000
(1790244029.460456) can0 18A#04EDE34106
(1790244029.469182) can0 38A#000005
(1790244029.469933) can0 18A#04EDE34106
(1790244029.479193) can0 28A#0000000000000000
(1790244029.479782) can0 18A#03EDE34106
(1790244029.489697) can0 18A#04EDE34106
(1790244029.499022) can0 28A#0000000000000000
(1790244029.499837) can0 18A#04EDE34106
(1790244029.508964) can0 18A#04EDE34106
(1790244029.518989) can0 38A#000005
(1790244029.519845) can0 28A#0000000000000000
(1790244029.520234) can0 18A#03EDE44106
(1790244029.528713) can0 18A#04EDE34106
(1790244029.538696) can0 28A#0000000000000000
(1790244029.540830) can0 18A#04EDE34106
(1790244029.548860) can0 18A#03EDE44106
(1790244029.558547) can0 28A#0000000000000000
(1790244029.559111) can0 18A#04EDE34106
(1790244029.568390) can0 38A#000005
(1790244029.569231) can0 18A#04EDE34106
(1790244029.578700) can0 28A#0000000000000000
(1790244029.579315) can0 18A#03EDE44106
(1790244029.588319) can0 18A#04EDE34106
(1790244029.598326) can0 28A#0000000000000000
(1790244029.598860) can0 18A#04EDE34106
(1790244029.608438) can0 18A#03EDE44106
(1790244029.617855) can0 38A#000005
(1790244029.618232) can0 28A#0000000000000000
(1790244029.618511) can0 18A#04EDE44106
(1790244029.627864) can0 18A#03EDE44106
(1790244029.638183) can0 28A#0000000000000000
(1790244029.639141) can0 18A#03EDE44106
(1790244029.647671) can0 18A#03EDE44106
(1790244029.657811) can0 28A#0000000000000000
(1790244029.658346) can0 18A#03EDE44106
(1790244029.667853) can0 38A#000005
(1790244029.668476) can0 18A#03EDE44106
(1790244029.677595) can0 28A#0000000000000000
(1790244029.678136) can0 18A#03EDE44106
(1790244029.687497) can0 18A#03EDE54106
(1790244029.697767) can0 28A#0000000000000000
(1790244029.698384) can0 18A#03EDE44106
(1790244029.707502) can0 18A#03EDE44106
(1790244029.717092) can0 38A#000005
(1790244029.717474) can0 28A#0000000000000000
(1790244029.717780) can0 18A#03EDE44106
(1790244029.727408) can0 18A#03EDE44106
(1790244029.737094) can0 28A#0000000000000000
(1790244029.738017) can0 18A#03EDE54106
(1790244029.747042) can0 18A#03EDE44106
(1790244029.757322) can0 28A#0000000000000000
(1790244029.758063) can0 18A#03EDE44106
(1790244029.766616) can0 38A#000005
(1790244029.766971) can0 18A#03EDE44106
(1790244029.776723) can0 28A#0000000000000000
(1790244029.777065) can0 18A#03EDE44106
(1790244029.787033) can0 18A#03EDE44106
(1790244029.796567) can0 28A#0000000000000000
(1790244029.796947) can0 18A#03EDE44106
(1790244029.806448) can0 18A#03EDE54106
(1790244029.816614) can0 38A#000005
(1790244029.817086) can0 28A#0000000000000000
(1790244029.817440) can0 18A#03EDE54106
(1790244029.826213) can0 18A#03EDE54106
(1790244029.836308) can0 28A#0000000000000000
(1790244029.837404) can0 18A#03EDE54106
(1790244029.846442) can0 18A#03EDE54106
(1790244029.856385) can0 28A#0000000000000000
(1790244029.856861) can0 18A#03EDE54106
(1790244029.865957) can0 38A#000005
(1790244029.866511) can0 18A#03EDE54106
(1790244029.876332) can0 28A#0000000000000000
(1790244029.876941) can0 18A#03EDE54106
(1790244029.885733) can0 18A#03EDE54106
(1790244029.895787) can0 28A#0000000000000000
(1790244029.896215) can0 18A#03EDE64106
(1790244029.906012) can0 18A#03EDE64106
(1790244029.915508) can0 38A#000005
(1790244029.916038) can0 28A#0000000000000000
(1790244029.916425) can0 18A#03EDE64106
(1790244029.925534) can0 18A#03EDE54106
(1790244029.936096) can0 28A#0000000000000000
(1790244029.937042) can0 18A#03EDE64106
(1790244029.945285) can0 18A#03EDE64106
(1790244029.955560) can0 28A#0000000000000000
(1790244029.956415) can0 18A#03EDE64106
(1790244029.965470) can0 38A#000005
(1790244029.966101) can0 18A#03EDE64106
(1790244029.975170) can0 28A#0000000000000000
(1790244029.975628) can0 18A#03EDE64106
(1790244029.984982) can0 18A#03EDE64106
(1790244029.995352) can0 28A#0000000000000000
(1790244029.996013) can0 18A#03EDE64106
(1790244030.004911) can0 18A#03EDE64106
(1790244030.014832) can0 38A#000005
(1790244030.015710) can0 28A#0000000000000000
(1790244030.016351) can0 18A#03EDE64106
(1790244030.025109) can0 18A#03EDE64106
(1790244030.035338) can0 28A#0000000000000000
(1790244030.037859) can0 18A#03EDE64106
(1790244030.044550) can0 18A#03EDE64106
(1790244030.054952) can0 28A#0000000000000000
(1790244030.055581) can0 18A#03EDE64106
(1790244030.064290) can0 38A#000005
(1790244030.064811) can0 18A#03EDE64106
(1790244030.074318) can0 28A#0000000000000000
(1790244030.074799) can0 18A#03EDE64106
(1790244030.084595) can0 18A#03EDE64106
(1790244030.094287) can0 28A#0000000000000000
(1790244030.094900) can0 18A#03EDE64106
(1790244030.104070) can0 18A#03EDE64106
(1790244030.114200) can0 70A#05
(1790244030.114601) can0 38A#000005
(1790244030.114954) can0 28A#0000000000000000
(1790244030.123796) can0 18A#03EDE64106
(1790244030.133759) can0 28A#0000000000000000
(1790244030.134214) can0 18A#03EDE64106
(1790244030.144021) can0 18A#03EDE64106
(1790244030.153759) can0 28A#0000000000000000
(1790244030.154216) can0 18A#03EDE64106
(1790244030.163435) can0 38A#000005
(1790244030.163767) can0 18A#03EDE64106
(1790244030.173842) can0 28A#0000000000000000
(1790244030.174265) can0 18A#03EDE64106
(1790244030.183363) can0 18A#03EDE64106
(1790244030.193309) can0 28A#0000000000000000
(1790244030.193840) can0 18A#03EDE64106
(1790244030.203529) can0 18A#03EDE74106
(1790244030.213020) can0 38A#000005
(1790244030.213513) can0 28A#0000000000000000
(1790244030.213928) can0 18A#03EDE74106
(1790244030.222985) can0 18A#03EDE74106
(1790244030.233655) can0 28A#0000000000000000
(1790244030.234789) can0 18A#03EDE74106
(1790244030.242873) can0 18A#03EDE74106
(1790244030.253009) can0 28A#0000000000000000
(1790244030.253637) can0 18A#03EDE74106
(1790244030.263146) can0 38A#000005
(1790244030.264266) can0 18A#03EDE74106
(1790244030.272716) can0 28A#0000000000000000
(1790244030.273149) can0 18A#03EDE74106
(1790244030.282522) can0 18A#03EDE74106
(1790244030.292945) can0 28A#0000000000000000
(1790244030.293662) can0 18A#03EDE74106
(1790244030.302476) can0 18A#03EDE74106
(1790244030.312258) can0 38A#000005
(1790244030.312780) can0 28A#0000000000000000
(1790244030.313147) can0 18A#03EDE74106
(1790244030.322554) can0 18A#03EDE74106
(1790244030.332146) can0 28A#0000000000000000
(1790244030.332655) can0 18A#03EDE74106
(1790244030.342022) can0 18A#03EDE74106
(1790244030.352418) can0 28A#0000000000000000
(1790244030.352927) can0 18A#03EDE74106
(1790244030.361788) can0 38A#000005
(1790244030.362159) can0 18A#03EDE74106
(1790244030.371977) can0 28A#0000000000000000
(1790244030.373163) can0 18A#03EDE74106
(1790244030.382317) can0 18A#03EDE74106
(1790244030.391845) can0 28A#0000000000000000
(1790244030.392470) can0 18A#03EDE74106
(1790244030.401663) can0 18A#03EDE74106
(1790244030.411837) can0 38A#000005
(1790244030.412543) can0 28A#0000000000000000
(1790244030.413202) can0 18A#03EDE74106
(1790244030.421492) can0 18A#03EDE74106
(1790244030.431435) can0 28A#0000000000000000
(1790244030.433390) can0 18A#03EDE74106
(1790244030.441665) can0 18A#03EDE74106
(1790244030.451233) can0 28A#0000000000000000
(1790244030.451703) can0 18A#03EDE74106
(1790244030.460994) can0 38A#000005
(1790244030.461485) can0 18A#03EDE74106
(1790244030.471339) can0 28A#0000000000000000
(1790244030.471735) can0 18A#03EDE74106
(1790244030.480999) can0 18A#03EDE74106
(1790244030.490954) can0 28A#0000000000000000
(1790244030.491538) can0 18A#03EDE74106
(1790244030.501164) can0 18A#03EDE74106
(1790244030.510652) can0 38A#000005
(1790244030.511082) can0 28A#0000000000000000
(1790244030.511490) can0 18A#03EDE74106
(1790244030.520621) can0 18A#03EDE74106
(1790244030.531106) can0 28A#0000000000000000
(1790244030.532721) can0 18A#03EDE74106
(1790244030.540433) can0 18A#03EDE74106
(1790244030.550553) can0 28A#0000000000000000
(1790244030.551270) can0 18A#03EDE84106
(1790244030.560694) can0 38A#000005
(1790244030.561482) can0 18A#03EDE74106
(1790244030.570254) can0 28A#0000000000000000
(1790244030.570814) can0 18A#03EDE74106
(1790244030.580102) can0 18A#03EDE74106
(1790244030.590419) can0 28A#0000000000000000
(1790244030.590809) can0 18A#03EDE74106
(1790244030.599975) can0 18A#03EDE74106
(1790244030.609796) can0 38A#000005
(1790244030.610159) can0 28A#0000000000000000
(1790244030.610425) can0 18A#03EDE74106
(1790244030.620090) can0 18A#03EDE84106
(1790244030.629725) can0 28A#0000000000000000
(1790244030.631016) can0 18A#02EDE84106
(1790244030.639618) can0 18A#02EDE84106
(1790244030.650025) can0 28A#0000000000000000
(1790244030.650851) can0 18A#02EDE84106
(1790244030.659512) can0 38A#000005
(1790244030.660152) can0 18A#02EDE84106
(1790244030.669499) can0 28A#0000000000000000
(1790244030.670067) can0 18A#02EDE84106
(1790244030.679881) can0 18A#02EDE84106
(1790244030.689232) can0 28A#0000000000000000
(1790244030.689688) can0 18A#02EDE84106
(1790244030.699107) can0 18A#02EDE84106
(1790244030.709321) can0 38A#000005
(1790244030.709836) can0 28A#0000000000000000
(1790244030.710332) can0 18A#02EDE84106
(1790244030.718873) can0 18A#02EDE84106
(1790244030.729022) can0 28A#0000000000000000
(1790244030.730275) can0 18A#02EDE84106
(1790244030.739126) can0 18A#02EDE84106
(1790244030.748831) can0 28A#0000000000000000
(1790244030.749351) can0 18A#02EDE84106
(1790244030.758556) can0 38A#000005
(1790244030.758949) can0 18A#02EDE84106
(1790244030.768961) can0 28A#0000000000000000
(1790244030.769411) can0 18A#02EDE84106
(1790244030.778413) can0 18A#02EDE84106
(1790244030.788519) can0 28A#0000000000000000
(1790244030.789138) can0 18A#02EDE84106
(1790244030.798771) can0 18A#02EDE84106
(1790244030.808277) can0 38A#000005
(1790244030.808875) can0 28A#0000000000000000
(1790244030.809438) can0 18A#02EDE84106
(1790244030.818213) can0 18A#02EDE84106
(1790244030.828562) can0 28A#0000000000000000
(1790244030.829686) can0 18A#02EDE84106
(1790244030.837918) can0 18A#02EDE84106
(1790244030.847972) can0 28A#0000000000000000
(1790244030.848360) can0 18A#02EDE84106
(1790244030.858115) can0 38A#000005
(1790244030.858524) can0 18A#02EDE84106
(1790244030.867854) can0 28A#0000000000000000
(1790244030.868285) can0 18A#02EDE84106
(1790244030.877657) can0 18A#02EDE94106
(1790244030.888016) can0 28A#0000000000000000
(1790244030.888489) can0 18A#02EDE94106
(1790244030.897599) can0 18A#02EDE94106
(1790244030.909253) can0 38A#000005
(1790244030.909718) can0 28A#0000000000000000
(1790244030.910090) can0 18A#02EDE94106
(1790244030.917743) can0 18A#02EDE94106
(1790244030.927335) can0 28A#0000000000000000
(1790244030.928644) can0 18A#02EDE94106
(1790244030.937230) can0 18A#01EDEA4106
(1790244030.947817) can0 28A#0000000000000000
(1790244030.948819) can0 18A#01EDEA4106
(1790244030.957195) can0 38A#000005
(1790244030.958062) can0 18A#01EDEA4106
(1790244030.967048) can0 28A#0000000000000000
(1790244030.967566) can0 18A#01EDEA4106
(1790244030.977161) can0 18A#01EDEA4106
(1790244030.986810) can0 28A#0000000000000000
(1790244030.987204) can0 18A#01EDEA4106
(1790244030.996789) can0 18A#01EDEA4106
(1790244031.006854) can0 38A#000005
(1790244031.007203) can0 28A#0000000000000000
(1790244031.007447) can0 18A#01EDEA4106
(1790244031.016506) can0 18A#01EDEA4106
(1790244031.026548) can0 28A#0000000000000000
(1790244031.027304) can0 18A#01EDEA4106
(1790244031.036746) can0 18A#01EDEA4106
(1790244031.046423) can0 28A#0000000000000000
(1790244031.046975) can0 18A#01EDEA4106
(1790244031.056241) can0 38A#000005
(1790244031.056771) can0 18A#01EDEA4106
(1790244031.066618) can0 28A#0000000000000000
(1790244031.067181) can0 18A#01EDEA4106
(1790244031.076132) can0 18A#01EDEA4106
(1790244031.086221) can0 28A#0000000000000000
(1790244031.087039) can0 18A#01EDEA4106
(1790244031.096439) can0 18A#01EDEA4106
(1790244031.105808) can0 70A#05
(1790244031.106335) can0 38A#000005
(1790244031.106836) can0 28A#0000000000000000
(1790244031.115753) can0 18A#01EDEA4106
(1790244031.126427) can0 28A#0000000000000000
(1790244031.127254) can0 18A#01EDEA4106
(1790244031.135503) can0 18A#01EDEA4106
(1790244031.145544) can0 28A#0000000000000000
(1790244031.145972) can0 18A#01EDEA4106
(1790244031.155601) can0 38A#000005
(1790244031.155980) can0 18A#01EDEA4106
(1790244031.165368) can0 28A#0000000000000000
(1790244031.165778) can0 18A#01EDEA4106
(1790244031.175208) can0 18A#01EDEA4106
(1790244031.185586) can0 28A#0000000000000000
(1790244031.186099) can0 18A#01EDEA4106
(1790244031.195160) can0 18A#01EDEA4106
(1790244031.205010) can0 38A#000005
(1790244031.205750) can0 28A#0000000000000000
(1790244031.206450) can0 18A#01EDEA4106
(1790244031.215252) can0 18A#01EDEA4106
(1790244031.225013) can0 28A#0000000000000000
(1790244031.226858) can0 18A#01EDEA4106
(1790244031.234750) can0 18A#01EDEA4106
(1790244031.245116) can0 28A#0000000000000000
(1790244031.245576) can0 18A#01EDEA4106
(1790244031.254462) can0 38A#000005
(1790244031.255225) can0 18A#01EDEA4106
(1790244031.264481) can0 28A#0000000000000000
(1790244031.264963) can0 18A#01ECEA4106
(1790244031.274691) can0 18A#01EDEA4106
(1790244031.284387) can0 28A#0000000000000000
(1790244031.284895) can0 18A#01ECEA4106
(1790244031.294350) can0 18A#01ECEA4106
(1790244031.304512) can0 38A#000005
(1790244031.305202) can0 28A#0000000000000000
(1790244031.305811) can0 18A#01EDEA4106
(1790244031.314087) can0 18A#01EDEA4106
(1790244031.324095) can0 28A#0000000000000000
(1790244031.325439) can0 18A#01EDEA4106
(1790244031.334286) can0 18A#01ECEA4106
(1790244031.343974) can0 28A#0000000000000000
(1790244031.344433) can0 18A#01ECEA4106
(1790244031.353641) can0 38A#000005
(1790244031.354004) can0 18A#01ECEA4106
(1790244031.364006) can0 28A#0000000000000000
(1790244031.364381) can0 18A#01ECEA4106
(1790244031.373467) can0 18A#01ECEA4106
(1790244031.383557) can0 28A#0000000000000000
(1790244031.384036) can0 18A#01ECEA4106
(1790244031.393807) can0 18A#01EDEA4106
(1790244031.403232) can0 38A#000005
(1790244031.403574) can0 28A#0000000000000000
(1790244031.403838) can0 18A#01ECEA4106
(1790244031.419560) can0 18A#01ECEA4106
(1790244031.423677) can0 28A#0000000000000000
(1790244031.424678) can0 18A#01ECEA4106
(1790244031.433038) can0 18A#01ECEA4106
(1790244031.443187) can0 28A#0000000000000000
(1790244031.443904) can0 18A#01ECEA4106
(1790244031.453234) can0 38A#000005
(1790244031.453902) can0 18A#01ECEB4106
(1790244031.463001) can0 28A#0000000000000000
(1790244031.463661) can0 18A#01ECEB4106
(1790244031.472748) can0 18A#01ECEB4106
(1790244031.483129) can0 28A#0000000000000000
(1790244031.483704) can0 18A#01ECEB4106
(1790244031.492663) can0 18A#01ECEB4106
(1790244031.502464) can0 38A#000005
(1790244031.502932) can0 28A#0000000000000000
(1790244031.503317) can0 18A#01ECEB4106
(1790244031.512710) can0 18A#01ECEB4106
(1790244031.522403) can0 28A#0000000000000000
(1790244031.523165) can0 18A#01ECEB4106
(1790244031.532233) can0 18A#01ECEB4106
(1790244031.542680) can0 28A#0000000000000000
(1790244031.543464) can0 18A#01ECEB4106
(1790244031.552128) can0 38A#000005
(1790244031.553222) can0 18A#01ECEB4106
(1790244031.562144) can0 28A#0000000000000000
(1790244031.562704) can0 18A#01ECEB4106
(1790244031.572300) can0 18A#01ECEB4106
(1790244031.582008) can0 28A#0000000000000000
(1790244031.582721) can0 18A#01ECEB4106
(1790244031.591858) can0 18A#01ECEB4106
(1790244031.601943) can0 38A#000005
(1790244031.602341) can0 28A#0000000000000000
(1790244031.602619) can0 18A#01ECEB4106
(1790244031.611589) can0 18A#01ECEB4106
(1790244031.621578) can0 28A#0000000000000000
(1790244031.622241) can0 18A#01ECEB4106
(1790244031.631792) can0 18A#01ECEB4106
(1790244031.641472) can0 28A#0000000000000000
(1790244031.642098) can0 18A#01ECEB4106
(1790244031.651156) can0 38A#000005
(1790244031.651582) can0 18A#01ECEB4106
(1790244031.661866) can0 28A#0000000000000000
(1790244031.662471) can0 18A#01ECEB4106
(1790244031.671091) can0 18A#01ECEB4106
(1790244031.681185) can0 28A#0000000000000000
(1790244031.681729) can0 18A#01ECEB4106
(1790244031.691371) can0 18A#01ECEB4106
(1790244031.700825) can0 38A#000005
(1790244031.701305) can0 28A#0000000000000000
(1790244031.701711) can0 18A#01ECEB4106
(1790244031.710766) can0 18A#00ECEC4106
(1790244031.721033) can0 28A#D8FD500000000000
(1790244031.722576) can0 18A#00ECEC410E
(1790244031.730583) can0 18A#00ECEC410E
(1790244031.740678) can0 28A#D8FD4E0000000000
(1790244031.741339) can0 18A#00ECEC410E
(1790244031.750834) can0 38A#000005
(1790244031.751539) can0 18A#00ECEC410E
(1790244031.760319) can0 28A#D8FD4D0000000000
(1790244031.760676) can0 18A#00ECEC410E
(1790244031.770431) can0 18A#00ECEC410E
(1790244031.780502) can0 28A#D8FD4D0000000000
(1790244031.780858) can0 18A#00ECEC410E
(1790244031.790114) can0 18A#00ECEC410E
(1790244031.800011) can0 38A#000005
(1790244031.800517) can0 28A#D8FD4D0000000000
(1790244031.800874) can0 18A#00ECEC410E
(1790244031.810286) can0 18A#00ECEC410E
(1790244031.819971) can0 28A#D8FD4D0000000000
(1790244031.821036) can0 18A#00ECEC410E
(1790244031.829777) can0 18A#00ECEC410E
(1790244031.840141) can0 28A#D8FD4D0000000000
(1790244031.840590) can0 18A#00ECEC410E
(1790244031.849539) can0 38A#000005
(1790244031.849931) can0 18A#00ECEC410E
(1790244031.859587) can0 28A#D8FD4D0000000000
(1790244031.860054) can0 18A#00ECEC410E
(1790244031.869725) can0 18A#00ECEC410E
(1790244031.880371) can0 28A#D8FD4D0000000000
(1790244031.880865) can0 18A#00ECEC410E
(1790244031.889308) can0 18A#00ECEC410E
(1790244031.899444) can0 38A#000005
(1790244031.899816) can0 28A#D8FD4D0000000000
(1790244031.900162) can0 18A#00ECEC410E
(1790244031.909093) can0 18A#00ECEC410E
(1790244031.919070) can0 28A#D8FD4D0000000000
(1790244031.919802) can0 18A#00ECEC410E
(1790244031.930153) can0 18A#00ECEC410E
(1790244031.939388) can0 28A#D8FD4B0000000000
(1790244031.940025) can0 18A#00ECEC410E
(1790244031.948823) can0 38A#000005
(1790244031.949506) can0 18A#00ECEC410E
(1790244031.959179) can0 28A#DDFD480000000000
(1790244031.959715) can0 18A#00ECEC410E
(1790244031.968615) can0 18A#00ECED410E
(1790244031.978744) can0 28A#DDFD460000000000
(1790244031.979462) can0 18A#00EBED410E
(1790244031.988982) can0 18A#00ECED410E
(1790244031.998461) can0 38A#000005
(1790244031.999352) can0 28A#DDFD440000000000
(1790244032.000118) can0 18A#00EBED410E
(1790244032.008334) can0 18A#00EBEC410E
(1790244032.019067) can0 28A#DDFD430000000000
(1790244032.021784) can0 18A#00EBEC410E
(1790244032.028176) can0 18A#00EBEC420E
(1790244032.038232) can0 28A#DDFD430000000000
(1790244032.038854) can0 18A#00EBEC420E
(1790244032.048366) can0 38A#000005
(1790244032.049184) can0 18A#00EBEC420E
(1790244032.058021) can0 28A#DDFD430000000000
(1790244032.058601) can0 18A#00EBEC420E
(1790244032.067799) can0 18A#00EBEC420E
(1790244032.078087) can0 28A#DDFD430000000000
(1790244032.078613) can0 18A#00EBEC420E
(1790244032.087619) can0 18A#00EBEC420E
(1790244032.097565) can0 70A#05
(1790244032.098404) can0 38A#000005
(1790244032.098848) can0 28A#DDFD430000000000
(1790244032.107806) can0 18A#00EBEC420E
(1790244032.117357) can0 28A#DDFD430000000000
(1790244032.117688) can0 18A#00EBEC420E
(1790244032.127270) can0 18A#00EBEC420E
(1790244032.138541) can0 28A#DDFD430000000000
(1790244032.139568) can0 18A#00EBEC420E
(1790244032.147077) can0 38A#000005
(1790244032.147506) can0 18A#00EBEC420E
(1790244032.157099) can0 28A#DDFD430000000000
(1790244032.157559) can0 18A#00EBEC420E
(1790244032.167326) can0 18A#00EBEC420E
(1790244032.176960) can0 28A#DDFD430000000000
(1790244032.177499) can0 18A#00EBEC420E
(1790244032.186864) can0 18A#00EBEC420E
(1790244032.197020) can0 38A#000005
(1790244032.197635) can0 28A#DDFD430000000000
(1790244032.198251) can0 18A#00EBEC420E
(1790244032.206594) can0 18A#00EBEC420E
(1790244032.216628) can0 28A#DDFD430000000000
(1790244032.217500) can0 18A#00EBEC420E
(1790244032.226776) can0 18A#00EBEC420E
(1790244032.236837) can0 28A#DDFD430000000000
(1790244032.237676) can0 18A#00EBEC420E
(1790244032.246245) can0 38A#000005
(1790244032.246680) can0 18A#00EBEC420E
(1790244032.256638) can0 28A#DDFD410000000000
(1790244032.257218) can0 18A#00EBEC420E
(1790244032.266266) can0 18A#00EBEC420E
(1790244032.276116) can0 28A#DDFD3F0000000000
(1790244032.276566) can0 18A#00EBEC420E
(1790244032.286394) can0 18A#00EBEC420E
(1790244032.295885) can0 38A#000005
(1790244032.296525) can0 28A#DDFD3C0000000000
(1790244032.297534) can0 18A#00EBEC420E
(1790244032.305817) can0 18A#00EBED420E
(1790244032.316514) can0 28A#DDFD380000000000
(1790244032.318571) can0 18A#00EBED420E
(1790244032.325706) can0 18A#00EBED420E
(1790244032.335582) can0 28A#DDFD370000000000
(1790244032.336044) can0 18A#00EBED420E
(1790244032.345661) can0 38A#000005
(1790244032.346107) can0 18A#00EBED420E
(1790244032.355362) can0 28A#DDFD370000000000
(1790244032.355807) can0 18A#00EBEC420E
(1790244032.365231) can0 18A#00EBEC420E
(1790244032.375658) can0 28A#DDFD370000000000
(1790244032.376207) can0 18A#00EBEC420E
(1790244032.385180) can0 18A#00EBEC420E
(1790244032.394999) can0 38A#000005
(1790244032.395478) can0 28A#DDFD370000000000
(1790244032.395827) can0 18A#00EBEC420E
(1790244032.405316) can0 18A#00EBEC420E
(1790244032.414826) can0 28A#DDFD370000000000
(1790244032.415163) can0 18A#00EBEC420E
(1790244032.424783) can0 18A#00EBEC420E
(1790244032.435151) can0 28A#DDFD370000000000
(1790244032.435625) can0 18A#00EBEC420E
(1790244032.444623) can0 38A#000005
(1790244032.444988) can0 18A#00EBEC420E
(1790244032.454632) can0 28A#DDFD370000000000
(1790244032.455175) can0 18A#00EBEC420E
(1790244032.464917) can0 18A#00EBEC420E
(1790244032.474397) can0 28A#DDFD370000000000
(1790244032.474946) can0 18A#00EBEC420E
(1790244032.484406) can0 18A#00EBEC420E
(1790244032.494508) can0 38A#000005
(1790244032.495021) can0 28A#DDFD360000000000
(1790244032.495408) can0 18A#00EBEC420E
(1790244032.504080) can0 18A#00EBEC420E
(1790244032.514022) can0 28A#DDFD330000000000
(1790244032.514361) can0 18A#00EBEC420E
(1790244032.524277) can0 18A#00EBEC420E
(1790244032.535527) can0 28A#DDFD300000000000
(1790244032.540143) can0 18A#00EBEC420E
(1790244032.543964) can0 38A#000005
(1790244032.546319) can0 18A#00EBEC420E
(1790244032.554230) can0 28A#DDFD2C0000000000
(1790244032.554837) can0 18A#00EAEC420E
(1790244032.563674) can0 18A#00EAEC420E
(1790244032.573582) can0 28A#D8FD2A0000000000
(1790244032.574127) can0 18A#FFEAEC420E
(1790244032.583735) can0 18A#FFEAEC420E
(1790244032.593248) can0 38A#000005
(1790244032.593655) can0 28A#DDFD2A0000000000
(1790244032.593924) can0 18A#FFEAEC420E
(1790244032.603176) can0 18A#FFEAEC420E
(1790244032.613568) can0 28A#DDFD290000000000
(1790244032.614326) can0 18A#FFEAEC420E
(1790244032.623108) can0 18A#FFEAEC420E
(1790244032.634158) can0 28A#DDFD290000000000
(1790244032.638423) can0 18A#FFEAEC420E
(1790244032.643788) can0 38A#000005
(1790244032.645943) can0 18A#FFEAEC420E
(1790244032.653112) can0 28A#DDFD290000000000
(1790244032.653895) can0 18A#FFEAEC420E
(1790244032.662870) can0 18A#FFEAEC420E
(1790244032.673349) can0 28A#DDFD290000000000
(1790244032.674064) can0 18A#FFEAEC420E
(1790244032.682717) can0 18A#FFEAEC420E
(1790244032.692588) can0 38A#000005
(1790244032.693242) can0 28A#DDFD290000000000
(1790244032.693796) can0 18A#FFEAEC420E
(1790244032.702851) can0 18A#FFEAEC420E
(1790244032.712623) can0 28A#D8FD290000000000
(1790244032.713415) can0 18A#FFEAEC420E
(1790244032.722272) can0 18A#FFEAEC420E
(1790244032.732789) can0 28A#DDFD290000000000
(1790244032.733511) can0 18A#FFEAEC420E
(1790244032.742123) can0 38A#000005
(1790244032.742922) can0 18A#FFEAEC420E
(1790244032.752159) can0 28A#D8FD270000000000
(1790244032.752683) can0 18A#FFEAEC420E
(1790244032.762320) can0 18A#FFEAEC420E
(1790244032.773554) can0 28A#D8FD230000000000
(1790244032.774106) can0 18A#FFEAEC420E
(1790244032.781774) can0 18A#00EAEC420E
(1790244032.791944) can0 38A#000005
(1790244032.792467) can0 28A#D8FD1F0000000000
(1790244032.792862) can0 18A#FFEAEC420E
(1790244032.801579) can0 18A#FFEAEC420E
(1790244032.811688) can0 28A#D8FD1C0000000000
(1790244032.812510) can0 18A#FFEAEC420E
(1790244032.821717) can0 18A#FFEAEC420E
(1790244032.831375) can0 28A#D8FD1A0000000000
(1790244032.831792) can0 18A#FFEAEC420E
(1790244032.841125) can0 38A#000005
(1790244032.841457) can0 18A#FFEAEC420E
(1790244032.851578) can0 28A#D8FD1A0000000000
(1790244032.852010) can0 18A#FFEAEC420E
(1790244032.861022) can0 18A#FFEAEC420E
(1790244032.871082) can0 28A#D8FD1A0000000000
(1790244032.871577) can0 18A#FFEAEC420E
(1790244032.881355) can0 18A#FFEAEC420E
(1790244032.891191) can0 38A#000005
(1790244032.891896) can0 28A#D8FD1A0000000000
(1790244032.892470) can0 18A#FFEAEC420E
(1790244032.900826) can0 18A#FFEAEC420E
(1790244032.911073) can0 28A#D8FD1A0000000000
(1790244032.911659) can0 18A#FFEAEC420E
(1790244032.920563) can0 18A#FFEAEC420E
(1790244032.930580) can0 28A#D8FD1A0000000000
(1790244032.931006) can0 18A#FFEAEC420E
(1790244032.940756) can0 38A#000005
(1790244032.941324) can0 18A#FFEAEC420E
(1790244032.950552) can0 28A#D8FD1A0000000000
(1790244032.951163) can0 18A#FFEAEC420E
(1790244032.960194) can0 18A#FFEAEC420E
(1790244032.970524) can0 28A#D8FD1A0000000000
(1790244032.970946) can0 18A#FFEAEC420E
(1790244032.980097) can0 18A#FFEAEC420E
(1790244032.990009) can0 38A#000005
(1790244032.990536) can0 28A#D8FD1A0000000000
(1790244032.990935) can0 18A#FFEAEC420E
(1790244033.000243) can0 18A#FFEAEC420E
(1790244033.009941) can0 28A#D8FD160000000000
(1790244033.010504) can0 18A#FFEAEC420E
(1790244033.019793) can0 18A#FFEAEC420E
(1790244033.030185) can0 28A#D8FD110000000000
(1790244033.031903) can0 18A#FFEAEC420E
(1790244033.039503) can0 38A#000005
(1790244033.040017) can0 18A#FFE9EC420E
(1790244033.049602) can0 28A#D8FD0D0000000000
(1790244033.050027) can0 18A#FFE9EC420E
(1790244033.059803) can0 18A#FEE9ED420E
(1790244033.069431) can0 28A#D3FD0A0000000000
(1790244033.070026) can0 18A#FEE9ED420E
(1790244033.079379) can0 18A#FEE9ED420E
(1790244033.089411) can0 70A#05
(1790244033.089820) can0 38A#000005
(1790244033.090177) can0 28A#D3FD0A0000000000
(1790244033.099102) can0 18A#FEE9ED420E
(1790244033.109105) can0 28A#D3FD0A0000000000
(1790244033.109751) can0 18A#FEE9ED420E
(1790244033.119587) can0 18A#FEE9EE420E
(1790244033.128875) can0 28A#D3FD0A0000000000
(1790244033.129362) can0 18A#FEE9EE420E
(1790244033.138835) can0 38A#000005
(1790244033.140051) can0 18A#FEE9EE420E
(1790244033.149214) can0 28A#D3FD0A0000000000
(1790244033.151697) can0 18A#FEE9EE420E
(1790244033.158584) can0 18A#FEE9EE420E
(1790244033.168587) can0 28A#D3FD0A0000000000
(1790244033.169079) can0 18A#FEE9EE420E
(1790244033.178829) can0 18A#FEE9EE420E
(1790244033.188345) can0 38A#000005
(1790244033.188910) can0 28A#D3FD0A0000000000
(1790244033.189356) can0 18A#FEE9EE420E
(1790244033.198199) can0 18A#FEE9EE420E
(1790244033.208591) can0 28A#D3FD0A0000000000
(1790244033.210043) can0 18A#FEE9EE420E
(1790244033.218098) can0 18A#FEE9EE420E
(1790244033.228219) can0 28A#D3FD0A0000000000
(1790244033.229201) can0 18A#FEE9EE420E
(1790244033.238187) can0 38A#000005
(1790244033.238668) can0 18A#FEE9EE420E
(1790244033.247910) can0 28A#D3FD0A0000000000
(1790244033.248427) can0 18A#FEE9EE420E
(1790244033.257728) can0 18A#FEE9EE420E
(1790244033.268150) can0 28A#D3FD0A0000000000
(1790244033.268832) can0 18A#FEE9EE420E
(1790244033.277552) can0 18A#FEE9EE420E
(1790244033.287405) can0 38A#000005
(1790244033.287994) can0 28A#D3FD0A0000000000
(1790244033.288447) can0 18A#FEE9EE420E
(1790244033.297848) can0 18A#FEE9EE420E
(1790244033.307569) can0 28A#D3FD080000000000
(1790244033.308384) can0 18A#FEE9EE420E
(1790244033.317270) can0 18A#FEE9EE420E
(1790244033.327727) can0 28A#D3FD040000000000
(1790244033.328530) can0 18A#FEE9EE420E
(1790244033.337007) can0 38A#000005
(1790244033.337405) can0 18A#FEE9EE420E
(1790244033.347052) can0 28A#D3FD000000000000
(1790244033.347457) can0 18A#FEE9EE420E
(1790244033.357246) can0 18A#FEE9EE420E
(1790244033.366913) can0 28A#DDFDFDFF00000000
(1790244033.367505) can0 18A#FEE9EE420E
(1790244033.376833) can0 18A#FEE9EE420E
(1790244033.386941) can0 38A#000005
(1790244033.387443) can0 28A#D8FDFAFF00000000
(1790244033.387836) can0 18A#FEE9EE420E
(1790244033.396543) can0 18A#FEE9EE420E
(1790244033.406483) can0 28A#D8FDFAFF00000000
(1790244033.406965) can0 18A#FEE9EF420E
(1790244033.416721) can0 18A#FEE9EF420E
(1790244033.426403) can0 28A#D8FDFAFF00000000
(1790244033.426883) can0 18A#FEE9EF420E
(1790244033.436097) can0 38A#000005
(1790244033.436448) can0 18A#FEE9EF420E
(1790244033.446516) can0 28A#D8FDFAFF00000000
(1790244033.446885) can0 18A#FEE9EF420E
(1790244033.455961) can0 18A#FEE9EF420E
(1790244033.467014) can0 28A#D8FDFBFF00000000
(1790244033.472619) can0 18A#FEE9EF420E
(1790244033.476213) can0 18A#FEE9EF420E
(1790244033.485768) can0 38A#000005
(1790244033.486281) can0 28A#D8FDFBFF00000000
(1790244033.486700) can0 18A#FEE9EF420E
(1790244033.495718) can0 18A#FEE9EF420E
(1790244033.505952) can0 28A#D8FDFBFF00000000
(1790244033.506484) can0 18A#FEE9EF420E
(1790244033.515547) can0 18A#FEE9EF420E
(1790244033.525707) can0 28A#D8FDFBFF00000000
(1790244033.526348) can0 18A#FEE9EF420E
(1790244033.535586) can0 38A#000005
(1790244033.535969) can0 18A#FEE9EF420E
(1790244033.545272) can0 28A#D8FDFAFF00000000
(1790244033.545680) can0 18A#FEE9EF420E
(1790244033.555152) can0 18A#FEE9EF420E
(1790244033.565565) can0 28A#D8FDF8FF00000000
(1790244033.565983) can0 18A#FEE9EF420E
(1790244033.575083) can0 18A#FEE9EF420E
(1790244033.584901) can0 38A#000005
(1790244033.585346) can0 28A#D8FDF5FF00000000
(1790244033.585662) can0 18A#FEE9EF420E
(1790244033.595199) can0 18A#FEE9EF420E
(1790244033.604743) can0 28A#D3FDF1FF00000000
(1790244033.605059) can0 18A#FEE8EF420E
(1790244033.614727) can0 18A#FEE8EF420E
(1790244033.625008) can0 28A#D3FDEDFF00000000
(1790244033.625438) can0 18A#FDE8EF420E
(1790244033.634417) can0 38A#000005
(1790244033.634756) can0 18A#FDE8EF420E
(1790244033.644446) can0 28A#D3FDEBFF00000000
(1790244033.644793) can0 18A#FDE8EF420E
(1790244033.654644) can0 18A#FDE8F0420E
(1790244033.664262) can0 28A#D3FDEBFF00000000
(1790244033.664694) can0 18A#FDE8F0420E
(1790244033.674288) can0 18A#FDE8F0420E
(1790244033.684385) can0 38A#000005
(1790244033.684928) can0 28A#D3FDEBFF00000000
(1790244033.685433) can0 18A#FDE8F0420E
(1790244033.694005) can0 18A#FDE8F0420E
(1790244033.703958) can0 28A#D3FDEBFF00000000
(1790244033.704402) can0 18A#FDE8F0420E
(1790244033.714198) can0 18A#FDE8F0420E
(1790244033.723871) can0 28A#D3FDEBFF00000000
(1790244033.724346) can0 18A#FDE8F0420E
(1790244033.733620) can0 38A#000005
(1790244033.734044) can0 18A#FDE8F0420E
(1790244033.744014) can0 28A#D3FDEBFF00000000
(1790244033.744403) can0 18A#FDE8F0420E
(1790244033.753497) can0 18A#FDE8F0420E
(1790244033.763563) can0 28A#D3FDEBFF00000000
(1790244033.764013) can0 18A#FDE8F0420E
(1790244033.773972) can0 18A#FDE8F0420E
(1790244033.783323) can0 38A#000005
(1790244033.783829) can0 28A#D3FDEBFF00000000
(1790244033.784093) can0 18A#FDE8F0420E
(1790244033.793228) can0 18A#FDE8F0420E
(1790244033.803540) can0 28A#D3FDEBFF00000000
(1790244033.804171) can0 18A#FDE8F0420E
(1790244033.813030) can0 18A#FDE8F0420E
(1790244033.823140) can0 28A#CDFDEAFF00000000
(1790244033.823798) can0 18A#FDE8F0420E
(1790244033.833199) can0 38A#000005
(1790244033.833743) can0 18A#FDE8EF420E
(1790244033.842899) can0 28A#CDFDE7FF00000000
(1790244033.843464) can0 18A#FDFCEF210E
(1790244033.852746) can0 18A#FDFFEF000E
(1790244033.863126) can0 28A#CDFDE2FF00000000
(1790244033.863757) can0 18A#FDFEEFF40E
(1790244033.872652) can0 18A#FDFEEFF10E
(1790244033.882453) can0 38A#000005
(1790244033.883040) can0 28A#C8FDDFFF00000000
(1790244033.883417) can0 18A#FDFEEFED0E
(1790244033.892687) can0 18A#FDFEF0EC0E
(1790244033.902240) can0 28A#C8FDDEFF00000000
(1790244033.902646) can0 18A#FDFEF0EC0E
(1790244033.912107) can0 18A#FDFEF0EC0E
(1790244033.922502) can0 28A#C8FDDEFF00000000
(1790244033.922957) can0 18A#FDFEF0EC0E
(1790244033.932012) can0 38A#000005
(1790244033.932547) can0 18A#FDFEF0EB0E
(1790244033.941984) can0 28A#C8FDDEFF00000000
(1790244033.942399) can0 18A#FDFEF0EB0E
(1790244033.952131) can0 18A#FDFEF0EB0E
(1790244033.961776) can0 28A#C8FDDEFF00000000
(1790244033.962192) can0 18A#FDFEF0EB0E
(1790244033.971683) can0 18A#FDFEF0EB0E
(1790244033.982121) can0 38A#000005
(1790244033.983954) can0 28A#C8FDDEFF00000000
(1790244033.985830) can0 18A#FDFEF0EB0E
(1790244033.991462) can0 18A#FDFEF0EB0E
(1790244034.001479) can0 28A#C8FDDEFF00000000
(1790244034.002042) can0 18A#FDFEF0EB0E
(1790244034.011672) can0 18A#FDFEF0EB0E
(1790244034.021499) can0 28A#C8FDDEFF00000000
(1790244034.022123) can0 18A#FDFEF0EB0E
(1790244034.031052) can0 38A#000005
(1790244034.031533) can0 18A#FDFEF0EB0E
(1790244034.041518) can0 28A#C8FDDEFF00000000
(1790244034.042149) can0 18A#FDFEF0EB0E
(1790244034.050936) can0 18A#FDFEF0EB0E
(1790244034.060995) can0 28A#C8FDDEFF00000000
(1790244034.061588) can0 18A#FDFEF0EB0E
