(1790243643.895722) can0 38A#000005
(1790243643.896134) can0 18A#F8FAF8F504
(1790243643.905425) can0 28A#0000000000000000
(1790243643.906382) can0 18A#F8FAF8F504
(1790243643.915240) can0 18A#F8FAF8F504
(1790243643.925878) can0 28A#0000000000000000
(1790243643.926390) can0 18A#F8FAF8F504
(1790243643.935087) can0 18A#F8FAF8F504
(1790243643.945009) can0 38A#000005
(1790243643.945454) can0 28A#0000000000000000
(1790243643.945758) can0 18A#F8FAF8F504
(1790243643.955632) can0 18A#F8FAF8F504
(1790243643.964955) can0 28A#0000000000000000
(1790243643.965482) can0 18A#F8FAF8F504
(1790243643.974876) can0 18A#F8FAF8F504
(1790243643.988365) can0 28A#0000000000000000
(1790243643.990091) can0 18A#F8FAF8F504
(1790243643.996902) can0 38A#000005
(1790243643.997357) can0 18A#F8FAF8F504
(1790243644.004762) can0 28A#0000000000000000
(1790243644.005835) can0 18A#F8FAF8F504
(1790243644.015481) can0 18A#F8FAF8F504
(1790243644.024524) can0 28A#0000000000000000
(1790243644.024971) can0 18A#F8FAF8F504
(1790243644.034241) can0 18A#F8FAF8F504
(1790243644.044574) can0 38A#000005
(1790243644.045115) can0 28A#0000000000000000
(1790243644.045483) can0 18A#F8FAF8F504
(1790243644.054465) can0 18A#F8FAF8F504
(1790243644.064195) can0 28A#0000000000000000
(1790243644.064720) can0 18A#F8FAF8F504
(1790243644.074444) can0 18A#F8FAF8F504
(1790243644.084084) can0 28A#0000000000000000
(1790243644.084807) can0 18A#F9FAF8F504
(1790243644.093927) can0 38A#000005
(1790243644.094508) can0 18A#F9FAF8F504
(1790243644.104454) can0 28A#0000000000000000
(1790243644.105441) can0 18A#F9FAF8F504
(1790243644.113769) can0 18A#F9FAF8F504
(1790243644.123820) can0 28A#0000000000000000
(1790243644.124615) can0 18A#F9FAF8F504
(1790243644.133998) can0 18A#F9FAF8F504
(1790243644.143460) can0 70A#05
(1790243644.143938) can0 38A#000005
(1790243644.144289) can0 28A#0000000000000000
(1790243644.153451) can0 18A#F9FAF8F504
(1790243644.163741) can0 28A#0000000000000000
(1790243644.164275) can0 18A#F9FAF8F504
(1790243644.173229) can0 18A#F9FAF8F504
(1790243644.183092) can0 28A#0000000000000000
(1790243644.183523) can0 18A#F9FAF8F504
(1790243644.193568) can0 38A#000005
(1790243644.194344) can0 18A#F9FAF8F504
(1790243644.203013) can0 28A#0000000000000000
(1790243644.203756) can0 18A#F9FAF8F504
(1790243644.212796) can0 18A#F9FAF8F504
(1790243644.223197) can0 28A#0000000000000000
(1790243644.223637) can0 18A#F9FAF8F504
(1790243644.232640) can0 18A#F9FAF8F504
(1790243644.242687) can0 38A#000005
(1790243644.243232) can0 28A#0000000000000000
(1790243644.243539) can0 18A#F9FAF8F504
(1790243644.252931) can0 18A#F9FAF8F504
(1790243644.262522) can0 28A#0000000000000000
(1790243644.263009) can0 18A#F9FAF8F504
(1790243644.272444) can0 18A#F9FAF8F504
(1790243644.282678) can0 28A#0000000000000000
(1790243644.283173) can0 18A#F9FAF8F504
(1790243644.292331) can0 38A#000005
(1790243644.293418) can0 18A#F9FAF8F504
(1790243644.302339) can0 28A#0000000000000000
(1790243644.303203) can0 18A#F9FAF8F504
(1790243644.312519) can0 18A#F9FAF8F504
(1790243644.322245) can0 28A#0000000000000000
(1790243644.323029) can0 18A#F9FAF8F504
(1790243644.332034) can0 18A#F9FAF8F504
(1790243644.342357) can0 38A#000005
(1790243644.343250) can0 28A#0000000000000000
(1790243644.343745) can0 18A#F9FAF8F504
(1790243644.351747) can0 18A#F9FAF8F504
(1790243644.361736) can0 28A#0000000000000000
(1790243644.362228) can0 18A#F9FAF8F504
(1790243644.372032) can0 18A#F9FAF8F504
(1790243644.381612) can0 28A#0000000000000000
(1790243644.382144) can0 18A#F9FAF8F504
(1790243644.391500) can0 38A#000005
(1790243644.392075) can0 18A#F9FAF8F504
(1790243644.401743) can0 28A#0000000000000000
(1790243644.402477) can0 18A#F9FBF8F404
(1790243644.411297) can0 18A#F9FBF8F404
(1790243644.421333) can0 28A#0000000000000000
(1790243644.421898) can0 18A#F9FBF7F404
(1790243644.431384) can0 18A#F9FBF7F404
(1790243644.441125) can0 38A#000005
(1790243644.441679) can0 28A#0000000000000000
(1790243644.442029) can0 18A#F9FAF81104
(1790243644.451052) can0 18A#F9F3F83004
(1790243644.461179) can0 28A#0000000000000000
(1790243644.461605) can0 18A#F9EBF83C04
(1790243644.470738) can0 18A#F9E8F83F04
(1790243644.480701) can0 28A#0000000000000000
(1790243644.481138) can0 18A#F9E4F84204
(1790243644.491026) can0 38A#000005
(1790243644.491536) can0 18A#F9E3F84304
(1790243644.500705) can0 28A#0000000000000000
(1790243644.501587) can0 18A#F9E2F84304
(1790243644.510510) can0 18A#F9E2F84304
(1790243644.520903) can0 28A#0000000000000000
(1790243644.521669) can0 18A#F9E1F84404
(1790243644.530313) can0 18A#F9E1F84404
(1790243644.540259) can0 38A#000005
(1790243644.540969) can0 28A#0000000000000000
(1790243644.541568) can0 18A#F9E1F84404
(1790243644.551282) can0 18A#F9E1F84404
(1790243644.560232) can0 28A#0000000000000000
(1790243644.562149) can0 18A#F9E1F84404
(1790243644.570087) can0 18A#F9E1F84404
(1790243644.580364) can0 28A#0000000000000000
(1790243644.581148) can0 18A#F9E1F84404
(1790243644.589846) can0 38A#000005
(1790243644.590427) can0 18A#F9E1F84404
(1790243644.599795) can0 28A#0000000000000000
(1790243644.600543) can0 18A#F9E1F84404
(1790243644.610062) can0 18A#F9E1F84404
(1790243644.619666) can0 28A#0000000000000000
(1790243644.620205) can0 18A#F9E1F84404
(1790243644.629566) can0 18A#F9E2F84404
(1790243644.639805) can0 38A#000005
(1790243644.640421) can0 28A#0000000000000000
(1790243644.640798) can0 18A#F9E2F84304
(1790243644.649353) can0 18A#FAE2F84304
(1790243644.659240) can0 28A#0000000000000000
(1790243644.659694) can0 18A#FAE2F84306
(1790243644.669574) can0 18A#FAE2F74306
(1790243644.679049) can0 28A#0000000000000000
(1790243644.679508) can0 18A#FAE2F74306
(1790243644.688969) can0 38A#000005
(1790243644.689507) can0 18A#FAE2F74306
(1790243644.699703) can0 28A#0000000000000000
(1790243644.700255) can0 18A#FAE3F74306
(1790243644.708691) can0 18A#FAE3F84306
(1790243644.718752) can0 28A#0000000000000000
(1790243644.719159) can0 18A#FAE3F84306
(1790243644.728870) can0 18A#FAE3F74306
(1790243644.738586) can0 38A#000005
(1790243644.739125) can0 28A#0000000000000000
(1790243644.739491) can0 18A#FAE3F74306
(1790243644.748587) can0 18A#FAE3F74306
(1790243644.758788) can0 28A#0000000000000000
(1790243644.759328) can0 18A#FAE3F74306
(1790243644.768378) can0 18A#FAE3F74306
(1790243644.778230) can0 28A#0000000000000000
(1790243644.778636) can0 18A#FAE3F74306
(1790243644.788487) can0 38A#000005
(1790243644.789031) can0 18A#FAE3F74306
(1790243644.798203) can0 28A#0000000000000000
(1790243644.799163) can0 18A#FAE3F74306
(1790243644.808394) can0 18A#FAE3F74306
(1790243644.818686) can0 28A#0000000000000000
(1790243644.819648) can0 18A#FAE3F74306
(1790243644.827808) can0 18A#FAE3F74306
(1790243644.837780) can0 38A#000005
(1790243644.838295) can0 28A#0000000000000000
(1790243644.838606) can0 18A#FAE3F74306
(1790243644.848101) can0 18A#FAE3F74306
(1790243644.859493) can0 28A#0000000000000000
(1790243644.859950) can0 18A#FAE3F74306
(1790243644.867514) can0 18A#FAE3F84306
(1790243644.877813) can0 28A#0000000000000000
(1790243644.878304) can0 18A#FAE3F84306
(1790243644.887330) can0 38A#000005
(1790243644.887828) can0 18A#FAE3F84306
(1790243644.897347) can0 28A#0000000000000000
(1790243644.898188) can0 18A#FAE3F84306
(1790243644.907443) can0 18A#FAE3F84306
(1790243644.917261) can0 28A#0000000000000000
(1790243644.917785) can0 18A#FAE3F74306
(1790243644.926936) can0 18A#FAE3F74306
(1790243644.937237) can0 38A#000005
(1790243644.937835) can0 28A#0000000000000000
(1790243644.938179) can0 18A#FAE4F74306
(1790243644.946858) can0 18A#FAE4F74306
(1790243644.956760) can0 28A#0000000000000000
(1790243644.957162) can0 18A#FAE4F74306
(1790243644.966929) can0 18A#FAE4F74306
(1790243644.976548) can0 28A#0000000000000000
(1790243644.976926) can0 18A#FAE4F74306
(1790243644.986465) can0 38A#000005
(1790243644.986923) can0 18A#FAE4F74306
(1790243644.997302) can0 28A#0000000000000000
(1790243644.998060) can0 18A#FAE4F74306
(1790243645.006330) can0 18A#FAE4F74306
(1790243645.016823) can0 28A#0000000000000000
(1790243645.020374) can0 18A#FAE4F74306
(1790243645.026470) can0 18A#FAE4F74306
(1790243645.036107) can0 38A#000005
(1790243645.036611) can0 28A#0000000000000000
(1790243645.036952) can0 18A#FAE4F74306
(1790243645.046226) can0 18A#FAE4F74306
(1790243645.056298) can0 28A#0000000000000000
(1790243645.056733) can0 18A#FAE4F74306
(1790243645.065897) can0 18A#FAE4F74306
(1790243645.075775) can0 28A#0000000000000000
(1790243645.076201) can0 18A#FAE4F74306
(1790243645.085980) can0 38A#000005
(1790243645.086572) can0 18A#FAE4F74306
(1790243645.095718) can0 28A#0000000000000000
(1790243645.096472) can0 18A#FAE4F74306
(1790243645.105554) can0 18A#FAE4F74306
(1790243645.115872) can0 28A#0000000000000000
(1790243645.116350) can0 18A#FAE4F74306
(1790243645.125422) can0 18A#FAE4F74306
(1790243645.135209) can0 70A#05
(1790243645.135663) can0 38A#000005
(1790243645.136050) can0 28A#0000000000000000
(1790243645.145553) can0 18A#FBE4F7430E
(1790243645.155124) can0 28A#C3FDB0FF00000000
(1790243645.155590) can0 18A#FBE4F7430E
(1790243645.165025) can0 18A#FBE4F6430E
(1790243645.175310) can0 28A#C3FDB2FF00000000
(1790243645.175746) can0 18A#FBE4F7430E
(1790243645.184853) can0 38A#000005
(1790243645.185325) can0 18A#FBE4F7430E
(1790243645.194973) can0 28A#C8FDB4FF00000000
(1790243645.196197) can0 18A#FBE5F7430E
(1790243645.204963) can0 18A#FBE5F7430E
(1790243645.214785) can0 28A#C8FDB3FF00000000
(1790243645.215331) can0 18A#FBE5F7430E
(1790243645.224489) can0 18A#FBE5F7430E
(1790243645.234858) can0 38A#000005
(1790243645.235404) can0 28A#C8FDB3FF00000000
(1790243645.235811) can0 18A#FBE5F7430E
(1790243645.244423) can0 18A#FBE5F7430E
(1790243645.254348) can0 28A#C8FDB4FF00000000
(1790243645.254822) can0 18A#FBE5F7430E
(1790243645.264524) can0 18A#FBE5F7430E
(1790243645.274097) can0 28A#C3FDB3FF00000000
(1790243645.274475) can0 18A#FBE5F7430E
(1790243645.283942) can0 38A#000005
(1790243645.284364) can0 18A#FBE5F7430E
(1790243645.294535) can0 28A#C3FDB3FF00000000
(1790243645.295431) can0 18A#FBE5F7430E
(1790243645.303821) can0 18A#FBE5F7430E
(1790243645.313851) can0 28A#C8FDB3FF00000000
(1790243645.314340) can0 18A#FBE5F7430E
(1790243645.323943) can0 18A#FBE5F7430E
(1790243645.333640) can0 38A#000005
(1790243645.334159) can0 28A#C3FDB3FF00000000
(1790243645.334530) can0 18A#FBE5F7430E
(1790243645.343600) can0 18A#FBE5F7430E
(1790243645.353857) can0 28A#C3FDB3FF00000000
(1790243645.354297) can0 18A#FBE5F7430E
(1790243645.363423) can0 18A#FBE5F7430E
(1790243645.373436) can0 28A#C8FDB3FF00000000
(1790243645.373978) can0 18A#FBE5F7430E
(1790243645.383526) can0 38A#000005
(1790243645.384052) can0 18A#FBE5F7430E
(1790243645.393307) can0 28A#C3FDB3FF00000000
(1790243645.394151) can0 18A#FBE5F7430E
(1790243645.403081) can0 18A#FBE5F7430E
(1790243645.413348) can0 28A#C8FDB3FF00000000
(1790243645.413904) can0 18A#FBE5F7430E
(1790243645.422920) can0 18A#FBE5F7430E
(1790243645.432891) can0 38A#000005
(1790243645.433654) can0 28A#C3FDB4FF00000000
(1790243645.434215) can0 18A#FBE5F7430E
(1790243645.443132) can0 18A#FBE5F7430E
(1790243645.452821) can0 28A#C8FDB6FF00000000
(1790243645.453651) can0 18A#FBE5F7430E
(1790243645.462801) can0 18A#FBE5F7430E
(1790243645.472956) can0 28A#CDFDB8FF00000000
(1790243645.473694) can0 18A#FCE5F8430E
(1790243645.482376) can0 38A#000005
(1790243645.482914) can0 18A#FCE5F7430E
(1790243645.492472) can0 28A#CDFDBAFF00000000
(1790243645.494098) can0 18A#FCE5F7430E
(1790243645.502627) can0 18A#FCE5F7430E
(1790243645.512323) can0 28A#CDFDBCFF00000000
(1790243645.513101) can0 18A#FCE5F7430E
(1790243645.522055) can0 18A#FBE5F8430E
(1790243645.532522) can0 38A#000005
(1790243645.535122) can0 28A#CDFDBCFF00000000
(1790243645.535652) can0 18A#FBE5F8430E
(1790243645.542092) can0 18A#FCE5F7430E
(1790243645.553113) can0 28A#CDFDBCFF00000000
(1790243645.554909) can0 18A#FBE5F8430E
(1790243645.562897) can0 18A#FBE5F8430E
(1790243645.572605) can0 28A#CDFDBCFF00000000
(1790243645.574513) can0 18A#FBE5F8430E
(1790243645.582858) can0 38A#000005
(1790243645.584677) can0 18A#FBE5F8430E
(1790243645.592011) can0 28A#CDFDBCFF00000000
(1790243645.592765) can0 18A#FBE5F8430E
(1790243645.602306) can0 18A#FBE5F8430E
(1790243645.612871) can0 28A#CDFDBCFF00000000
(1790243645.616548) can0 18A#FBE5F8430E
(1790243645.622621) can0 18A#FBE5F8430E
(1790243645.631655) can0 38A#000005
(1790243645.634358) can0 28A#CDFDBCFF00000000
(1790243645.635912) can0 18A#FBE5F8430E
(1790243645.641264) can0 18A#FBE5F8430E
(1790243645.651770) can0 28A#CDFDBCFF00000000
(1790243645.653512) can0 18A#FBE5F8430E
(1790243645.661731) can0 18A#FBE5F8430E
(1790243645.670954) can0 28A#CDFDBCFF00000000
(1790243645.671493) can0 18A#FBE5F8430E
(1790243645.681112) can0 38A#000005
(1790243645.683022) can0 18A#FBE5F8430E
(1790243645.690740) can0 28A#CDFDBCFF00000000
(1790243645.691823) can0 18A#FBE5F8430E
(1790243645.700491) can0 18A#FBE5F8430E
(1790243645.710878) can0 28A#D3FDBFFF00000000
(1790243645.711385) can0 18A#FBE5F8430E
(1790243645.720308) can0 18A#FBE5F8430E
(1790243645.730269) can0 38A#000005
(1790243645.730756) can0 28A#D3FDC1FF00000000
(1790243645.731089) can0 18A#FBE5F9430E
(1790243645.740834) can0 18A#FBE5F9430E
(1790243645.750206) can0 28A#D3FDC4FF00000000
(1790243645.750704) can0 18A#FBE5F9430E
(1790243645.760129) can0 18A#FCE6F9430E
(1790243645.770349) can0 28A#D8FDC6FF00000000
(1790243645.770843) can0 18A#FCE6F9430E
(1790243645.779766) can0 38A#000005
(1790243645.780223) can0 18A#FCE6F9430E
(1790243645.789859) can0 28A#D3FDC7FF00000000
(1790243645.790644) can0 18A#FCE6F8430E
(1790243645.800013) can0 18A#FCE6F8430E
(1790243645.809900) can0 28A#D8FDC7FF00000000
(1790243645.810595) can0 18A#FCE6F9430E
(1790243645.819495) can0 18A#FCE6F9430E
(1790243645.829973) can0 38A#000005
(1790243645.831856) can0 28A#D8FDC7FF00000000
(1790243645.832455) can0 18A#FCE6F9430E
(1790243645.839513) can0 18A#FCE6F9430E
(1790243645.849350) can0 28A#D8FDC6FF00000000
(1790243645.849773) can0 18A#FCE6F8430E
(1790243645.859651) can0 18A#FCE6F8430E
(1790243645.869190) can0 28A#D8FDC7FF00000000
(1790243645.869664) can0 18A#FCE6F8430E
(1790243645.879220) can0 38A#000005
(1790243645.884347) can0 18A#FCE6F8430E
(1790243645.889430) can0 28A#D8FDC7FF00000000
(1790243645.891415) can0 18A#FCE6F8430E
(1790243645.899837) can0 18A#FCE6F8430E
(1790243645.909539) can0 28A#D8FDC7FF00000000
(1790243645.913430) can0 18A#FCE6F9430E
(1790243645.919175) can0 18A#FCE6F9430E
(1790243645.929842) can0 38A#000005
(1790243645.930516) can0 28A#D8FDC7FF00000000
(1790243645.931026) can0 18A#FCE6F9430E
(1790243645.938735) can0 18A#FCE6F9430E
(1790243645.950003) can0 28A#D8FDC7FF00000000
(1790243645.953853) can0 18A#FCE6F9430E
(1790243645.959053) can0 18A#FCE6F9430E
(1790243645.968752) can0 28A#D8FDCAFF00000000
(1790243645.970636) can0 18A#FCE6F9430E
(1790243645.978927) can0 38A#000005
(1790243645.982752) can0 18A#FCE6FA430E
(1790243645.988326) can0 28A#D8FDCDFF00000000
(1790243645.989236) can0 18A#FCE6FA430E
(1790243645.999718) can0 18A#FCE6FA430E
(1790243646.008596) can0 28A#DDFDD1FF00000000
(1790243646.009242) can0 18A#FCE6FA430E
(1790243646.019778) can0 18A#FCE6FA430E
(1790243646.027839) can0 38A#000005
(1790243646.028843) can0 28A#DDFDD3FF00000000
(1790243646.030925) can0 18A#FCE6FA430E
(1790243646.038261) can0 18A#FCE6FA430E
(1790243646.048584) can0 28A#DDFDD4FF00000000
(1790243646.049094) can0 18A#FCE6FA430E
(1790243646.057861) can0 18A#FCE6FA430E
(1790243646.067805) can0 28A#DDFDD4FF00000000
(1790243646.068170) can0 18A#FCE6FA430E
(1790243646.077441) can0 38A#000005
(1790243646.077944) can0 18A#FCE6FA430E
(1790243646.087591) can0 28A#DDFDD4FF00000000
(1790243646.089227) can0 18A#FCE6FA430E
(1790243646.097636) can0 18A#FCE6FA430E
(1790243646.107260) can0 28A#DDFDD4FF00000000
(1790243646.107809) can0 18A#FCE6FA430E
(1790243646.116981) can0 18A#FCE6FA430E
(1790243646.127270) can0 70A#05
(1790243646.127794) can0 38A#000005
(1790243646.128189) can0 28A#DDFDD4FF00000000
(1790243646.136899) can0 18A#FCE6FA430E
(1790243646.146872) can0 28A#DDFDD4FF00000000
(1790243646.147352) can0 18A#FCE6FA430E
(1790243646.157088) can0 18A#FCE6FA430E
(1790243646.166672) can0 28A#DDFDD4FF00000000
(1790243646.167121) can0 18A#FCE6FA430E
(1790243646.176492) can0 38A#000005
(1790243646.177011) can0 18A#FCE6FA430E
(1790243646.187190) can0 28A#DDFDD4FF00000000
(1790243646.188638) can0 18A#FCE6FA430E
(1790243646.196344) can0 18A#FCE6FA430E
(1790243646.206405) can0 28A#DDFDD4FF00000000
(1790243646.207032) can0 18A#FCE6FA430E
(1790243646.216646) can0 18A#FCE6FA430E
(1790243646.226221) can0 38A#000005
(1790243646.226942) can0 28A#DDFDD5FF00000000
(1790243646.227543) can0 18A#FCE6FA430E
(1790243646.236059) can0 18A#FCE6FA430E
(1790243646.246402) can0 28A#DDFDD9FF00000000
(1790243646.246918) can0 18A#FCE6FA430E
(1790243646.255965) can0 18A#FCE6FA430E
(1790243646.265938) can0 28A#E2FDDCFF00000000
(1790243646.266882) can0 18A#FCE6FA430E
(1790243646.276191) can0 38A#000005
(1790243646.277168) can0 18A#FCE7FA430E
(1790243646.286010) can0 28A#E2FDE0FF00000000
(1790243646.288123) can0 18A#FCE7FA420E
(1790243646.295579) can0 18A#FCE7FB420E
(1790243646.306168) can0 28A#E8FDE2FF00000000
(1790243646.306953) can0 18A#FDE7FA420E
(1790243646.315566) can0 18A#FCE7FA420E
(1790243646.325487) can0 38A#000005
(1790243646.326330) can0 28A#E2FDE2FF00000000
(1790243646.326992) can0 18A#FCE7FB420E
(1790243646.335727) can0 18A#FCE7FA420E
(1790243646.345222) can0 28A#E8FDE2FF00000000
(1790243646.345916) can0 18A#FDE7FA420E
(1790243646.355135) can0 18A#FCE7FA420E
(1790243646.365335) can0 28A#E8FDE2FF00000000
(1790243646.365751) can0 18A#FCE7FA420E
(1790243646.374982) can0 38A#000005
(1790243646.375637) can0 18A#FCE7FA420E
(1790243646.385027) can0 28A#E2FDE2FF00000000
(1790243646.385892) can0 18A#FCE7FA420E
(1790243646.395202) can0 18A#FCE7FA420E
(1790243646.404797) can0 28A#E2FDE2FF00000000
(1790243646.405549) can0 18A#FCE7FA420E
(1790243646.414565) can0 18A#FDE7FA420E
(1790243646.424853) can0 38A#000005
(1790243646.425622) can0 28A#E8FDE2FF00000000
(1790243646.426320) can0 18A#FDE7FA420E
(1790243646.434369) can0 18A#FDE7FA420E
(1790243646.444490) can0 28A#E8FDE2FF00000000
(1790243646.445308) can0 18A#FDE7FA420E
(1790243646.454860) can0 18A#FDE7FA420E
(1790243646.464289) can0 28A#E2FDE2FF00000000
(1790243646.465027) can0 18A#FDE7FA420E
(1790243646.474080) can0 38A#000005
(1790243646.474702) can0 18A#FCE7FA420E
(1790243646.484579) can0 28A#E8FDE2FF00000000
(1790243646.485595) can0 18A#FDE7FA420E
(1790243646.493841) can0 18A#FCE7FA420E
(1790243646.503919) can0 28A#E8FDE3FF00000000
(1790243646.504451) can0 18A#FDE7FA420E
(1790243646.514057) can0 18A#FDE7FA420E
(1790243646.523689) can0 38A#000005
(1790243646.524307) can0 28A#E8FDE6FF00000000
(1790243646.524787) can0 18A#FDE7FA420E
(1790243646.533524) can0 18A#FDE7FA420E
(1790243646.543862) can0 28A#E8FDEBFF00000000
(1790243646.544413) can0 18A#FDE7FA420E
(1790243646.553423) can0 18A#FDE7FA420E
(1790243646.563301) can0 28A#EDFDEEFF00000000
(1790243646.563713) can0 18A#FDE7FA420E
(1790243646.573613) can0 38A#000005
(1790243646.574090) can0 18A#FDE7FA420E
(1790243646.583213) can0 28A#EDFDF2FF00000000
(1790243646.584109) can0 18A#FDE7FA420E
(1790243646.592974) can0 18A#FDE7FA420E
(1790243646.603288) can0 28A#EDFDF3FF00000000
(1790243646.603790) can0 18A#FDE7FA420E
(1790243646.612767) can0 18A#FDE7FA420E
(1790243646.622831) can0 38A#000005
(1790243646.623374) can0 28A#EDFDF3FF00000000
(1790243646.623735) can0 18A#FDE7FA420E
(1790243646.633194) can0 18A#FDE7FA420E
(1790243646.642696) can0 28A#EDFDF2FF00000000
(1790243646.643198) can0 18A#FDE7FA420E
(1790243646.652629) can0 18A#FDE7FA420E
(1790243646.662997) can0 28A#EDFDF2FF00000000
(1790243646.663523) can0 18A#FDE7FA420E
(1790243646.672475) can0 38A#000005
(1790243646.673125) can0 18A#FDE7FA420E
(1790243646.682399) can0 28A#EDFDF2FF00000000
(1790243646.683143) can0 18A#FDE7FA420E
(1790243646.692532) can0 18A#FDE7FA420E
(1790243646.702269) can0 28A#EDFDF3FF00000000
(1790243646.702950) can0 18A#FDE7FA420E
(1790243646.712101) can0 18A#FDE7FA420E
(1790243646.722369) can0 38A#000005
(1790243646.723165) can0 28A#EDFDF3FF00000000
(1790243646.723875) can0 18A#FDE7FA420E
(1790243646.731846) can0 18A#FDE7FA420E
(1790243646.741878) can0 28A#EDFDF2FF00000000
(1790243646.742448) can0 18A#FDE7FA420E
(1790243646.752121) can0 18A#FDE7FA420E
(1790243646.761709) can0 28A#EDFDF5FF00000000
(1790243646.762242) can0 18A#FDE7FA420E
(1790243646.771592) can0 38A#000005
(1790243646.774004) can0 18A#FEE7F9420E
(1790243646.782648) can0 28A#F2FDFAFF00000000
(1790243646.783513) can0 18A#FEE7F9420E
(1790243646.791438) can0 18A#FEE7F9420E
(1790243646.801469) can0 28A#F2FDFEFF00000000
(1790243646.802295) can0 18A#FEE8F9420E
(1790243646.811530) can0 18A#FEE8FA420E
(1790243646.821141) can0 38A#000005
(1790243646.821723) can0 28A#E8FD000000000000
(1790243646.822108) can0 18A#FEE8FA420E
(1790243646.831001) can0 18A#FEE8FA420E
(1790243646.842694) can0 28A#E8FD030000000000
(1790243646.843375) can0 18A#FEE8FA420E
(1790243646.850868) can0 18A#FEE8FA420E
(1790243646.860928) can0 28A#E8FD030000000000
(1790243646.861364) can0 18A#FEE8FA420E
(1790243646.871032) can0 38A#000005
(1790243646.871691) can0 18A#FEE8FA420E
(1790243646.880734) can0 28A#E8FD030000000000
(1790243646.881358) can0 18A#FEE8FA420E
(1790243646.890537) can0 18A#FEE8FA420E
(1790243646.900968) can0 28A#E8FD020000000000
(1790243646.901594) can0 18A#FEE8FA420E
(1790243646.910332) can0 18A#FEE8FA420E
(1790243646.920285) can0 38A#000005
(1790243646.920825) can0 28A#E8FD020000000000
(1790243646.921197) can0 18A#FEE8FA420E
(1790243646.930705) can0 18A#FEE8FA420E
(1790243646.940167) can0 28A#E8FD020000000000
(1790243646.940635) can0 18A#FEE8FA420E
(1790243646.950092) can0 18A#FEE8FA420E
(1790243646.960261) can0 28A#E8FD020000000000
(1790243646.960667) can0 18A#FEE8FA420E
(1790243646.969905) can0 38A#000005
(1790243646.970443) can0 18A#FEE8FA420E
(1790243646.979733) can0 28A#E8FD020000000000
(1790243646.980662) can0 18A#FEE8FA420E
(1790243646.989927) can0 18A#FEE8FA420E
(1790243646.999682) can0 28A#E8FD020000000000
(1790243647.000137) can0 18A#FEE8FA420E
(1790243647.009420) can0 18A#FEE8FA420E
(1790243647.019869) can0 38A#000005
(1790243647.020604) can0 28A#E8FD050000000000
(1790243647.020994) can0 18A#FEE8FA420E
(1790243647.029278) can0 18A#FEE8F9420E
(1790243647.039412) can0 28A#EDFD090000000000
(1790243647.039947) can0 18A#FEE8F9420E
(1790243647.049565) can0 18A#FEE8F9420E
(1790243647.059185) can0 28A#EDFD0D0000000000
(1790243647.059709) can0 18A#FEE8F9420E
(1790243647.074829) can0 38A#000005
(1790243647.075342) can0 18A#FEE8F8420E
(1790243647.079374) can0 28A#EDFD120000000000
(1790243647.080029) can0 18A#FEE8F8420E
(1790243647.088824) can0 18A#FEE8F8420E
(1790243647.098761) can0 28A#EDFD140000000000
(1790243647.099149) can0 18A#FEE8F8420E
(1790243647.108923) can0 18A#FEE8F8420E
(1790243647.118508) can0 70A#05
(1790243647.118949) can0 38A#000005
(1790243647.119306) can0 28A#EDFD140000000000
(1790243647.128389) can0 18A#FEE8F8420E
(1790243647.138832) can0 28A#EDFD140000000000
(1790243647.139329) can0 18A#FEE8F8420E
(1790243647.148491) can0 18A#FEE8F8420E
(1790243647.158292) can0 28A#EDFD140000000000
(1790243647.158676) can0 18A#FEE8F8420E
(1790243647.168465) can0 38A#000005
(1790243647.168990) can0 18A#FEE8F8420E
(1790243647.178086) can0 28A#EDFD140000000000
(1790243647.179188) can0 18A#FEE8F8420E
(1790243647.187943) can0 18A#FEE8F8420E
(1790243647.198366) can0 28A#EDFD140000000000
(1790243647.198910) can0 18A#FEE8F8420E
(1790243647.207785) can0 18A#FEE8F8420E
(1790243647.217774) can0 38A#000005
(1790243647.218338) can0 28A#EDFD140000000000
(1790243647.218763) can0 18A#FEE8F8420E
(1790243647.228186) can0 18A#FEE8F8420E
(1790243647.237695) can0 28A#EDFD140000000000
(1790243647.238261) can0 18A#FEE8F8420E
(1790243647.247602) can0 18A#FEE8F8420E
(1790243647.257760) can0 28A#EDFD140000000000
(1790243647.258153) can0 18A#FEE8F8420E
(1790243647.267357) can0 38A#000005
(1790243647.267907) can0 18A#FEE8F8420E
(1790243647.277249) can0 28A#EDFD160000000000
(1790243647.278391) can0 18A#FEE8F8420E
(1790243647.287550) can0 18A#FEE8F8420E
(1790243647.297281) can0 28A#EDFD1A0000000000
(1790243647.297929) can0 18A#FEE8F8420E
(1790243647.307021) can0 18A#FFE8F8420E
(1790243647.317384) can0 38A#000005
(1790243647.318360) can0 28A#EDFD1F0000000000
(1790243647.318982) can0 18A#FFE8F7420E
(1790243647.326908) can0 18A#FFE8F7420E
(1790243647.336866) can0 28A#EDFD220000000000
(1790243647.337390) can0 18A#FFE8F6420E
(1790243647.347000) can0 18A#FFE8F6420E
(1790243647.356718) can0 28A#EDFD240000000000
(1790243647.357178) can0 18A#FFE8F6420E
(1790243647.366503) can0 38A#000005
(1790243647.367000) can0 18A#FFE8F6420E
(1790243647.376903) can0 28A#EDFD240000000000
(1790243647.377597) can0 18A#FFE8F6420E
(1790243647.386276) can0 18A#FFE8F6420E
(1790243647.396482) can0 28A#EDFD240000000000
(1790243647.397019) can0 18A#FFE8F6420E
(1790243647.406365) can0 18A#FFE8F6420E
(1790243647.415935) can0 38A#000005
(1790243647.416432) can0 28A#EDFD240000000000
(1790243647.416772) can0 18A#FFE8F6420E
(1790243647.425828) can0 18A#FFE8F6420E
(1790243647.436293) can0 28A#EDFD240000000000
(1790243647.436782) can0 18A#FFE8F6420E
(1790243647.445796) can0 18A#FFE8F6420E
(1790243647.455753) can0 28A#EDFD240000000000
(1790243647.456114) can0 18A#FFE8F6420E
(1790243647.465957) can0 38A#000005
(1790243647.466456) can0 18A#FFE8F6420E
(1790243647.475540) can0 28A#EDFD240000000000
(1790243647.476432) can0 18A#FFE8F6420E
(1790243647.485418) can0 18A#FFE8F6420E
(1790243647.495809) can0 28A#EDFD240000000000
(1790243647.496319) can0 18A#FFE8F6420E
(1790243647.505276) can0 18A#FFE8F6420E
(1790243647.515184) can0 38A#000005
(1790243647.515684) can0 28A#EDFD240000000000
(1790243647.516099) can0 18A#FFE8F6420E
(1790243647.525670) can0 18A#FFE8F6420E
(1790243647.535111) can0 28A#EDFD240000000000
(1790243647.535687) can0 18A#FFE8F6420E
(1790243647.544970) can0 18A#FFE8F6420E
(1790243647.555210) can0 28A#EDFD240000000000
(1790243647.555694) can0 18A#FFE8F6420E
(1790243647.564784) can0 38A#000005
(1790243647.565269) can0 18A#FFE8F6420E
(1790243647.574671) can0 28A#EDFD270000000000
(1790243647.575223) can0 18A#FFE8F6420E
(1790243647.591214) can0 18A#FFE8F6420E
(1790243647.594594) can0 28A#EDFD2A0000000000
(1790243647.595024) can0 18A#FFE8F6420E
(1790243647.604436) can0 18A#FFE9F5420E
(1790243647.614746) can0 38A#000005
(1790243647.615227) can0 28A#EDFD2E0000000000
(1790243647.615590) can0 18A#FFE9F5420E
(1790243647.624259) can0 18A#FFE9F5420E
(1790243647.634276) can0 28A#EDFD320000000000
(1790243647.634911) can0 18A#FFE9F5420E
(1790243647.644480) can0 18A#FFE9F5420E
(1790243647.654052) can0 28A#EDFD330000000000
(1790243647.654644) can0 18A#FFE9F4420E
(1790243647.663833) can0 38A#000005
(1790243647.664307) can0 18A#FFE9F5420E
(1790243647.674419) can0 28A#EDFD330000000000
(1790243647.675519) can0 18A#FFE9F5420E
(1790243647.683742) can0 18A#FFE9F5420E
(1790243647.693756) can0 28A#EDFD330000000000
(1790243647.694199) can0 18A#FFE9F5420E
(1790243647.703915) can0 18A#FFE9F5420E
(1790243647.713485) can0 38A#000005
(1790243647.713960) can0 28A#EDFD320000000000
(1790243647.714368) can0 18A#FFE9F5420E
(1790243647.723437) can0 18A#FFE9F5420E
(1790243647.733826) can0 28A#EDFD320000000000
(1790243647.734499) can0 18A#FFE9F5420E
(1790243647.743435) can0 18A#FFE9F5420E
(1790243647.753299) can0 28A#EDFD320000000000
(1790243647.754025) can0 18A#FFE9F5420E
(1790243647.763523) can0 38A#000005
(1790243647.764424) can0 18A#FFE9F5420E
(1790243647.773551) can0 28A#EDFD320000000000
(1790243647.774338) can0 18A#FFE9F5420E
(1790243647.782869) can0 18A#FFE9F5420E
(1790243647.793225) can0 28A#EDFD320000000000
(1790243647.793701) can0 18A#FFE9F5420E
(1790243647.802856) can0 18A#FFE9F5420E
(1790243647.812696) can0 38A#000005
(1790243647.813213) can0 28A#EDFD330000000000
(1790243647.813602) can0 18A#FFE9F5420E
(1790243647.823105) can0 18A#FFE9F5420E
(1790243647.832592) can0 28A#EDFD360000000000
(1790243647.833219) can0 18A#FFE9F4420E
(1790243647.842530) can0 18A#FFE9F4420E
(1790243647.852839) can0 28A#EDFD3A0000000000
(1790243647.853722) can0 18A#00E9F4420E
(1790243647.862282) can0 38A#000005
(1790243647.862819) can0 18A#00E9F3420E
(1790243647.872160) can0 28A#EDFD3D0000000000
(1790243647.872762) can0 18A#00E9F3420E
(1790243647.882468) can0 18A#00E9F3420E
(1790243647.892018) can0 28A#EDFD3F0000000000
(1790243647.892486) can0 18A#00E9F3420E
(1790243647.901844) can0 18A#00E9F3420E
(1790243647.912103) can0 38A#000005
(1790243647.912707) can0 28A#EDFD3F0000000000
(1790243647.913093) can0 18A#00E9F3420E
(1790243647.921651) can0 18A#00E9F3420E
(1790243647.931736) can0 28A#EDFD3F0000000000
(1790243647.932237) can0 18A#00E9F3420E
(1790243647.942007) can0 18A#00E9F3420E
(1790243647.951485) can0 28A#EDFD3F0000000000
(1790243647.951874) can0 18A#00E9F3420E
(1790243647.961367) can0 38A#000005
(1790243647.961881) can0 18A#00E9F3420E
(1790243647.971876) can0 28A#EDFD3F0000000000
(1790243647.972686) can0 18A#00E9F3420E
(1790243647.981239) can0 18A#00E9F3420E
(1790243647.991245) can0 28A#EDFD3F0000000000
(1790243647.991837) can0 18A#00E9F3420E
(1790243648.001362) can0 18A#00E9F3420E
(1790243648.010995) can0 38A#000005
(1790243648.011473) can0 28A#EDFD3F0000000000
(1790243648.011711) can0 18A#00E9F3420E
(1790243648.020858) can0 18A#00E9F3420E
(1790243648.031214) can0 28A#EDFD3F0000000000
(1790243648.031684) can0 18A#00E9F3420E
(1790243648.040664) can0 18A#00E9F3420E
(1790243648.050623) can0 28A#EDFD3F0000000000
(1790243648.051049) can0 18A#00E9F3420E
(1790243648.061297) can0 38A#000005
(1790243648.065033) can0 18A#00E9F3420E
(1790243648.070604) can0 28A#EDFD400000000000
(1790243648.071395) can0 18A#00E9F3420E
(1790243648.082052) can0 18A#00E9F3420E
(1790243648.091228) can0 28A#EDFD440000000000
(1790243648.093023) can0 18A#00E9F3420E
(1790243648.100238) can0 18A#00E9F3420E
(1790243648.110661) can0 70A#05
(1790243648.112530) can0 38A#000005
(1790243648.114463) can0 28A#EDFD460000000000
(1790243648.120501) can0 18A#00E9F2420E
(1790243648.130963) can0 28A#EDFD490000000000
(1790243648.133083) can0 18A#00E9F1420E
(1790243648.140122) can0 18A#00E9F1420E
(1790243648.150102) can0 28A#EDFD4A0000000000
(1790243648.150495) can0 18A#00E9F1420E
(1790243648.161144) can0 38A#000005
(1790243648.161901) can0 18A#00E9F1420E
(1790243648.169657) can0 28A#EDFD4A0000000000
(1790243648.170186) can0 18A#00E9F1420E
(1790243648.181412) can0 18A#00E9F1420E
(1790243648.191493) can0 28A#EDFD4A0000000000
(1790243648.192035) can0 18A#00E9F1420E
(1790243648.199262) can0 18A#00E9F1420E
(1790243648.209652) can0 38A#000005
(1790243648.210274) can0 28A#EDFD4A0000000000
(1790243648.210799) can0 18A#00E9F1420E
(1790243648.219167) can0 18A#00E9F1420E
(1790243648.229177) can0 28A#EDFD4A0000000000
(1790243648.229723) can0 18A#00E9F1420E
(1790243648.239539) can0 18A#00E9F1420E
(1790243648.248986) can0 28A#EDFD4A0000000000
(1790243648.249578) can0 18A#00E9F1420E
(1790243648.258836) can0 38A#000005
(1790243648.259398) can0 18A#00E9F1420E
(1790243648.269354) can0 28A#EDFD4A0000000000
(1790243648.270868) can0 18A#00E9F1420E
(1790243648.278667) can0 18A#00E9F1420E
(1790243648.288736) can0 28A#EDFD4A0000000000
(1790243648.289285) can0 18A#00E9F1420E
(1790243648.298792) can0 18A#00E9F1420E
(1790243648.308395) can0 38A#000005
(1790243648.308919) can0 28A#EDFD4A0000000000
(1790243648.309307) can0 18A#00E9F1420E
(1790243648.318386) can0 18A#00E9F1420E
(1790243648.328706) can0 28A#EDFD4C0000000000
(1790243648.329227) can0 18A#00E9F1420E
(1790243648.338215) can0 18A#00E9F1420E
(1790243648.348143) can0 28A#EDFD4E0000000000
(1790243648.348802) can0 18A#00E9F1420E
(1790243648.358412) can0 38A#000005
(1790243648.358969) can0 18A#00E9F1420E
(1790243648.367908) can0 28A#E8FD500000000000
(1790243648.368471) can0 18A#0036F1290E
(1790243648.377800) can0 18A#003AF0100E
(1790243648.388145) can0 28A#0000000000000000
(1790243648.388689) can0 18A#003BF00606
(1790243648.397613) can0 18A#003BF00306
(1790243648.407564) can0 38A#000005
(1790243648.408106) can0 28A#0000000000000000
(1790243648.408528) can0 18A#003BF00106
(1790243648.417848) can0 18A#003BF00006
(1790243648.427464) can0 28A#0000000000000000
(1790243648.427864) can0 18A#003BF00006
(1790243648.437330) can0 18A#003BF00006
(1790243648.447593) can0 28A#0000000000000000
(1790243648.447994) can0 18A#003BF00006
(1790243648.457102) can0 38A#000005
(1790243648.457540) can0 18A#003BF00006
(1790243648.467051) can0 28A#0000000000000000
(1790243648.467594) can0 18A#003BF00006
(1790243648.477241) can0 18A#003BF00006
(1790243648.486933) can0 28A#0000000000000000
(1790243648.487311) can0 18A#003BF00006
(1790243648.496747) can0 18A#003BF00006
(1790243648.507044) can0 38A#000005
(1790243648.507657) can0 28A#0000000000000000
(1790243648.508165) can0 18A#003BF00006
(1790243648.516666) can0 18A#003BF00006
(1790243648.526711) can0 28A#0000000000000000
(1790243648.527368) can0 18A#003BF00006
(1790243648.536902) can0 18A#003BF00006
(1790243648.546423) can0 28A#0000000000000000
(1790243648.546842) can0 18A#003BF00006
(1790243648.556254) can0 38A#000005
(1790243648.556689) can0 18A#003BF00006
(1790243648.566665) can0 28A#0000000000000000
(1790243648.567504) can0 18A#003BF00006
(1790243648.576034) can0 18A#003BF00006
(1790243648.586114) can0 28A#0000000000000000
(1790243648.586545) can0 18A#003BF00006
(1790243648.596308) can0 18A#003BF00006
(1790243648.605893) can0 38A#000005
(1790243648.606477) can0 28A#0000000000000000
(1790243648.606898) can0 18A#003BF00006
(1790243648.615835) can0 18A#003BF00006
(1790243648.626028) can0 28A#0000000000000000
(1790243648.626545) can0 18A#003BF00006
(1790243648.635665) can0 18A#003BF00006
(1790243648.645533) can0 28A#0000000000000000
(1790243648.645971) can0 18A#003BF00006
(1790243648.656689) can0 38A#000005
(1790243648.657855) can0 18A#003BEF0006
(1790243648.665736) can0 28A#0000000000000000
(1790243648.666609) can0 18A#003BEF0006
(1790243648.675527) can0 18A#003BEF0006
(1790243648.685783) can0 28A#0000000000000000
(1790243648.686914) can0 18A#003BEF0006
(1790243648.695309) can0 18A#003BEF0006
(1790243648.705084) can0 38A#000005
(1790243648.705581) can0 28A#0000000000000000
(1790243648.705945) can0 18A#003BEF0006
(1790243648.715190) can0 18A#003BEE0006
(1790243648.724862) can0 28A#0000000000000000
(1790243648.725382) can0 18A#003BEE0006
(1790243648.734749) can0 18A#003BEE0006
(1790243648.744957) can0 28A#0000000000000000
(1790243648.745355) can0 18A#003BEE0006
(1790243648.754600) can0 38A#000005
(1790243648.755175) can0 18A#003BEE0006
(1790243648.764482) can0 28A#0000000000000000
(1790243648.765089) can0 18A#003BEE0006
(1790243648.774797) can0 18A#003BEE0006
(1790243648.784572) can0 28A#0000000000000000
(1790243648.785035) can0 18A#003BEE0006
(1790243648.794187) can0 18A#003BEE0006
(1790243648.804484) can0 38A#000005
(1790243648.804942) can0 28A#0000000000000000
(1790243648.805371) can0 18A#003BEE0006
(1790243648.814017) can0 18A#003BEE0006
(1790243648.824069) can0 28A#0000000000000000
(1790243648.824580) can0 18A#003BEE0006
(1790243648.834262) can0 18A#003BEE0006
(1790243648.843915) can0 28A#0000000000000000
(1790243648.844656) can0 18A#003BEE0006
(1790243648.853719) can0 38A#000005
(1790243648.854239) can0 18A#003BEE0006
(1790243648.864023) can0 28A#0000000000000000
(1790243648.864845) can0 18A#003BEE0006
(1790243648.873485) can0 18A#003BEE0006
(1790243648.883598) can0 28A#0000000000000000
(1790243648.884106) can0 18A#003BEE0006
(1790243648.894741) can0 18A#003BEE0006
(1790243648.904768) can0 38A#000005
(1790243648.907298) can0 28A#0000000000000000
(1790243648.907686) can0 18A#003BEE0006
(1790243648.913148) can0 18A#003BEE0006
(1790243648.923660) can0 28A#0000000000000000
(1790243648.924107) can0 18A#003BEE0006
(1790243648.933135) can0 18A#003BEE0006
(1790243648.942992) can0 28A#0000000000000000
(1790243648.943426) can0 18A#003BEE0006
(1790243648.953238) can0 38A#000005
(1790243648.953950) can0 18A#013BED0006
(1790243648.962839) can0 28A#0000000000000000
(1790243648.964008) can0 18A#013BED0006
(1790243648.972678) can0 18A#013BED0006
(1790243648.982927) can0 28A#0000000000000000
(1790243648.983337) can0 18A#013BED0006
(1790243648.992430) can0 18A#013BED0006
(1790243649.002395) can0 38A#000005
(1790243649.002844) can0 28A#0000000000000000
(1790243649.003184) can0 18A#013BEC0006
(1790243649.012863) can0 18A#013BEC0006
(1790243649.022985) can0 28A#0000000000000000
(1790243649.023477) can0 18A#013BEC0006
(1790243649.033148) can0 18A#013BEC0006
(1790243649.043796) can0 28A#0000000000000000
(1790243649.044357) can0 18A#013BEC0006
(1790243649.053741) can0 38A#000005
(1790243649.054345) can0 18A#013BEC0006
(1790243649.064029) can0 28A#0000000000000000
(1790243649.064937) can0 18A#013BEC0006
(1790243649.074601) can0 18A#013BEC0006
(1790243649.084706) can0 28A#0000000000000000
(1790243649.085261) can0 18A#013BEC0006
(1790243649.094786) can0 18A#013BEC0006
(1790243649.105474) can0 70A#05
(1790243649.106072) can0 38A#000005
(1790243649.106701) can0 28A#0000000000000000
(1790243649.115355) can0 18A#013BEC0006
(1790243649.125668) can0 28A#0000000000000000
(1790243649.126139) can0 18A#013BEC0006
(1790243649.136213) can0 18A#013BEC0006
(1790243649.146297) can0 28A#0000000000000000
(1790243649.146924) can0 18A#013BEC0006
(1790243649.159980) can0 38A#000005
(1790243649.160755) can0 18A#013BEC0006
(1790243649.167435) can0 28A#0000000000000000
(1790243649.168183) can0 18A#013BEC0006
(1790243649.177191) can0 18A#013BEC0006
(1790243649.187530) can0 28A#0000000000000000
(1790243649.188412) can0 18A#013BEC0006
(1790243649.197953) can0 18A#013BEB0006
(1790243649.207923) can0 38A#000005
(1790243649.208678) can0 28A#0000000000000000
(1790243649.209438) can0 18A#013BEB0006
(1790243649.218221) can0 18A#013BEB0006
(1790243649.229051) can0 28A#0000000000000000
(1790243649.230144) can0 18A#013BEB0006
(1790243649.239043) can0 18A#013BEB0006
(1790243649.249202) can0 28A#0000000000000000
(1790243649.250148) can0 18A#013BEB0006
(1790243649.259603) can0 38A#000005
(1790243649.260211) can0 18A#013BEB0006
(1790243649.269471) can0 28A#0000000000000000
(1790243649.270183) can0 18A#013BEB0006
(1790243649.279758) can0 18A#013BEB0006
(1790243649.290710) can0 28A#0000000000000000
(1790243649.291644) can0 18A#013BEB0006
(1790243649.300429) can0 18A#013BEB0006
(1790243649.310688) can0 38A#000005
(1790243649.311645) can0 28A#0000000000000000
(1790243649.312551) can0 18A#013BEB0006
(1790243649.321427) can0 18A#013BEB0006
(1790243649.331308) can0 28A#0000000000000000
(1790243649.332071) can0 18A#013BEB0006
(1790243649.341532) can0 18A#013BEB0006
(1790243649.352098) can0 28A#0000000000000000
(1790243649.352608) can0 18A#013BEB0006
(1790243649.361988) can0 38A#000005
(1790243649.362492) can0 18A#013BEB0006
(1790243649.372225) can0 28A#0000000000000000
(1790243649.372766) can0 18A#013BEB0006
(1790243649.382843) can0 18A#013BEB0006
(1790243649.392895) can0 28A#0000000000000000
(1790243649.393403) can0 18A#013BEB0006
(1790243649.402983) can0 18A#013BEB0006
(1790243649.413737) can0 38A#000005
(1790243649.414284) can0 28A#0000000000000000
(1790243649.414613) can0 18A#013BEB0006
(1790243649.423512) can0 18A#013BEB0006
(1790243649.434208) can0 28A#0000000000000000
(1790243649.434775) can0 18A#013BEB0006
(1790243649.444553) can0 18A#013BEB0006
(1790243649.454462) can0 28A#0000000000000000
(1790243649.454859) can0 18A#013BEB0006
(1790243649.464706) can0 38A#000005
(1790243649.465220) can0 18A#013BEB0006
(1790243649.475616) can0 28A#0000000000000000
(1790243649.477154) can0 18A#013BEA0006
(1790243649.485289) can0 18A#013BEA0006
(1790243649.495761) can0 28A#0000000000000000
(1790243649.496509) can0 18A#013BEA0006
(1790243649.506116) can0 18A#013BEA0006
(1790243649.516037) can0 38A#000005
(1790243649.516536) can0 28A#0000000000000000
(1790243649.516949) can0 18A#013BEA0006
(1790243649.526266) can0 18A#013BEA0006
(1790243649.537169) can0 28A#0000000000000000
(1790243649.537675) can0 18A#013BEA0006
(1790243649.546914) can0 18A#013BEA0006
(1790243649.557188) can0 28A#0000000000000000
(1790243649.557591) can0 18A#013BEA0006
(1790243649.567704) can0 38A#000005
(1790243649.568226) can0 18A#013BEA0006
(1790243649.577681) can0 28A#0000000000000000
(1790243649.578041) can0 18A#013BEA0006
(1790243649.588016) can0 18A#013BEA0006
(1790243649.598800) can0 28A#0000000000000000
(1790243649.599409) can0 18A#013BEA0006
(1790243649.608546) can0 18A#013BEA0006
(1790243649.618863) can0 38A#000005
(1790243649.619421) can0 28A#0000000000000000
(1790243649.619826) can0 18A#013BEA0006
(1790243649.629515) can0 18A#013BEA0006
(1790243649.639536) can0 28A#0000000000000000
(1790243649.640327) can0 18A#013BEA0006
(1790243649.650003) can0 18A#013BEA0006
(1790243649.660292) can0 28A#0000000000000000
(1790243649.660693) can0 18A#023BEA0006
(1790243649.672041) can0 38A#000005
(1790243649.672666) can0 18A#013BEA0006
(1790243649.680628) can0 28A#0000000000000000
(1790243649.681726) can0 18A#013BEA0006
(1790243649.691055) can0 18A#013BEA0006
(1790243649.701049) can0 28A#0000000000000000
(1790243649.701493) can0 18A#013BEA0006
(1790243649.711221) can0 18A#013BEA0006
(1790243649.721967) can0 38A#000005
(1790243649.722631) can0 28A#0000000000000000
(1790243649.723094) can0 18A#013BEA0006
(1790243649.731920) can0 18A#013BEA0006
(1790243649.742274) can0 28A#0000000000000000
(1790243649.742857) can0 18A#013BEA0006
(1790243649.752861) can0 18A#023BEA0006
(1790243649.762908) can0 28A#0000000000000000
(1790243649.763756) can0 18A#023BEA0006
(1790243649.773100) can0 38A#000005
(1790243649.775724) can0 18A#023BE90006
(1790243649.783694) can0 28A#0000000000000000
(1790243649.785753) can0 18A#023BE90006
(1790243649.793604) can0 18A#023BE90006
(1790243649.804009) can0 28A#0000000000000000
(1790243649.804754) can0 18A#023BE90006
(1790243649.814373) can0 18A#023BE90006
(1790243649.824256) can0 38A#000005
(1790243649.824769) can0 28A#0000000000000000
(1790243649.825224) can0 18A#023BE90006
(1790243649.834536) can0 18A#023BE80006
(1790243649.845356) can0 28A#0000000000000000
(1790243649.845977) can0 18A#023BE80006
(1790243649.855256) can0 18A#023BE80006
(1790243649.865659) can0 28A#0000000000000000
(1790243649.866506) can0 18A#023BE80006
(1790243649.876274) can0 38A#000005
(1790243649.876974) can0 18A#023BE80006
(1790243649.886098) can0 28A#0000000000000000
(1790243649.886889) can0 18A#023BE80006
(1790243649.896383) can0 18A#023BE80006
(1790243649.907486) can0 28A#0000000000000000
(1790243649.909040) can0 18A#023BE80006
(1790243649.916941) can0 18A#023BE80006
(1790243649.927307) can0 38A#000005
(1790243649.929790) can0 28A#0000000000000000
(1790243649.930240) can0 18A#023BE80006
(1790243649.937677) can0 18A#023BE80006
(1790243649.947804) can0 28A#0000000000000000
(1790243649.948351) can0 18A#023BE80006
(1790243649.958012) can0 18A#023BE80006
(1790243649.968573) can0 28A#0000000000000000
(1790243649.969009) can0 18A#023BE80006
(1790243649.978482) can0 38A#000005
(1790243649.978997) can0 18A#023BE80006
(1790243649.989027) can0 28A#0000000000000000
(1790243649.989808) can0 18A#023BE80006
(1790243649.999450) can0 18A#023BE80006
(1790243650.009546) can0 28A#0000000000000000
(1790243650.010230) can0 18A#023BE80006
(1790243650.019594) can0 18A#023BE80006
(1790243650.030157) can0 38A#000005
(1790243650.030782) can0 28A#0000000000000000
(1790243650.031349) can0 18A#033BE80006
(1790243650.040056) can0 18A#033BE80006
(1790243650.050373) can0 28A#0000000000000000
(1790243650.050950) can0 18A#033BE80006
(1790243650.060851) can0 18A#033BE80006
(1790243650.070733) can0 28A#0000000000000000
(1790243650.071143) can0 18A#033BE80006
(1790243650.080824) can0 38A#000005
(1790243650.081303) can0 18A#033BE80006
(1790243650.091509) can0 28A#0000000000000000
(1790243650.092669) can0 18A#033BE80006
(1790243650.101341) can0 18A#033BE80006
(1790243650.111748) can0 28A#0000000000000000
(1790243650.112226) can0 18A#033BE80006
(1790243650.122204) can0 18A#033BE80006
(1790243650.132026) can0 70A#05
(1790243650.132450) can0 38A#000005
(1790243650.132827) can0 28A#0000000000000000
(1790243650.142279) can0 18A#033BE80006
(1790243650.153023) can0 28A#0000000000000000
(1790243650.153628) can0 18A#033BE80006
(1790243650.162802) can0 18A#033BE80006
(1790243650.173095) can0 28A#0000000000000000
(1790243650.173538) can0 18A#033BE80006
(1790243650.183573) can0 38A#000005
(1790243650.184089) can0 18A#033BE80006
(1790243650.193491) can0 28A#0000000000000000
(1790243650.193866) can0 18A#033BE80006
(1790243650.206664) can0 18A#033BE80006
(1790243650.214456) can0 28A#0000000000000000
(1790243650.215015) can0 18A#033BE80006
(1790243650.224173) can0 18A#033BE80006
(1790243650.234364) can0 38A#000005
(1790243650.235008) can0 28A#0000000000000000
(1790243650.235512) can0 18A#033BE80006
(1790243650.244939) can0 18A#033BE70006
(1790243650.255055) can0 28A#0000000000000000
(1790243650.255822) can0 18A#033BE70006
(1790243650.265744) can0 18A#033BE70006
(1790243650.275911) can0 28A#0000000000000000
(1790243650.276750) can0 18A#033BE70006
(1790243650.285550) can0 38A#000005
(1790243650.286067) can0 18A#033BE70006
(1790243650.295955) can0 28A#0000000000000000
(1790243650.297261) can0 18A#033BE60006
(1790243650.306451) can0 18A#033BE60006
(1790243650.316607) can0 28A#0000000000000000
(1790243650.317333) can0 18A#043BE60006
(1790243650.326676) can0 18A#043BE60006
(1790243650.337122) can0 38A#000005
(1790243650.337763) can0 28A#0000000000000000
(1790243650.338351) can0 18A#043BE60006
(1790243650.346944) can0 18A#043BE60006
(1790243650.357232) can0 28A#0000000000000000
(1790243650.357756) can0 18A#043BE60006
(1790243650.367740) can0 18A#043BE60006
(1790243650.377691) can0 28A#0000000000000000
(1790243650.378159) can0 18A#043BE60006
(1790243650.387895) can0 38A#000005
(1790243650.388474) can0 18A#043BE60006
(1790243650.398452) can0 28A#0000000000000000
(1790243650.399064) can0 18A#043BE60006
(1790243650.408473) can0 18A#043BE60006
(1790243650.418690) can0 28A#0000000000000000
(1790243650.419136) can0 18A#043BE60006
(1790243650.429103) can0 18A#043BE60006
(1790243650.439112) can0 38A#000005
(1790243650.439715) can0 28A#0000000000000000
(1790243650.440101) can0 18A#043BE60006
(1790243650.449196) can0 18A#043BE60006
(1790243650.459939) can0 28A#0000000000000000
(1790243650.460418) can0 18A#043BE60006
(1790243650.469762) can0 18A#043BE60006
(1790243650.479968) can0 28A#0000000000000000
(1790243650.480468) can0 18A#043BE60006
(1790243650.490609) can0 38A#000005
(1790243650.492186) can0 18A#043BE60006
(1790243650.500426) can0 28A#0000000000000000
(1790243650.500849) can0 18A#043BE60006
(1790243650.510601) can0 18A#043BE60006
(1790243650.521458) can0 28A#0000000000000000
(1790243650.522431) can0 18A#043BE60006
(1790243650.531084) can0 18A#043BE60006
(1790243650.541451) can0 38A#000005
(1790243650.542124) can0 28A#0000000000000000
(1790243650.542655) can0 18A#043BE60006
(1790243650.551981) can0 18A#043BE60006
(1790243650.562057) can0 28A#0000000000000000
(1790243650.562817) can0 18A#043BE60006
(1790243650.572149) can0 18A#043BE60006
(1790243650.582743) can0 28A#0000000000000000
(1790243650.583675) can0 18A#043BE50006
(1790243650.592599) can0 38A#000005
(1790243650.593133) can0 18A#043BE50006
(1790243650.602809) can0 28A#0000000000000000
(1790243650.603345) can0 18A#043BE40006
(1790243650.613288) can0 18A#043BE40006
(1790243650.623370) can0 28A#0000000000000000
(1790243650.623970) can0 18A#043BE40006
(1790243650.633423) can0 18A#043BE40006
(1790243650.644008) can0 38A#000005
(1790243650.644734) can0 28A#0000000000000000
(1790243650.645256) can0 18A#043BE40006
(1790243650.653787) can0 18A#043BE40006
(1790243650.664254) can0 28A#0000000000000000
(1790243650.664744) can0 18A#043BE40006
(1790243650.674671) can0 18A#043BE40006
(1790243650.684623) can0 28A#0000000000000000
(1790243650.685043) can0 18A#043BE40006
(1790243650.694759) can0 38A#000005
(1790243650.695234) can0 18A#043BE40006
(1790243650.705337) can0 28A#0000000000000000
(1790243650.706698) can0 18A#043BE40006
(1790243650.715279) can0 18A#043BE40006
(1790243650.725649) can0 28A#0000000000000000
(1790243650.726266) can0 18A#043BE40006
(1790243650.737203) can0 18A#043BE40006
(1790243650.745926) can0 38A#000005
(1790243650.746405) can0 28A#0000000000000000
(1790243650.746771) can0 18A#043BE40006
(1790243650.756227) can0 18A#043BE40006
(1790243650.769145) can0 28A#0000000000000000
(1790243650.770359) can0 18A#043BE40006
(1790243650.776650) can0 18A#043BE40006
(1790243650.786924) can0 28A#0000000000000000
(1790243650.787621) can0 18A#043BE40006
(1790243650.797547) can0 38A#000005
(1790243650.798253) can0 18A#043BE40006
(1790243650.807367) can0 28A#0000000000000000
(1790243650.808015) can0 18A#043BE40006
(1790243650.817532) can0 18A#043BE40006
(1790243650.828306) can0 28A#0000000000000000
(1790243650.828914) can0 18A#043BE40006
(1790243650.838036) can0 18A#043BE40006
(1790243650.848342) can0 38A#000005
(1790243650.849028) can0 28A#0000000000000000
(1790243650.849567) can0 18A#043BE40006
(1790243650.858926) can0 18A#043BE40006
(1790243650.868925) can0 28A#0000000000000000
(1790243650.869731) can0 18A#043BE40006
(1790243650.879112) can0 18A#043BE40006
(1790243650.889771) can0 28A#0000000000000000
(1790243650.890868) can0 18A#043BE40006
(1790243650.899529) can0 38A#000005
(1790243650.900234) can0 18A#043BE40006
(1790243650.909876) can0 28A#0000000000000000
(1790243650.911084) can0 18A#043BE40006
(1790243650.920167) can0 18A#043BE40006
(1790243650.930258) can0 28A#0000000000000000
(1790243650.930779) can0 18A#043BE40006
(1790243650.940297) can0 18A#043BE40006
(1790243650.950892) can0 38A#000005
(1790243650.951424) can0 28A#0000000000000000
(1790243650.951812) can0 18A#043BE40006
(1790243650.960790) can0 18A#043BE40006
(1790243650.971077) can0 28A#0000000000000000
(1790243650.971603) can0 18A#043BE40006
(1790243650.981794) can0 18A#043BE40006
(1790243650.991918) can0 28A#0000000000000000
(1790243650.992866) can0 18A#043BE40006
(1790243651.004009) can0 38A#000005
(1790243651.005186) can0 18A#043BE40006
(1790243651.012327) can0 28A#0000000000000000
(1790243651.013572) can0 18A#043BE40006
(1790243651.022044) can0 18A#043BE40006
(1790243651.032366) can0 28A#0000000000000000
(1790243651.032795) can0 18A#043BE40006
(1790243651.042766) can0 18A#043BE40006
(1790243651.052702) can0 38A#000005
(1790243651.053245) can0 28A#0000000000000000
(1790243651.053591) can0 18A#043BE40006
(1790243651.062825) can0 18A#043BE40006
(1790243651.073499) can0 28A#0000000000000000
(1790243651.074159) can0 18A#043BE40006
(1790243651.083422) can0 18A#043BE40006
(1790243651.093646) can0 28A#0000000000000000
(1790243651.094387) can0 18A#043BE40006
(1790243651.103983) can0 38A#000005
(1790243651.104488) can0 18A#043BE40006
(1790243651.113814) can0 28A#0000000000000000
(1790243651.114172) can0 18A#043BE40006
(1790243651.124013) can0 18A#043BE40006
(1790243651.134650) can0 28A#0000000000000000
(1790243651.135109) can0 18A#043BE40006
(1790243651.144354) can0 18A#053BE40006
(1790243651.154533) can0 70A#05
(1790243651.154895) can0 38A#000005
(1790243651.155212) can0 28A#0000000000000000
(1790243651.165118) can0 18A#043BE40006
(1790243651.175007) can0 28A#0000000000000000
(1790243651.175523) can0 18A#043BE40006
(1790243651.185175) can0 18A#043BE40006
(1790243651.195703) can0 28A#0000000000000000
(1790243651.196309) can0 18A#053BE3FF06
(1790243651.205481) can0 38A#000005
(1790243651.205957) can0 18A#053BE3FF06
(1790243651.215733) can0 28A#0000000000000000
(1790243651.216099) can0 18A#053BE3FF06
(1790243651.226249) can0 18A#053BE3FF06
(1790243651.236217) can0 28A#0000000000000000
(1790243651.236688) can0 18A#053BE3FF06
(1790243651.246346) can0 18A#053BE3FF06
(1790243651.256843) can0 38A#000005
(1790243651.257467) can0 28A#0000000000000000
(1790243651.257852) can0 18A#043BE3FF06
(1790243651.266978) can0 18A#053BE3FF06
(1790243651.277022) can0 28A#0000000000000000
(1790243651.277622) can0 18A#053BE3FF06
(1790243651.287483) can0 18A#043BE4FF06
(1790243651.297378) can0 28A#0000000000000000
(1790243651.298059) can0 18A#043BE4FF06
(1790243651.307534) can0 38A#000005
(1790243651.308199) can0 18A#053BE3FF06
(1790243651.318102) can0 28A#0000000000000000
(1790243651.320665) can0 18A#043BE3FF06
(1790243651.327885) can0 18A#053BE3FF06
(1790243651.338107) can0 28A#0000000000000000
(1790243651.338696) can0 18A#053BE3FF06
(1790243651.348522) can0 18A#053BE3FF06
(1790243651.358568) can0 38A#000005
(1790243651.359251) can0 28A#0000000000000000
(1790243651.359756) can0 18A#053BE3FF06
(1790243651.368613) can0 18A#053BE3FF06
(1790243651.379309) can0 28A#0000000000000000
(1790243651.379929) can0 18A#053BE2FE06
(1790243651.389119) can0 18A#053BE3FE06
(1790243651.399321) can0 28A#0000000000000000
(1790243651.399938) can0 18A#053BE2FD06
(1790243651.409799) can0 38A#000005
(1790243651.410532) can0 18A#053BE2FC06
(1790243651.419645) can0 28A#0000000000000000
(1790243651.420968) can0 18A#053BE2FC06
(1790243651.429842) can0 18A#053BE2FB06
(1790243651.440610) can0 28A#0000000000000000
(1790243651.441570) can0 18A#053BE2FA06
(1790243651.450069) can0 18A#053BE2FA06
(1790243651.460305) can0 38A#000005
(1790243651.460833) can0 28A#0000000000000000
(1790243651.461188) can0 18A#053BE2FA06
(1790243651.470865) can0 18A#053BE2FA06
(1790243651.480804) can0 28A#0000000000000000
(1790243651.481414) can0 18A#053BE2FA06
(1790243651.490978) can0 18A#053BE2FA06
(1790243651.501459) can0 28A#0000000000000000
(1790243651.501988) can0 18A#053BE2FA06
(1790243651.511302) can0 38A#000005
(1790243651.511865) can0 18A#053BE2FA06
(1790243651.521478) can0 28A#0000000000000000
(1790243651.521843) can0 18A#053BE2FA06
(1790243651.532016) can0 18A#053BE2FA06
(1790243651.541997) can0 28A#0000000000000000
(1790243651.542621) can0 18A#053BE2FA06
(1790243651.552018) can0 18A#053BE2FA06
(1790243651.562595) can0 38A#000005
(1790243651.563128) can0 28A#0000000000000000
(1790243651.563554) can0 18A#053BE2FA06
(1790243651.572352) can0 18A#053BE2FA06
(1790243651.582675) can0 28A#0000000000000000
(1790243651.583140) can0 18A#053BE2FA06
(1790243651.593243) can0 18A#053BE2FA06
(1790243651.602997) can0 28A#0000000000000000
(1790243651.603512) can0 18A#053BE2FA06
(1790243651.613370) can0 38A#000005
(1790243651.614019) can0 18A#053BE2FA06
(1790243651.623769) can0 28A#0000000000000000
(1790243651.625683) can0 18A#053BE2FA06
(1790243651.633549) can0 18A#053BE2FA06
(1790243651.643943) can0 28A#0000000000000000
(1790243651.644729) can0 18A#053BE2F906
(1790243651.654349) can0 18A#053BE2F806
(1790243651.664182) can0 38A#000005
(1790243651.664748) can0 28A#0000000000000000
(1790243651.665205) can0 18A#053BE2F806
(1790243651.674274) can0 18A#053BE2F706
(1790243651.684985) can0 28A#0000000000000000
(1790243651.685489) can0 18A#053BE2F706
(1790243651.694797) can0 18A#053BE2F606
(1790243651.704968) can0 28A#0000000000000000
(1790243651.705545) can0 18A#053BE2F606
(1790243651.715522) can0 38A#000005
(1790243651.716155) can0 18A#053BE3F506
(1790243651.725418) can0 28A#0000000000000000
(1790243651.726822) can0 18A#053BE3F506
(1790243651.735545) can0 18A#053BE3F506
(1790243651.746265) can0 28A#0000000000000000
(1790243651.746968) can0 18A#053BE3F506
(1790243651.755899) can0 18A#053BE2F506
(1790243651.765967) can0 38A#000005
(1790243651.766513) can0 28A#0000000000000000
(1790243651.766901) can0 18A#053BE3F506
(1790243651.776506) can0 18A#053BE3F506
(1790243651.786478) can0 28A#0000000000000000
(1790243651.787004) can0 18A#053BE3F506
(1790243651.796723) can0 18A#053BE3F506
(1790243651.807240) can0 28A#0000000000000000
(1790243651.807922) can0 18A#053BE2F506
(1790243651.817084) can0 38A#000005
(1790243651.817676) can0 18A#053BE2F506
(1790243651.827331) can0 28A#0000000000000000
(1790243651.828312) can0 18A#053BE2F506
(1790243651.837879) can0 18A#053BE2F506
(1790243651.847861) can0 28A#0000000000000000
(1790243651.848746) can0 18A#053BE2F506
(1790243651.857800) can0 18A#053BE2F506
(1790243651.868351) can0 38A#000005
(1790243651.869092) can0 28A#0000000000000000
(1790243651.869663) can0 18A#053BE2F506
(1790243651.878157) can0 18A#053BE2F506
(1790243651.888417) can0 28A#0000000000000000
(1790243651.888940) can0 18A#053BE3F506
(1790243651.898885) can0 18A#053BE3F506
(1790243651.908708) can0 28A#0000000000000000
(1790243651.909149) can0 18A#053BE3F506
(1790243651.918870) can0 38A#000005
(1790243651.919540) can0 18A#053BE2F506
(1790243651.929511) can0 28A#0000000000000000
(1790243651.931012) can0 18A#053BE2F506
(1790243651.939331) can0 18A#053BE2F506
(1790243651.949703) can0 28A#0000000000000000
(1790243651.950400) can0 18A#053BE2F406
(1790243651.960073) can0 18A#053BE2F406
(1790243651.969886) can0 38A#000005
(1790243651.970467) can0 28A#0000000000000000
(1790243651.970805) can0 18A#053BE2F406
(1790243651.979975) can0 18A#053AE3F306
(1790243651.990710) can0 28A#0000000000000000
(1790243651.991305) can0 18A#053AE3F306
(1790243652.000568) can0 18A#053AE3F306
(1790243652.010772) can0 28A#0000000000000000
(1790243652.011513) can0 18A#053AE3F206
(1790243652.021103) can0 38A#000005
(1790243652.021713) can0 18A#053AE3F206
(1790243652.030946) can0 28A#0000000000000000
(1790243652.031477) can0 18A#053AE3F206
(1790243652.041195) can0 18A#053AE3F206
(1790243652.051652) can0 28A#0000000000000000
(1790243652.052093) can0 18A#053AE3F206
(1790243652.061388) can0 18A#053AE3F206
(1790243652.071628) can0 38A#000005
(1790243652.072364) can0 28A#0000000000000000
(1790243652.073004) can0 18A#053AE3F206
(1790243652.082191) can0 18A#053AE3F206
(1790243652.092055) can0 28A#0000000000000000
(1790243652.092806) can0 18A#053AE3F206
(1790243652.102130) can0 18A#053AE3F206
(1790243652.112908) can0 28A#0000000000000000
(1790243652.114451) can0 18A#053AE3F206
(1790243652.122307) can0 38A#000005
(1790243652.122760) can0 18A#053AE3F206
(1790243652.132495) can0 28A#0000000000000000
(1790243652.132856) can0 18A#043AE3F206
(1790243652.142952) can0 18A#043AE3F206
(1790243652.152907) can0 28A#0000000000000000
(1790243652.153424) can0 18A#043AE3F206
(1790243652.162910) can0 18A#043AE3F206
(1790243652.173429) can0 70A#05
(1790243652.173934) can0 38A#000005
(1790243652.174318) can0 28A#0000000000000000
(1790243652.183285) can0 18A#053AE3F206
(1790243652.193589) can0 28A#0000000000000000
(1790243652.194106) can0 18A#053AE3F206
(1790243652.203892) can0 18A#053AE3F106
(1790243652.213774) can0 28A#0000000000000000
(1790243652.214134) can0 18A#053AE3F106
(1790243652.223828) can0 38A#000005
(1790243652.224255) can0 18A#053AE3F106
(1790243652.234447) can0 28A#0000000000000000
(1790243652.234945) can0 18A#043AE3F006
(1790243652.244172) can0 18A#043AE3F006
(1790243652.254477) can0 28A#0000000000000000
(1790243652.254949) can0 18A#053AE3EF06
(1790243652.264816) can0 18A#053AE3EF06
(1790243652.274578) can0 38A#000005
(1790243652.275069) can0 28A#0000000000000000
(1790243652.275475) can0 18A#053AE3EE06
(1790243652.284763) can0 18A#053AE2EE06
(1790243652.295312) can0 28A#0000000000000000
(1790243652.295729) can0 18A#053AE3EE06
(1790243652.305141) can0 18A#053AE3EE06
(1790243652.315330) can0 28A#0000000000000000
(1790243652.315874) can0 18A#053AE3EE06
(1790243652.326371) can0 38A#000005
(1790243652.327299) can0 18A#053AE3EE06
(1790243652.335672) can0 28A#0000000000000000
(1790243652.336132) can0 18A#053AE3EE06
(1790243652.345837) can0 18A#043AE3EE06
(1790243652.356440) can0 28A#0000000000000000
(1790243652.357229) can0 18A#043AE3EE06
(1790243652.366122) can0 18A#043AE3EE06
(1790243652.376429) can0 38A#000005
(1790243652.377197) can0 28A#0000000000000000
(1790243652.377745) can0 18A#043AE3EE06
(1790243652.386788) can0 18A#043AE3EE06
(1790243652.396720) can0 28A#0000000000000000
(1790243652.397575) can0 18A#043AE3EE06
(1790243652.406807) can0 18A#043AE3EE06
(1790243652.417302) can0 28A#0000000000000000
(1790243652.417980) can0 18A#043AE3EE06
(1790243652.427059) can0 38A#000005
(1790243652.427572) can0 18A#043AE3EE06
(1790243652.437174) can0 28A#0000000000000000
(1790243652.437563) can0 18A#043AE3EE06
(1790243652.447657) can0 18A#043AE3EE06
(1790243652.457661) can0 28A#0000000000000000
(1790243652.458253) can0 18A#043AE3EF06
(1790243652.467657) can0 18A#043AE3EE06
(1790243652.478148) can0 38A#000005
(1790243652.478631) can0 28A#0000000000000000
(1790243652.478957) can0 18A#043AE3ED06
(1790243652.487901) can0 18A#043AE3ED06
(1790243652.498199) can0 28A#0000000000000000
(1790243652.498748) can0 18A#043AE3ED06
(1790243652.508648) can0 18A#043AE3EC06
(1790243652.518435) can0 28A#0000000000000000
(1790243652.518850) can0 18A#053AE3EC06
(1790243652.528555) can0 38A#000005
(1790243652.529029) can0 18A#053AE3EC06
(1790243652.539095) can0 28A#0000000000000000
(1790243652.540507) can0 18A#043AE3EB06
(1790243652.548782) can0 18A#043AE3EB06
(1790243652.559211) can0 28A#0000000000000000
(1790243652.559922) can0 18A#043AE3EB06
(1790243652.569417) can0 18A#053AE3EB06
(1790243652.579395) can0 38A#000005
(1790243652.579957) can0 28A#0000000000000000
(1790243652.580311) can0 18A#043AE3EB06
(1790243652.589421) can0 18A#043AE3EB06
(1790243652.600075) can0 28A#0000000000000000
(1790243652.600522) can0 18A#053AE3EB06
(1790243652.609878) can0 18A#043AE3EB06
(1790243652.620062) can0 28A#0000000000000000
(1790243652.620729) can0 18A#053AE3EB06
(1790243652.630525) can0 38A#000005
(1790243652.631098) can0 18A#053AE2EB06
(1790243652.640517) can0 28A#0000000000000000
(1790243652.640960) can0 18A#053AE2EB06
(1790243652.650497) can0 18A#043AE3EB06
(1790243652.661102) can0 28A#0000000000000000
(1790243652.661689) can0 18A#043AE3EB06
(1790243652.670848) can0 18A#043AE3EB06
(1790243652.681030) can0 38A#000005
(1790243652.682064) can0 28A#0000000000000000
(1790243652.682660) can0 18A#053AE3EB06
(1790243652.691560) can0 18A#043AE3EB06
(1790243652.701235) can0 28A#0000000000000000
(1790243652.701726) can0 18A#043AE3EB06
(1790243652.711645) can0 18A#043AE3EB06
(1790243652.722046) can0 28A#0000000000000000
(1790243652.722593) can0 18A#043AE3EB06
(1790243652.731993) can0 38A#000005
(1790243652.733090) can0 18A#043AE3EB06
(1790243652.742069) can0 28A#0000000000000000
(1790243652.742799) can0 18A#043AE3EA06
(1790243652.752398) can0 18A#043AE3EA06
(1790243652.762386) can0 28A#0000000000000000
(1790243652.763019) can0 18A#043AE3EA06
(1790243652.773099) can0 18A#043AE3EA06
(1790243652.782919) can0 38A#000005
(1790243652.783518) can0 28A#0000000000000000
(1790243652.783968) can0 18A#043AE3E906
(1790243652.792568) can0 18A#0439E3E906
(1790243652.802961) can0 28A#0000000000000000
(1790243652.803491) can0 18A#0439E3E806
(1790243652.813390) can0 18A#0439E3E806
(1790243652.823135) can0 28A#0000000000000000
(1790243652.823648) can0 18A#0439E3E806
(1790243652.833370) can0 38A#000005
(1790243652.834079) can0 18A#0439E3E806
(1790243652.843754) can0 28A#0000000000000000
(1790243652.844477) can0 18A#0439E3E806
(1790243652.853492) can0 18A#0439E3E806
(1790243652.863817) can0 28A#0000000000000000
(1790243652.864454) can0 18A#0439E3E806
(1790243652.874135) can0 18A#0439E3E806
(1790243652.884057) can0 38A#000005
(1790243652.884607) can0 28A#0000000000000000
(1790243652.885004) can0 18A#0439E3E806
(1790243652.894143) can0 18A#0439E3E806
(1790243652.904761) can0 28A#0000000000000000
(1790243652.905236) can0 18A#0439E3E806
(1790243652.914574) can0 18A#0439E3E806
(1790243652.924698) can0 28A#0000000000000000
(1790243652.925143) can0 18A#0439E3E806
(1790243652.935107) can0 38A#000005
(1790243652.935599) can0 18A#0439E3E806
(1790243652.944992) can0 28A#0000000000000000
(1790243652.945523) can0 18A#0439E3E806
(1790243652.955331) can0 18A#0439E3E806
(1790243652.965827) can0 28A#0000000000000000
(1790243652.966574) can0 18A#0439E3E806
(1790243652.975475) can0 18A#0439E3E806
(1790243652.985611) can0 38A#000005
(1790243652.986106) can0 28A#0000000000000000
(1790243652.986431) can0 18A#0439E3E806
(1790243652.995985) can0 18A#0439E3E806
(1790243653.005929) can0 28A#0000000000000000
(1790243653.006405) can0 18A#0439E3E806
(1790243653.016009) can0 18A#0439E3E806
(1790243653.026513) can0 28A#0000000000000000
(1790243653.027033) can0 18A#0439E3E806
(1790243653.036569) can0 38A#000005
(1790243653.037113) can0 18A#0439E3E806
(1790243653.046486) can0 28A#0000000000000000
(1790243653.047109) can0 18A#0339E3E706
(1790243653.056928) can0 18A#0339E4E706
(1790243653.067578) can0 28A#0000000000000000
(1790243653.071526) can0 18A#0339E4E706
(1790243653.076746) can0 18A#0339E5E606
(1790243653.087224) can0 38A#000005
(1790243653.087709) can0 28A#0000000000000000
(1790243653.088077) can0 18A#0339E5E506
(1790243653.097252) can0 18A#0339E5E506
(1790243653.107115) can0 28A#0000000000000000
(1790243653.107564) can0 18A#0339E5E506
(1790243653.117624) can0 18A#0339E5E506
(1790243653.127442) can0 28A#0000000000000000
(1790243653.127959) can0 18A#0339E5E506
(1790243653.137525) can0 38A#000005
(1790243653.138079) can0 18A#0339E5E506
(1790243653.148053) can0 28A#0000000000000000
(1790243653.148741) can0 18A#0339E5E506
(1790243653.157842) can0 18A#0339E5E506
(1790243653.168129) can0 28A#0000000000000000
(1790243653.168885) can0 18A#0339E5E506
(1790243653.178434) can0 18A#0339E5E506
(1790243653.188199) can0 70A#05
(1790243653.188698) can0 38A#000005
(1790243653.189194) can0 28A#0000000000000000
(1790243653.198287) can0 18A#0339E5E506
(1790243653.208847) can0 28A#0000000000000000
(1790243653.209394) can0 18A#0339E5E506
(1790243653.218597) can0 18A#0339E5E506
(1790243653.228722) can0 28A#0000000000000000
(1790243653.229148) can0 18A#0339E5E506
(1790243653.239064) can0 38A#000005
(1790243653.239553) can0 18A#0339E5E506
(1790243653.248870) can0 28A#0000000000000000
(1790243653.249246) can0 18A#0339E5E506
(1790243653.259043) can0 18A#0339E5E506
(1790243653.269475) can0 28A#0000000000000000
(1790243653.269896) can0 18A#0339E5E506
(1790243653.279219) can0 18A#0339E5E506
(1790243653.289397) can0 38A#000005
(1790243653.289903) can0 28A#0000000000000000
(1790243653.290301) can0 18A#0339E5E506
(1790243653.299744) can0 18A#0339E5E506
(1790243653.309740) can0 28A#0000000000000000
(1790243653.310327) can0 18A#0339E5E406
(1790243653.319814) can0 18A#0339E5E406
(1790243653.330302) can0 28A#0000000000000000
(1790243653.330855) can0 18A#0339E5E306
(1790243653.340092) can0 38A#000005
(1790243653.340692) can0 18A#0339E5E306
(1790243653.350279) can0 28A#0000000000000000
(1790243653.351236) can0 18A#0239E6E306
(1790243653.360782) can0 18A#0239E6E206
(1790243653.371149) can0 28A#0000000000000000
(1790243653.373024) can0 18A#0238E6E206
(1790243653.380607) can0 18A#0238E6E206
(1790243653.390927) can0 38A#000005
(1790243653.391402) can0 28A#0000000000000000
(1790243653.391906) can0 18A#0238E6E206
(1790243653.400794) can0 18A#0238E6E206
(1790243653.410900) can0 28A#0000000000000000
(1790243653.411353) can0 18A#0238E6E206
(1790243653.421439) can0 18A#0238E6E206
(1790243653.431174) can0 28A#0000000000000000
(1790243653.431582) can0 18A#0238E6E206
(1790243653.441252) can0 38A#000005
(1790243653.441729) can0 18A#0238E6E206
(1790243653.451766) can0 28A#0000000000000000
(1790243653.452314) can0 18A#0238E6E206
(1790243653.461534) can0 18A#0238E6E206
(1790243653.471813) can0 28A#0000000000000000
(1790243653.472345) can0 18A#0238E6E206
(1790243653.482072) can0 18A#0238E6E206
(1790243653.491956) can0 38A#000005
(1790243653.492571) can0 28A#0000000000000000
(1790243653.493151) can0 18A#0238E6E206
(1790243653.501957) can0 18A#0238E6E206
(1790243653.512598) can0 28A#0000000000000000
(1790243653.513097) can0 18A#0238E6E206
(1790243653.522314) can0 18A#0238E6E206
(1790243653.532408) can0 28A#0000000000000000
(1790243653.532813) can0 18A#0238E6E206
(1790243653.542985) can0 38A#000005
(1790243653.543483) can0 18A#0238E6E206
(1790243653.552713) can0 28A#0000000000000000
(1790243653.553172) can0 18A#0238E6E206
(1790243653.562823) can0 18A#0238E6E106
(1790243653.573390) can0 28A#0000000000000000
(1790243653.573957) can0 18A#0238E6E106
(1790243653.582981) can0 18A#0238E6E106
(1790243653.593160) can0 38A#000005
(1790243653.593695) can0 28A#0000000000000000
(1790243653.594086) can0 18A#0238E6E106
(1790243653.603578) can0 18A#0238E6E006
(1790243653.613569) can0 28A#0000000000000000
(1790243653.614120) can0 18A#0238E6E006
(1790243653.623555) can0 18A#0238E7E006
(1790243653.634026) can0 28A#0000000000000000
(1790243653.634510) can0 18A#0238E7DF06
(1790243653.643697) can0 38A#000005
(1790243653.644222) can0 18A#0238E7DF06
(1790243653.653870) can0 28A#0000000000000000
(1790243653.654245) can0 18A#0238E7DF06
(1790243653.664305) can0 18A#0238E7DF06
(1790243653.674262) can0 28A#0000000000000000
(1790243653.674751) can0 18A#0238E7DF06
(1790243653.684381) can0 18A#0238E7DF06
(1790243653.694728) can0 38A#000005
(1790243653.695192) can0 28A#0000000000000000
(1790243653.695547) can0 18A#0238E7DF06
(1790243653.704507) can0 18A#0238E7DF06
(1790243653.714735) can0 28A#0000000000000000
(1790243653.715168) can0 18A#0238E7DF06
(1790243653.725153) can0 18A#0238E7DF06
(1790243653.735023) can0 28A#0000000000000000
(1790243653.735624) can0 18A#0238E7DF06
(1790243653.745106) can0 38A#000005
(1790243653.745712) can0 18A#0238E7DF06
(1790243653.755508) can0 28A#0000000000000000
(1790243653.755924) can0 18A#0238E7DF06
(1790243653.765302) can0 18A#0238E7DF06
(1790243653.775525) can0 28A#0000000000000000
(1790243653.775991) can0 18A#0238E7DF06
(1790243653.785841) can0 18A#0238E7DF06
(1790243653.795598) can0 38A#000005
(1790243653.796102) can0 28A#0000000000000000
(1790243653.796519) can0 18A#0238E7DF06
(1790243653.805666) can0 18A#0238E7DF06
(1790243653.816299) can0 28A#0000000000000000
(1790243653.816762) can0 18A#0238E7DF06
(1790243653.825993) can0 18A#0238E7DF06
(1790243653.840660) can0 28A#0000000000000000
(1790243653.841711) can0 18A#0238E7DE06
(1790243653.846538) can0 38A#000005
(1790243653.846948) can0 18A#0238E7DE06
(1790243653.856345) can0 28A#0000000000000000
(1790243653.856701) can0 18A#0238E7DE06
(1790243653.866621) can0 18A#0138E8DE06
(1790243653.877242) can0 28A#0000000000000000
(1790243653.878108) can0 18A#0237E8DD06
(1790243653.886885) can0 18A#0137E8DD06
(1790243653.897077) can0 38A#000005
(1790243653.897906) can0 28A#0000000000000000
(1790243653.898462) can0 18A#0137E8DD06
(1790243653.907475) can0 18A#0137E8DC06
(1790243653.917361) can0 28A#0000000000000000
(1790243653.917995) can0 18A#0137E8DC06
(1790243653.927335) can0 18A#0137E8DC06
(1790243653.937750) can0 28A#0000000000000000
(1790243653.938192) can0 18A#0137E8DC06
(1790243653.947506) can0 38A#000005
(1790243653.948043) can0 18A#0137E8DC06
(1790243653.957662) can0 28A#0000000000000000
(1790243653.958065) can0 18A#0137E8DC06
(1790243653.968190) can0 18A#0137E8DC06
(1790243653.978027) can0 28A#0000000000000000
(1790243653.978544) can0 18A#0137E8DC06
(1790243653.988030) can0 18A#0137E8DC06
(1790243653.998527) can0 38A#000005
(1790243653.999091) can0 28A#0000000000000000
(1790243653.999454) can0 18A#0137E8DC06
(1790243654.008213) can0 18A#0137E8DC06
(1790243654.018615) can0 28A#0000000000000000
(1790243654.019154) can0 18A#0137E8DC06
(1790243654.028863) can0 18A#0137E8DC06
(1790243654.038633) can0 28A#0000000000000000
(1790243654.039313) can0 18A#0137E8DC06
(1790243654.048700) can0 38A#000005
(1790243654.049435) can0 18A#0137E8DC06
(1790243654.059249) can0 28A#0000000000000000
(1790243654.059879) can0 18A#0137E8DC06
(1790243654.068951) can0 18A#0137E8DC06
(1790243654.079162) can0 28A#0000000000000000
(1790243654.079986) can0 18A#0137E8DC06
(1790243654.089441) can0 18A#0137E8DC06
(1790243654.099137) can0 38A#000005
(1790243654.099602) can0 28A#0000000000000000
(1790243654.099976) can0 18A#0137E8DC06
(1790243654.110576) can0 18A#0137E8DC06
(1790243654.119890) can0 28A#0000000000000000
(1790243654.120622) can0 18A#0137E8DC06
(1790243654.129642) can0 18A#0137E8DC06
(1790243654.139703) can0 28A#0000000000000000
(1790243654.140342) can0 18A#0137E8DC06
(1790243654.150121) can0 38A#000005
(1790243654.150889) can0 18A#0137E8DB06
(1790243654.159897) can0 28A#0000000000000000
(1790243654.160630) can0 18A#0137E8DB06
(1790243654.170021) can0 18A#0137E8DB06
(1790243654.180492) can0 28A#0000000000000000
(1790243654.181300) can0 18A#0137E8DA06
(1790243654.189985) can0 18A#0137E8DA06
(1790243654.200064) can0 70A#05
(1790243654.200511) can0 38A#000005
(1790243654.200891) can0 28A#0000000000000000
(1790243654.210491) can0 18A#0137E8DA06
(1790243654.220399) can0 28A#0000000000000000
(1790243654.220831) can0 18A#0137E8DA06
(1790243654.230425) can0 18A#0137E8DA06
(1790243654.241033) can0 28A#0000000000000000
(1790243654.241496) can0 18A#0137E8DA06
(1790243654.250659) can0 38A#000005
(1790243654.251161) can0 18A#0137E8DA06
(1790243654.260786) can0 28A#0000000000000000
(1790243654.261136) can0 18A#0137E8DA06
(1790243654.271224) can0 18A#0137E9DA06
(1790243654.281558) can0 28A#0000000000000000
(1790243654.282473) can0 18A#0137E9DA06
(1790243654.291198) can0 18A#0137E9DA06
(1790243654.302350) can0 38A#000005
(1790243654.303321) can0 28A#0000000000000000
(1790243654.304186) can0 18A#0137E9DA06
(1790243654.311461) can0 18A#0137E9DA06
(1790243654.321578) can0 28A#0000000000000000
(1790243654.322480) can0 18A#0137E9DA06
(1790243654.331893) can0 18A#0137E9DA06
(1790243654.341560) can0 28A#0000000000000000
(1790243654.342274) can0 18A#0137E9DA06
(1790243654.351662) can0 38A#000005
(1790243654.352378) can0 18A#0137E9DA06
(1790243654.362080) can0 28A#0000000000000000
(1790243654.362799) can0 18A#0137E9DA06
(1790243654.371886) can0 18A#0137E9DA06
(1790243654.382107) can0 28A#0000000000000000
(1790243654.383009) can0 18A#0137E9DA06
(1790243654.392458) can0 18A#0136E9D906
(1790243654.402202) can0 38A#000005
(1790243654.402851) can0 28A#0000000000000000
(1790243654.403309) can0 18A#0036EAD906
(1790243654.412260) can0 18A#0136EAD906
(1790243654.422770) can0 28A#0000000000000000
(1790243654.423437) can0 18A#0036EAD806
(1790243654.432672) can0 18A#0036EAD806
(1790243654.442758) can0 28A#0000000000000000
(1790243654.443441) can0 18A#0036EAD806
(1790243654.452983) can0 38A#000005
(1790243654.453544) can0 18A#0036EAD806
(1790243654.462731) can0 28A#0000000000000000
(1790243654.463225) can0 18A#0036EAD806
(1790243654.472785) can0 18A#0036EAD706
(1790243654.483345) can0 28A#0000000000000000
(1790243654.483907) can0 18A#0036EAD706
(1790243654.492972) can0 18A#0036EAD706
(1790243654.503177) can0 38A#000005
(1790243654.503811) can0 28A#0000000000000000
(1790243654.504201) can0 18A#0036EAD706
(1790243654.513570) can0 18A#0036EAD706
(1790243654.523420) can0 28A#0000000000000000
(1790243654.523990) can0 18A#0036EAD706
(1790243654.533559) can0 18A#0036EAD706
(1790243654.543870) can0 28A#0000000000000000
(1790243654.544379) can0 18A#0036EAD706
(1790243654.553619) can0 38A#000005
(1790243654.554165) can0 18A#0036EAD706
(1790243654.563694) can0 28A#0000000000000000
(1790243654.564090) can0 18A#0036EAD706
(1790243654.574115) can0 18A#0036EAD706
(1790243654.584000) can0 28A#0000000000000000
(1790243654.584546) can0 18A#0036EAD706
(1790243654.593906) can0 18A#0036EAD706
(1790243654.604466) can0 38A#000005
(1790243654.605012) can0 28A#0000000000000000
(1790243654.605416) can0 18A#0036EAD706
(1790243654.614045) can0 18A#0036EAD706
(1790243654.624288) can0 28A#0000000000000000
(1790243654.624689) can0 18A#0036EAD706
(1790243654.634775) can0 18A#0036EAD706
(1790243654.644549) can0 28A#0000000000000000
(1790243654.645083) can0 18A#0036EAD706
(1790243654.654695) can0 38A#000005
(1790243654.655295) can0 18A#0036EAD706
(1790243654.665007) can0 28A#0000000000000000
(1790243654.665436) can0 18A#0036EAD706
(1790243654.674745) can0 18A#0036EAD706
(1790243654.685097) can0 28A#0000000000000000
(1790243654.685678) can0 18A#0036EAD606
(1790243654.695328) can0 18A#0035EAD606
(1790243654.705157) can0 38A#000005
(1790243654.705882) can0 28A#0000000000000000
(1790243654.706362) can0 18A#0035EBD606
(1790243654.715132) can0 18A#0035EBD506
(1790243654.725618) can0 28A#0000000000000000
(1790243654.726038) can0 18A#0035EBD506
(1790243654.735357) can0 18A#0035EBD506
(1790243654.745419) can0 28A#0000000000000000
(1790243654.745775) can0 18A#0035EBD506
(1790243654.755905) can0 38A#000005
(1790243654.756496) can0 18A#0035EBD506
(1790243654.765852) can0 28A#0000000000000000
(1790243654.767026) can0 18A#0035EBD506
(1790243654.776786) can0 18A#0035EBD506
(1790243654.786512) can0 28A#0000000000000000
(1790243654.789287) can0 18A#0035EBD506
(1790243654.796101) can0 18A#0035EBD506
(1790243654.806177) can0 38A#000005
(1790243654.806834) can0 28A#0000000000000000
(1790243654.807246) can0 18A#0035EBD506
(1790243654.816422) can0 18A#0035EBD506
(1790243654.826350) can0 28A#0000000000000000
(1790243654.826800) can0 18A#0035EBD506
(1790243654.836417) can0 18A#0035EBD506
(1790243654.846851) can0 28A#0000000000000000
(1790243654.847292) can0 18A#0035EBD506
(1790243654.856583) can0 38A#000005
(1790243654.857096) can0 18A#0035EBD506
(1790243654.866639) can0 28A#0000000000000000
(1790243654.866976) can0 18A#0035EBD506
(1790243654.876983) can0 18A#0035EBD506
(1790243654.887050) can0 28A#0000000000000000
(1790243654.887609) can0 18A#0035EBD506
(1790243654.896902) can0 18A#0035EBD506
(1790243654.907408) can0 38A#000005
(1790243654.907999) can0 28A#0000000000000000
(1790243654.908398) can0 18A#0035EBD506
(1790243654.917104) can0 18A#0035EBD506
(1790243654.927389) can0 28A#0000000000000000
(1790243654.928022) can0 18A#0035ECD406
(1790243654.938140) can0 18A#0035ECD406
(1790243654.948884) can0 28A#0000000000000000
(1790243654.950217) can0 18A#0035ECD406
(1790243654.958845) can0 38A#000005
(1790243654.960753) can0 18A#0035ECD406
(1790243654.968045) can0 28A#0000000000000000
(1790243654.968632) can0 18A#0034ECD306
(1790243654.977793) can0 18A#0034ECD306
(1790243654.988002) can0 28A#0000000000000000
(1790243654.988546) can0 18A#0034ECD306
(1790243654.998241) can0 18A#0034EDD306
(1790243655.008102) can0 38A#000005
(1790243655.008629) can0 28A#0000000000000000
(1790243655.008997) can0 18A#0034EDD306
(1790243655.018311) can0 18A#0034EDD306
(1790243655.028588) can0 28A#0000000000000000
(1790243655.029318) can0 18A#0034EDD306
(1790243655.038275) can0 18A#0034ECD306
(1790243655.048351) can0 28A#0000000000000000
(1790243655.048809) can0 18A#0034ECD306
(1790243655.058817) can0 38A#000005
(1790243655.059528) can0 18A#0034ECD306
(1790243655.068518) can0 28A#0000000000000000
(1790243655.068984) can0 18A#0034ECD306
(1790243655.078636) can0 18A#0034ECD306
(1790243655.089101) can0 28A#0000000000000000
(1790243655.089692) can0 18A#0034ECD306
(1790243655.098682) can0 18A#0034ECD306
(1790243655.108746) can0 38A#000005
(1790243655.109256) can0 28A#0000000000000000
(1790243655.109671) can0 18A#0034ECD306
(1790243655.119163) can0 18A#0034ECD306
(1790243655.129031) can0 28A#0000000000000000
(1790243655.129572) can0 18A#0034ECD306
(1790243655.141043) can0 18A#0034ECD306
(1790243655.149690) can0 28A#0000000000000000
(1790243655.150453) can0 18A#0034ECD306
(1790243655.159149) can0 38A#000005
(1790243655.159658) can0 18A#0034ECD306
(1790243655.169251) can0 28A#0000000000000000
(1790243655.169995) can0 18A#0034ECD306
(1790243655.179615) can0 18A#0034ECD306
(1790243655.189427) can0 28A#0000000000000000
(1790243655.189864) can0 18A#0034ECD306
(1790243655.199550) can0 18A#0034ECD306
(1790243655.209881) can0 70A#05
(1790243655.210431) can0 38A#000005
(1790243655.210950) can0 28A#0000000000000000
(1790243655.219664) can0 18A#0034EDD306
(1790243655.229735) can0 28A#0000000000000000
(1790243655.230192) can0 18A#0034EDD206
(1790243655.240147) can0 18A#0034EDD206
(1790243655.249875) can0 28A#0000000000000000
(1790243655.250331) can0 18A#0034EDD206
(1790243655.259982) can0 38A#000005
(1790243655.260528) can0 18A#0034EED206
(1790243655.270286) can0 28A#0000000000000000
(1790243655.270635) can0 18A#0034EED106
(1790243655.280044) can0 18A#0034EED106
(1790243655.290108) can0 28A#0000000000000000
(1790243655.290519) can0 18A#0034EED106
(1790243655.300420) can0 18A#0034EED106
(1790243655.310279) can0 38A#000005
(1790243655.310772) can0 28A#0000000000000000
(1790243655.311179) can0 18A#0034EED106
(1790243655.320286) can0 18A#0034EED106
(1790243655.330918) can0 28A#0000000000000000
(1790243655.331530) can0 18A#0034EED106
(1790243655.340571) can0 18A#0034EED106
(1790243655.350632) can0 28A#0000000000000000
(1790243655.351079) can0 18A#0034EED106
(1790243655.361006) can0 38A#000005
(1790243655.361525) can0 18A#0034EED106
(1790243655.370834) can0 28A#0000000000000000
(1790243655.371340) can0 18A#0034EED106
(1790243655.380778) can0 18A#0034EED106
(1790243655.391296) can0 28A#0000000000000000
(1790243655.391767) can0 18A#0034EED106
(1790243655.400857) can0 18A#0034EED106
(1790243655.411000) can0 38A#000005
(1790243655.411446) can0 28A#0000000000000000
(1790243655.411815) can0 18A#0034EED106
(1790243655.421473) can0 18A#0034EED106
(1790243655.431225) can0 28A#0000000000000000
(1790243655.431686) can0 18A#0034EED106
(1790243655.441294) can0 18A#0034EED106
(1790243655.451720) can0 28A#0000000000000000
(1790243655.452310) can0 18A#0034EED106
(1790243655.463399) can0 38A#000005
(1790243655.464032) can0 18A#0034EED106
(1790243655.471508) can0 28A#0000000000000000
(1790243655.471952) can0 18A#0034EED106
(1790243655.481907) can0 18A#0033EED106
(1790243655.491919) can0 28A#0000000000000000
(1790243655.492640) can0 18A#0033EED106
(1790243655.501813) can0 18A#0033EED006
(1790243655.512234) can0 38A#000005
(1790243655.512837) can0 28A#0000000000000000
(1790243655.513255) can0 18A#0033EED006
(1790243655.522087) can0 18A#0033EED006
(1790243655.532477) can0 28A#0000000000000000
(1790243655.533612) can0 18A#0033EFD006
(1790243655.542301) can0 18A#0033EFD006
(1790243655.552493) can0 28A#0000000000000000
(1790243655.552945) can0 18A#0033EFCF06
(1790243655.562101) can0 38A#000005
(1790243655.562929) can0 18A#0033EFD006
(1790243655.572652) can0 28A#0000000000000000
(1790243655.573140) can0 18A#0033EFD006
(1790243655.582398) can0 18A#0033EFCF06
(1790243655.593425) can0 28A#0000000000000000
(1790243655.594266) can0 18A#0033EFCF06
(1790243655.602776) can0 18A#0033EFCF06
(1790243655.612674) can0 38A#000005
(1790243655.614389) can0 28A#0000000000000000
(1790243655.615210) can0 18A#0033EFCF06
(1790243655.622790) can0 18A#0033EFCF06
(1790243655.633263) can0 28A#0000000000000000
(1790243655.633861) can0 18A#0033EFCF06
(1790243655.642894) can0 18A#0033EFCF06
(1790243655.652957) can0 28A#0000000000000000
(1790243655.653409) can0 18A#0033EFCF06
(1790243655.663381) can0 38A#000005
(1790243655.664055) can0 18A#0033EFCF06
(1790243655.673230) can0 28A#0000000000000000
(1790243655.673790) can0 18A#0033EFCF06
(1790243655.683200) can0 18A#0033EFCF06
(1790243655.693670) can0 28A#0000000000000000
(1790243655.694232) can0 18A#0033EFCF06
(1790243655.703295) can0 18A#0033EFCF06
(1790243655.713413) can0 38A#000005
(1790243655.714031) can0 28A#0000000000000000
(1790243655.714447) can0 18A#0033EFCF06
(1790243655.723739) can0 18A#0033EFCF06
(1790243655.733652) can0 28A#0000000000000000
(1790243655.734200) can0 18A#0033EFCF06
(1790243655.743586) can0 18A#0033EFCF06
(1790243655.753996) can0 28A#0000000000000000
(1790243655.754407) can0 18A#0033EFCF06
(1790243655.763649) can0 38A#000005
(1790243655.764146) can0 18A#0032F0CF06
(1790243655.773690) can0 28A#0000000000000000
(1790243655.774038) can0 18A#0032F0CF06
(1790243655.784195) can0 18A#0032F0CE06
(1790243655.793934) can0 28A#0000000000000000
(1790243655.794387) can0 18A#0032F0CE06
(1790243655.803874) can0 18A#0032F0CE06
(1790243655.814317) can0 38A#000005
(1790243655.814816) can0 28A#0000000000000000
(1790243655.815224) can0 18A#0032F0CE06
(1790243655.824020) can0 18A#0032F0CE06
(1790243655.834341) can0 28A#0000000000000000
(1790243655.834889) can0 18A#0032F0CE06
(1790243655.844629) can0 18A#0032F0CE06
(1790243655.854344) can0 28A#0000000000000000
(1790243655.854747) can0 18A#0032F0CE06
(1790243655.864412) can0 38A#000005
(1790243655.865025) can0 18A#0032F0CE06
(1790243655.875001) can0 28A#0000000000000000
(1790243655.876120) can0 18A#0032F0CE06
(1790243655.884555) can0 18A#0032F0CE06
(1790243655.894812) can0 28A#0000000000000000
(1790243655.895425) can0 18A#0032F0CE06
(1790243655.905019) can0 18A#0032F0CE06
(1790243655.914787) can0 38A#000005
(1790243655.915281) can0 28A#0000000000000000
(1790243655.915646) can0 18A#0032F0CE06
(1790243655.924810) can0 18A#0032F0CE06
(1790243655.935303) can0 28A#0000000000000000
(1790243655.935741) can0 18A#0032F0CE06
(1790243655.944992) can0 18A#0032F0CE06
(1790243655.955106) can0 28A#0000000000000000
(1790243655.955543) can0 18A#0032F0CE06
(1790243655.965444) can0 38A#000005
(1790243655.965864) can0 18A#0032F0CE06
(1790243655.976709) can0 28A#0000000000000000
(1790243655.977757) can0 18A#0032F0CE06
(1790243655.985530) can0 18A#0032F0CE06
(1790243655.995915) can0 28A#0000000000000000
(1790243655.996562) can0 18A#0032F0CE06
(1790243656.005506) can0 18A#0032F0CE06
(1790243656.015481) can0 38A#000005
(1790243656.016157) can0 28A#0000000000000000
(1790243656.016727) can0 18A#0032F0CE06
(1790243656.025862) can0 18A#0032F0CD06
(1790243656.035724) can0 28A#0000000000000000
(1790243656.036213) can0 18A#0032F1CD06
(1790243656.045638) can0 18A#0032F1CD06
(1790243656.056093) can0 28A#0000000000000000
(1790243656.056491) can0 18A#0031F1CD06
(1790243656.065724) can0 38A#000005
(1790243656.066174) can0 18A#0031F1CD06
(1790243656.075881) can0 28A#0000000000000000
(1790243656.076357) can0 18A#0031F1CD06
(1790243656.086278) can0 18A#0031F1CD06
(1790243656.096138) can0 28A#0000000000000000
(1790243656.096678) can0 18A#0031F1CD06
(1790243656.105880) can0 18A#0031F1CD06
(1790243656.116336) can0 38A#000005
(1790243656.116920) can0 28A#0000000000000000
(1790243656.117439) can0 18A#0031F1CD06
(1790243656.126048) can0 18A#0031F1CD06
(1790243656.136324) can0 28A#0000000000000000
(1790243656.136880) can0 18A#0031F1CD06
(1790243656.146849) can0 18A#0031F1CD06
(1790243656.156324) can0 28A#0000000000000000
(1790243656.156794) can0 18A#0031F1CD06
(1790243656.166322) can0 38A#000005
(1790243656.166876) can0 18A#0031F1CD06
(1790243656.176741) can0 28A#0000000000000000
(1790243656.177268) can0 18A#0031F1CD06
(1790243656.186667) can0 18A#0031F1CD06
(1790243656.196608) can0 28A#0000000000000000
(1790243656.197225) can0 18A#0031F1CD06
(1790243656.206875) can0 18A#0031F1CD06
(1790243656.217146) can0 70A#05
(1790243656.219011) can0 38A#000005
(1790243656.222325) can0 28A#0000000000000000
(1790243656.226544) can0 18A#0031F1CD06
(1790243656.237233) can0 28A#0000000000000000
(1790243656.237988) can0 18A#0031F1CD06
(1790243656.246953) can0 18A#0031F1CD06
(1790243656.256909) can0 28A#0000000000000000
(1790243656.257591) can0 18A#0031F1CD06
(1790243656.267235) can0 38A#000005
(1790243656.267757) can0 18A#0031F1CD06
(1790243656.276916) can0 28A#0000000000000000
(1790243656.277311) can0 18A#0031F1CD06
(1790243656.286971) can0 18A#0031F1CD06
(1790243656.297432) can0 28A#0000000000000000
(1790243656.297850) can0 18A#0031F1CD06
(1790243656.307027) can0 18A#0031F1CD06
(1790243656.317163) can0 38A#000005
(1790243656.317676) can0 28A#0000000000000000
(1790243656.318016) can0 18A#0031F1CC06
(1790243656.327487) can0 18A#0031F1CC06
(1790243656.337467) can0 28A#0000000000000000
(1790243656.338159) can0 18A#0031F1CC06
(1790243656.347481) can0 18A#0031F1CC06
(1790243656.357839) can0 28A#0000000000000000
(1790243656.358588) can0 18A#0031F1CC06
(1790243656.367534) can0 38A#000005
(1790243656.368230) can0 18A#0031F1CC06
(1790243656.377453) can0 28A#0000000000000000
(1790243656.377844) can0 18A#0031F1CB06
(1790243656.387778) can0 18A#0031F1CB06
(1790243656.397609) can0 28A#0000000000000000
(1790243656.398082) can0 18A#0031F1CC06
(1790243656.407615) can0 18A#0031F1CB06
(1790243656.418059) can0 38A#000005
(1790243656.418565) can0 28A#0000000000000000
(1790243656.418933) can0 18A#0031F1CB06
(1790243656.427686) can0 18A#0031F1CB06
(1790243656.437927) can0 28A#0000000000000000
(1790243656.438504) can0 18A#0031F1CB06
(1790243656.448201) can0 18A#0031F1CB06
(1790243656.457983) can0 28A#0000000000000000
(1790243656.458384) can0 18A#0031F1CB06
(1790243656.467960) can0 38A#000005
(1790243656.468449) can0 18A#0031F1CB06
(1790243656.478333) can0 28A#0000000000000000
(1790243656.478700) can0 18A#0031F1CB06
(1790243656.488041) can0 18A#0031F1CB06
(1790243656.498265) can0 28A#0000000000000000
(1790243656.498813) can0 18A#0031F1CB06
(1790243656.509414) can0 18A#0031F1CB06
(1790243656.518503) can0 38A#000005
(1790243656.521765) can0 28A#0000000000000000
(1790243656.525717) can0 18A#0031F1CB06
(1790243656.529476) can0 18A#0031F1CB06
(1790243656.539364) can0 28A#0000000000000000
(1790243656.540479) can0 18A#0031F1CB06
(1790243656.550358) can0 18A#0031F1CB06
(1790243656.559197) can0 28A#0000000000000000
(1790243656.561083) can0 18A#0031F1CB06
(1790243656.570634) can0 38A#000005
(1790243656.572479) can0 18A#0031F1CB06
(1790243656.580010) can0 28A#0000000000000000
(1790243656.580844) can0 18A#0031F1CB06
(1790243656.588611) can0 18A#0031F1CB06
(1790243656.600298) can0 28A#0000000000000000
(1790243656.604137) can0 18A#0030F1CB06
(1790243656.608956) can0 18A#0030F1CB06
(1790243656.618916) can0 38A#000005
(1790243656.620835) can0 28A#0000000000000000
(1790243656.622774) can0 18A#0030F2CB06
(1790243656.630162) can0 18A#0030F2CB06
(1790243656.639031) can0 28A#0000000000000000
(1790243656.639834) can0 18A#0030F2CB06
(1790243656.649207) can0 18A#0030F2CB06
(1790243656.660853) can0 28A#0000000000000000
(1790243656.663778) can0 18A#0030F2CB06
(1790243656.669028) can0 38A#000005
(1790243656.669992) can0 18A#0030F2CB06
(1790243656.679595) can0 28A#0000000000000000
(1790243656.680120) can0 18A#0030F2CA06
(1790243656.690109) can0 18A#0030F2CA06
(1790243656.701145) can0 28A#0000000000000000
(1790243656.703928) can0 18A#0030F2CA06
(1790243656.709244) can0 18A#0030F2CA06
(1790243656.719630) can0 38A#000005
(1790243656.720128) can0 28A#0000000000000000
(1790243656.720541) can0 18A#0030F2CA06
(1790243656.729413) can0 18A#0030F2CA06
(1790243656.739591) can0 28A#0000000000000000
(1790243656.740157) can0 18A#0030F2CA06
(1790243656.749882) can0 18A#0030F2CA06
(1790243656.759656) can0 28A#0000000000000000
(1790243656.760313) can0 18A#0030F2CA06
(1790243656.769634) can0 38A#000005
(1790243656.770297) can0 18A#0030F2CA06
(1790243656.779991) can0 28A#0000000000000000
(1790243656.780373) can0 18A#0030F2CA06
(1790243656.789724) can0 18A#0030F2CA06
(1790243656.799946) can0 28A#0000000000000000
(1790243656.800600) can0 18A#0030F2CA06
(1790243656.810071) can0 18A#0030F2CA06
(1790243656.819863) can0 38A#000005
(1790243656.820382) can0 28A#0000000000000000
(1790243656.820783) can0 18A#0030F2CA06
(1790243656.829859) can0 18A#0030F2CA06
(1790243656.840481) can0 28A#0000000000000000
(1790243656.841151) can0 18A#0030F2CA06
(1790243656.850111) can0 18A#0030F2CA06
(1790243656.860207) can0 28A#0000000000000000
(1790243656.860862) can0 18A#0030F2CA06
(1790243656.870545) can0 38A#000005
(1790243656.871098) can0 18A#0030F2CA06
(1790243656.880313) can0 28A#0000000000000000
(1790243656.881107) can0 18A#0030F2CA06
(1790243656.890338) can0 18A#0030F2CA06
(1790243656.900871) can0 28A#0000000000000000
(1790243656.901671) can0 18A#0030F2CA06
(1790243656.910340) can0 18A#0030F2CA06
(1790243656.920395) can0 38A#000005
(1790243656.921016) can0 28A#0000000000000000
(1790243656.921477) can0 18A#002FF2CA06
(1790243656.930756) can0 18A#0030F2CA06
(1790243656.940501) can0 28A#0000000000000000
(1790243656.940925) can0 18A#0030F2CA06
(1790243656.950577) can0 18A#0030F2CA06
(1790243656.961019) can0 28A#0000000000000000
(1790243656.961491) can0 18A#002FF2CA06
(1790243656.970694) can0 38A#000005
(1790243656.971168) can0 18A#0030F2CA06
(1790243656.980732) can0 28A#0000000000000000
(1790243656.981106) can0 18A#002FF2C906
(1790243656.991150) can0 18A#002FF2C906
(1790243657.001036) can0 28A#0000000000000000
(1790243657.001836) can0 18A#002FF2C906
(1790243657.011305) can0 18A#002FF2C906
(1790243657.021357) can0 38A#000005
(1790243657.022016) can0 28A#0000000000000000
(1790243657.022401) can0 18A#002FF2C906
(1790243657.031018) can0 18A#002FF2C906
(1790243657.041136) can0 28A#0000000000000000
(1790243657.041775) can0 18A#002FF2C906
(1790243657.051486) can0 18A#002FF2C906
(1790243657.061169) can0 28A#0000000000000000
(1790243657.061749) can0 18A#002FF2C906
(1790243657.071074) can0 38A#000005
(1790243657.071596) can0 18A#002FF2C906
(1790243657.081490) can0 28A#0000000000000000
(1790243657.082117) can0 18A#002FF2C906
(1790243657.091219) can0 18A#002FF2C906
(1790243657.101591) can0 28A#0000000000000000
(1790243657.102520) can0 18A#002FF2CA06
(1790243657.111626) can0 18A#002FF2CA06
(1790243657.121283) can0 38A#000005
(1790243657.121734) can0 28A#0000000000000000
(1790243657.122107) can0 18A#002EF2CA06
(1790243657.131339) can0 18A#002EF2CA06
(1790243657.141835) can0 28A#0000000000000000
(1790243657.142324) can0 18A#002EF2CA06
(1790243657.151526) can0 18A#002EF2CA06
(1790243657.161551) can0 28A#0000000000000000
(1790243657.162150) can0 18A#FF2EF2CB06
(1790243657.171733) can0 38A#000005
(1790243657.172141) can0 18A#FF2EF3CB06
(1790243657.181473) can0 28A#0000000000000000
(1790243657.181822) can0 18A#FF2DF2CB06
(1790243657.191417) can0 18A#FF2DF2CB06
(1790243657.201998) can0 28A#0000000000000000
(1790243657.202513) can0 18A#FF2EF3CB06
(1790243657.211529) can0 18A#FF2EF2CB06
(1790243657.221624) can0 70A#05
(1790243657.222005) can0 38A#000005
(1790243657.222316) can0 28A#0000000000000000
(1790243657.231984) can0 18A#FF2EF3CB06
(1790243657.241858) can0 28A#0000000000000000
(1790243657.242367) can0 18A#FF2EF3CB06
(1790243657.251802) can0 18A#FF2DF2CB06
(1790243657.262201) can0 28A#0000000000000000
(1790243657.262679) can0 18A#002EF2CB06
(1790243657.271778) can0 38A#000005
(1790243657.272245) can0 18A#002EF2CB06
(1790243657.281879) can0 28A#0000000000000000
(1790243657.282260) can0 18A#002EF2CB06
(1790243657.292281) can0 18A#002EF2CB06
(1790243657.302124) can0 28A#0000000000000000
(1790243657.302783) can0 18A#FF2EF2CB06
(1790243657.311881) can0 18A#FF2EF2CA06
(1790243657.322309) can0 38A#000005
(1790243657.322726) can0 28A#0000000000000000
(1790243657.323057) can0 18A#002EF2CA06
(1790243657.331976) can0 18A#002EF2CA06
(1790243657.342124) can0 28A#0000000000000000
(1790243657.342536) can0 18A#FF2EF2CA06
(1790243657.352426) can0 18A#FF2EF3CA06
(1790243657.362133) can0 28A#0000000000000000
(1790243657.362563) can0 18A#FF2EF2CA06
(1790243657.372166) can0 38A#000005
(1790243657.372633) can0 18A#FF2EF2CA06
(1790243657.382633) can0 28A#0000000000000000
(1790243657.383133) can0 18A#002DF2CB06
(1790243657.392263) can0 18A#FF2DF2CB06
(1790243657.402465) can0 28A#0000000000000000
(1790243657.403184) can0 18A#FF2DF2CB06
(1790243657.412651) can0 18A#FF2CF2CB06
(1790243657.422408) can0 38A#000005
(1790243657.423022) can0 28A#0000000000000000
(1790243657.423447) can0 18A#FF2CF3CB06
(1790243657.432398) can0 18A#FF2CF3CB06
(1790243657.443132) can0 28A#0000000000000000
(1790243657.443771) can0 18A#FF2BF3CB06
(1790243657.452554) can0 18A#FF2CF3CC06
(1790243657.462526) can0 28A#0000000000000000
(1790243657.462973) can0 18A#FF2CF3CC06
(1790243657.472858) can0 38A#000005
(1790243657.475096) can0 18A#FF2CF3CC06
(1790243657.482584) can0 28A#0000000000000000
(1790243657.482954) can0 18A#FF2CF3CC06
(1790243657.492586) can0 18A#FF2CF3CC06
(1790243657.503073) can0 28A#0000000000000000
(1790243657.503545) can0 18A#FF2CF3CC06
(1790243657.512610) can0 18A#FF2CF3CC06
(1790243657.528175) can0 38A#000005
(1790243657.528732) can0 28A#0000000000000000
(1790243657.529096) can0 18A#FF2CF3CC06
(1790243657.533008) can0 18A#FF2CF3CC06
(1790243657.542868) can0 28A#0000000000000000
(1790243657.543312) can0 18A#FF2CF3CC06
(1790243657.552841) can0 18A#FF2CF3CC06
(1790243657.563224) can0 28A#0000000000000000
(1790243657.563621) can0 18A#FF2CF3CC06
(1790243657.572886) can0 38A#000005
(1790243657.573449) can0 18A#FF2CF3CC06
(1790243657.582978) can0 28A#0000000000000000
(1790243657.583399) can0 18A#FF2CF3CC06
(1790243657.593321) can0 18A#FF2CF3CC06
(1790243657.603166) can0 28A#0000000000000000
(1790243657.603746) can0 18A#FF2CF3CC06
(1790243657.613009) can0 18A#FF2CF3CC06
(1790243657.623491) can0 38A#000005
(1790243657.623984) can0 28A#0000000000000000
(1790243657.624341) can0 18A#FF2CF3CC06
(1790243657.633108) can0 18A#FF2CF3CC06
(1790243657.643264) can0 28A#0000000000000000
(1790243657.643760) can0 18A#FF2BF3CC06
(1790243657.653637) can0 18A#002BF2CC06
(1790243657.663590) can0 28A#0000000000000000
(1790243657.664312) can0 18A#FF2BF2CC06
(1790243657.673346) can0 38A#000005
(1790243657.673972) can0 18A#002BF2CC06
(1790243657.683774) can0 28A#0000000000000000
(1790243657.684421) can0 18A#002AF2CC06
(1790243657.693498) can0 18A#002AF2CC06
(1790243657.703787) can0 28A#0000000000000000
(1790243657.707274) can0 18A#002AF2CC06
(1790243657.713814) can0 18A#002AF2CC06
(1790243657.723398) can0 38A#000005
(1790243657.723859) can0 28A#0000000000000000
(1790243657.724231) can0 18A#002AF2CD06
(1790243657.733411) can0 18A#002AF2CD06
(1790243657.743889) can0 28A#0000000000000000
(1790243657.744320) can0 18A#002AF2CD06
(1790243657.753653) can0 18A#002AF2CD06
(1790243657.763689) can0 28A#0000000000000000
(1790243657.764299) can0 18A#002AF2CD06
(1790243657.773970) can0 38A#000005
(1790243657.774487) can0 18A#002AF2CD06
(1790243657.783695) can0 28A#0000000000000000
(1790243657.784119) can0 18A#002AF2CD06
(1790243657.793786) can0 18A#002AF2CD06
(1790243657.804229) can0 28A#0000000000000000
(1790243657.804710) can0 18A#002AF2CD06
(1790243657.813764) can0 18A#002AF2CD06
(1790243657.823878) can0 38A#000005
(1790243657.824419) can0 28A#0000000000000000
(1790243657.824771) can0 18A#002AF2CD06
(1790243657.834195) can0 18A#002AF2CD06
(1790243657.843948) can0 28A#0000000000000000
(1790243657.844420) can0 18A#002AF2CD06
(1790243657.853997) can0 18A#002AF2CD06
(1790243657.864439) can0 28A#0000000000000000
(1790243657.865110) can0 18A#002AF2CD06
(1790243657.873968) can0 38A#000005
(1790243657.874475) can0 18A#002AF2CD06
(1790243657.884077) can0 28A#0000000000000000
(1790243657.884549) can0 18A#002AF2CD06
(1790243657.894524) can0 18A#002AF2CD06
(1790243657.904352) can0 28A#0000000000000000
(1790243657.905102) can0 18A#002AF2CD06
(1790243657.914212) can0 18A#0029F2CD06
(1790243657.924558) can0 38A#000005
(1790243657.925253) can0 28A#0000000000000000
(1790243657.925681) can0 18A#0029F2CD06
(1790243657.934248) can0 18A#0029F2CD06
(1790243657.944447) can0 28A#0000000000000000
(1790243657.945541) can0 18A#0029F2CD06
(1790243657.954877) can0 18A#0029F2CD06
(1790243657.964597) can0 28A#0000000000000000
(1790243657.965379) can0 18A#0029F2CD06
(1790243657.974446) can0 38A#000005
(1790243657.975600) can0 18A#0028F2CD06
(1790243657.984750) can0 28A#0000000000000000
(1790243657.985218) can0 18A#0028F2CD06
(1790243657.994354) can0 18A#0028F2CD06
(1790243658.004547) can0 28A#0000000000000000
(1790243658.005121) can0 18A#0028F2CD06
(1790243658.014856) can0 18A#0028F2CD06
(1790243658.024485) can0 38A#000005
(1790243658.024932) can0 28A#0000000000000000
(1790243658.025270) can0 18A#0028F2CD06
(1790243658.034451) can0 18A#0028F2CD06
(1790243658.044988) can0 28A#0000000000000000
(1790243658.045472) can0 18A#0028F1CD06
(1790243658.054589) can0 18A#0028F2CD06
(1790243658.064640) can0 28A#0000000000000000
(1790243658.065037) can0 18A#0028F2CD06
(1790243658.074963) can0 38A#000005
(1790243658.075512) can0 18A#0028F2CD06
(1790243658.084736) can0 28A#0000000000000000
(1790243658.085268) can0 18A#0028F1CD06
(1790243658.094781) can0 18A#0028F2CD06
(1790243658.105279) can0 28A#0000000000000000
(1790243658.106200) can0 18A#0028F2CE06
(1790243658.114726) can0 18A#0028F2CE06
(1790243658.124752) can0 38A#000005
(1790243658.125355) can0 28A#0000000000000000
(1790243658.125964) can0 18A#0028F2CD06
(1790243658.135006) can0 18A#0028F2CD06
(1790243658.144749) can0 28A#0000000000000000
(1790243658.145199) can0 18A#0028F2CD06
(1790243658.154866) can0 18A#0028F1CD06
(1790243658.165252) can0 28A#0000000000000000
(1790243658.165836) can0 18A#0028F1CD06
(1790243658.174900) can0 38A#000005
(1790243658.175520) can0 18A#0028F1CD06
(1790243658.184878) can0 28A#0000000000000000
(1790243658.185311) can0 18A#0027F1CE06
(1790243658.195240) can0 18A#0028F1CE06
(1790243658.205113) can0 28A#0000000000000000
(1790243658.205727) can0 18A#0028F1CE06
(1790243658.214943) can0 18A#0027F1CE06
(1790243658.225329) can0 70A#05
(1790243658.225870) can0 38A#000005
