(1790244529.077450) can0 18A#F92600E006
(1790244529.087171) can0 28A#0000000000000000
(1790244529.087603) can0 18A#F92600E006
(1790244529.097088) can0 38A#000005
(1790244529.097550) can0 18A#F92600E006
(1790244529.107563) can0 28A#0000000000000000
(1790244529.108476) can0 18A#F92600E106
(1790244529.117242) can0 18A#F92600E106
(1790244529.127293) can0 28A#0000000000000000
(1790244529.127827) can0 18A#F92600E106
(1790244529.137509) can0 18A#F92600E106
(1790244529.147150) can0 70A#05
(1790244529.147553) can0 38A#000005
(1790244529.148397) can0 28A#0000000000000000
(1790244529.157128) can0 18A#F92600E106
(1790244529.167685) can0 28A#0000000000000000
(1790244529.168146) can0 18A#F92600E106
(1790244529.177235) can0 18A#F92600E106
(1790244529.187342) can0 28A#0000000000000000
(1790244529.187894) can0 18A#F92600E106
(1790244529.197631) can0 38A#000005
(1790244529.198159) can0 18A#F92600E106
(1790244529.207238) can0 28A#0000000000000000
(1790244529.207601) can0 18A#F92600E106
(1790244529.217245) can0 18A#F92600E106
(1790244529.227734) can0 28A#0000000000000000
(1790244529.228273) can0 18A#F92600E106
(1790244529.237264) can0 18A#F92600E106
(1790244529.247365) can0 38A#000005
(1790244529.248001) can0 28A#0000000000000000
(1790244529.248468) can0 18A#F92600E106
(1790244529.257605) can0 18A#F92600E106
(1790244529.267323) can0 28A#0000000000000000
(1790244529.267804) can0 18A#F92600E106
(1790244529.277427) can0 18A#F92600E106
(1790244529.287644) can0 28A#0000000000000000
(1790244529.288025) can0 18A#F92600E106
(1790244529.297284) can0 38A#000005
(1790244529.297756) can0 18A#F92600E106
(1790244529.307376) can0 28A#0000000000000000
(1790244529.308068) can0 18A#F92600E106
(1790244529.317683) can0 18A#F92600E106
(1790244529.327423) can0 28A#0000000000000000
(1790244529.327923) can0 18A#F92600E106
(1790244529.337269) can0 18A#F92600E106
(1790244529.347773) can0 38A#000005
(1790244529.348484) can0 28A#0000000000000000
(1790244529.349100) can0 18A#F92600E106
(1790244529.357400) can0 18A#F92600E106
(1790244529.367495) can0 28A#0000000000000000
(1790244529.368137) can0 18A#F92600E106
(1790244529.377907) can0 18A#F92600E106
(1790244529.387525) can0 28A#0000000000000000
(1790244529.388362) can0 18A#F92700E106
(1790244529.397422) can0 38A#000005
(1790244529.397998) can0 18A#FA2700E106
(1790244529.407777) can0 28A#0000000000000000
(1790244529.408738) can0 18A#FA27FFE106
(1790244529.417424) can0 18A#FA27FFE106
(1790244529.427431) can0 28A#0000000000000000
(1790244529.427903) can0 18A#FA27FFE106
(1790244529.437625) can0 18A#FA27FFE006
(1790244529.447322) can0 38A#000005
(1790244529.447799) can0 28A#0000000000000000
(1790244529.448270) can0 18A#FA27FFE006
(1790244529.457378) can0 18A#FA27FFE006
(1790244529.467824) can0 28A#0000000000000000
(1790244529.468309) can0 18A#FA27FFE006
(1790244529.477508) can0 18A#FA27FFE006
(1790244529.487502) can0 28A#0000000000000000
(1790244529.488057) can0 18A#FA27FFE006
(1790244529.497809) can0 38A#000005
(1790244529.498358) can0 18A#FA27FFE006
(1790244529.507535) can0 28A#0000000000000000
(1790244529.508703) can0 18A#FA27FFE006
(1790244529.517471) can0 18A#FA27FFE006
(1790244529.528201) can0 28A#0000000000000000
(1790244529.528840) can0 18A#FA27FFE006
(1790244529.537429) can0 18A#FA27FFE006
(1790244529.547531) can0 38A#000005
(1790244529.548140) can0 28A#0000000000000000
(1790244529.548598) can0 18A#FA27FFE006
(1790244529.557842) can0 18A#FA27FFE006
(1790244529.567632) can0 28A#0000000000000000
(1790244529.568260) can0 18A#FA27FFE006
(1790244529.577556) can0 18A#FA27FFE006
(1790244529.587864) can0 28A#0000000000000000
(1790244529.588398) can0 18A#FA27FFE006
(1790244529.597544) can0 38A#000005
(1790244529.598098) can0 18A#FA27FFE006
(1790244529.607589) can0 28A#0000000000000000
(1790244529.608440) can0 18A#FA27FFE106
(1790244529.617845) can0 18A#FA27FFE106
(1790244529.627653) can0 28A#0000000000000000
(1790244529.628240) can0 18A#FA28FFE106
(1790244529.637519) can0 18A#FA28FFE106
(1790244529.647963) can0 38A#000005
(1790244529.648670) can0 28A#0000000000000000
(1790244529.649258) can0 18A#FA28FEE106
(1790244529.657593) can0 18A#FA28FEE106
(1790244529.667692) can0 28A#0000000000000000
(1790244529.668142) can0 18A#FA28FEE106
(1790244529.677887) can0 18A#FA28FEE106
(1790244529.687570) can0 28A#0000000000000000
(1790244529.687930) can0 18A#FA28FEE106
(1790244529.697468) can0 38A#000005
(1790244529.697917) can0 18A#FA28FEE106
(1790244529.707912) can0 28A#0000000000000000
(1790244529.708449) can0 18A#FA28FEE106
(1790244529.717602) can0 18A#FA28FEE106
(1790244529.727679) can0 28A#0000000000000000
(1790244529.728141) can0 18A#FA28FEE106
(1790244529.737882) can0 18A#FA28FEE106
(1790244529.747616) can0 38A#000005
(1790244529.748346) can0 28A#0000000000000000
(1790244529.748779) can0 18A#FA28FEE106
(1790244529.757543) can0 18A#FA28FEE106
(1790244529.767995) can0 28A#0000000000000000
(1790244529.768431) can0 18A#FA28FEE106
(1790244529.777627) can0 18A#FA28FEE106
(1790244529.787643) can0 28A#0000000000000000
(1790244529.788081) can0 18A#FA28FEE106
(1790244529.797940) can0 38A#000005
(1790244529.798426) can0 18A#FA28FEE106
(1790244529.807609) can0 28A#0000000000000000
(1790244529.807965) can0 18A#FA28FEE106
(1790244529.817694) can0 18A#FA28FEE106
(1790244529.828094) can0 28A#0000000000000000
(1790244529.828583) can0 18A#FA28FEE106
(1790244529.837534) can0 18A#FA28FEE106
(1790244529.847646) can0 38A#000005
(1790244529.848174) can0 28A#0000000000000000
(1790244529.848545) can0 18A#FA28FEE106
(1790244529.857991) can0 18A#FA28FEE106
(1790244529.867766) can0 28A#0000000000000000
(1790244529.868284) can0 18A#FA28FEE106
(1790244529.877784) can0 18A#FA28FEE106
(1790244529.888454) can0 28A#0000000000000000
(1790244529.889287) can0 18A#FA29FDE106
(1790244529.897753) can0 38A#000005
(1790244529.898448) can0 18A#FA29FDE106
(1790244529.907828) can0 28A#0000000000000000
(1790244529.908987) can0 18A#FA29FDE106
(1790244529.918098) can0 18A#FA29FDE206
(1790244529.927832) can0 28A#0000000000000000
(1790244529.928298) can0 18A#FA2AFDE106
(1790244529.937718) can0 18A#FA2AFDE106
(1790244529.947966) can0 38A#000005
(1790244529.948463) can0 28A#0000000000000000
(1790244529.948781) can0 18A#FA2AFDE106
(1790244529.957639) can0 18A#FA2AFDE106
(1790244529.967787) can0 28A#0000000000000000
(1790244529.968422) can0 18A#FA2AFDE106
(1790244529.978094) can0 18A#FA2AFDE106
(1790244529.987825) can0 28A#0000000000000000
(1790244529.988349) can0 18A#FA2AFDE106
(1790244529.997781) can0 38A#000005
(1790244529.998327) can0 18A#FA2AFDE106
(1790244530.008112) can0 28A#0000000000000000
(1790244530.008597) can0 18A#FA2AFDE106
(1790244530.017701) can0 18A#FA2AFDE106
(1790244530.028042) can0 28A#0000000000000000
(1790244530.028617) can0 18A#FA2AFDE106
(1790244530.038052) can0 18A#FA2AFDE106
(1790244530.047779) can0 38A#000005
(1790244530.048335) can0 28A#0000000000000000
(1790244530.048738) can0 18A#FA2AFDE106
(1790244530.057730) can0 18A#FA2AFDE106
(1790244530.068217) can0 28A#0000000000000000
(1790244530.068773) can0 18A#FA2AFDE106
(1790244530.077753) can0 18A#FA2AFDE106
(1790244530.087797) can0 28A#0000000000000000
(1790244530.088352) can0 18A#FA2AFDE106
(1790244530.097947) can0 38A#000005
(1790244530.098488) can0 18A#FA2AFDE106
(1790244530.107780) can0 28A#0000000000000000
(1790244530.108293) can0 18A#FA2AFDE106
(1790244530.117843) can0 18A#FA2AFDE106
(1790244530.128219) can0 28A#0000000000000000
(1790244530.128892) can0 18A#FA2AFDE106
(1790244530.137916) can0 18A#FA2AFDE106
(1790244530.147699) can0 70A#05
(1790244530.148365) can0 38A#000005
(1790244530.148897) can0 28A#0000000000000000
(1790244530.158031) can0 18A#FA2AFDE106
(1790244530.167817) can0 28A#0000000000000000
(1790244530.168318) can0 18A#FA2AFDE106
(1790244530.177683) can0 18A#FB2AFDE206
(1790244530.190363) can0 28A#0000000000000000
(1790244530.191131) can0 18A#FB2BFCE206
(1790244530.197556) can0 38A#000005
(1790244530.197968) can0 18A#FB2BFCE106
(1790244530.207634) can0 28A#0000000000000000
(1790244530.208038) can0 18A#FB2BFCE106
(1790244530.218004) can0 18A#FB2BFCE106
(1790244530.227756) can0 28A#0000000000000000
(1790244530.228328) can0 18A#FB2BFCE106
(1790244530.237619) can0 18A#FB2BFCE106
(1790244530.248046) can0 38A#000005
(1790244530.250342) can0 28A#0000000000000000
(1790244530.250906) can0 18A#FB2BFCE106
(1790244530.257640) can0 18A#FB2BFCE106
(1790244530.267762) can0 28A#0000000000000000
(1790244530.268350) can0 18A#FB2BFCE106
(1790244530.278091) can0 18A#FB2BFCE106
(1790244530.287792) can0 28A#0000000000000000
(1790244530.288566) can0 18A#FB2BFCE106
(1790244530.297596) can0 38A#000005
(1790244530.298198) can0 18A#FB2BFCE106
(1790244530.308069) can0 28A#0000000000000000
(1790244530.309335) can0 18A#FB2BFCE106
(1790244530.317563) can0 18A#FB2BFCE106
(1790244530.327785) can0 28A#0000000000000000
(1790244530.328323) can0 18A#FB2BFCE106
(1790244530.337857) can0 18A#FB2BFCE106
(1790244530.347533) can0 38A#000005
(1790244530.347976) can0 28A#0000000000000000
(1790244530.348351) can0 18A#FB2BFCE106
(1790244530.357529) can0 18A#FB2BFCE106
(1790244530.368009) can0 28A#0000000000000000
(1790244530.368531) can0 18A#FB2BFCE106
(1790244530.377588) can0 18A#FB2BFCE106
(1790244530.387701) can0 28A#0000000000000000
(1790244530.388883) can0 18A#FB2BFCE106
(1790244530.397842) can0 38A#000005
(1790244530.398415) can0 18A#FB2BFCE106
(1790244530.407602) can0 28A#0000000000000000
(1790244530.408058) can0 18A#FB2BFCE106
(1790244530.417708) can0 18A#FB2BFCE106
(1790244530.428091) can0 28A#0000000000000000
(1790244530.428803) can0 18A#FB2BFCE206
(1790244530.437561) can0 18A#FB2BFCE206
(1790244530.447608) can0 38A#000005
(1790244530.448387) can0 28A#0000000000000000
(1790244530.449046) can0 18A#FB2BFCE206
(1790244530.457856) can0 18A#FB2BFCE106
(1790244530.467670) can0 28A#0000000000000000
(1790244530.468168) can0 18A#FB2BFCE206
(1790244530.477573) can0 18A#FB2BFCE206
(1790244530.487892) can0 28A#0000000000000000
(1790244530.488476) can0 18A#FB2CFBE206
(1790244530.497470) can0 38A#000005
(1790244530.498017) can0 18A#FB2CFBE206
(1790244530.507490) can0 28A#0000000000000000
(1790244530.508063) can0 18A#FB2CFBE206
(1790244530.517830) can0 18A#FB2CFBE206
(1790244530.527561) can0 28A#0000000000000000
(1790244530.528110) can0 18A#FB2CFBE206
(1790244530.537388) can0 18A#FB2CFBE206
(1790244530.547825) can0 38A#000005
(1790244530.548451) can0 28A#0000000000000000
(1790244530.548870) can0 18A#FB2CFAE206
(1790244530.557409) can0 18A#FB2CFBE206
(1790244530.567612) can0 28A#0000000000000000
(1790244530.568340) can0 18A#FB2CFBE206
(1790244530.577981) can0 18A#FB2CFBE206
(1790244530.587618) can0 28A#0000000000000000
(1790244530.588438) can0 18A#FB2CFBE206
(1790244530.597412) can0 38A#000005
(1790244530.597887) can0 18A#FB2CFBE206
(1790244530.607804) can0 28A#0000000000000000
(1790244530.608531) can0 18A#FB2CFBE206
(1790244530.617431) can0 18A#FB2CFBE206
(1790244530.627673) can0 28A#0000000000000000
(1790244530.628407) can0 18A#FB2CFBE206
(1790244530.637819) can0 18A#FB2CFBE206
(1790244530.647503) can0 38A#000005
(1790244530.648254) can0 28A#0000000000000000
(1790244530.648866) can0 18A#FB2CFBE206
(1790244530.657492) can0 18A#FB2CFBE206
(1790244530.667767) can0 28A#0000000000000000
(1790244530.668221) can0 18A#FB2CFBE206
(1790244530.677436) can0 18A#FB2CFBE206
(1790244530.687389) can0 28A#0000000000000000
(1790244530.687947) can0 18A#FB2CFBE206
(1790244530.697688) can0 38A#000005
(1790244530.698181) can0 18A#FB2CFAE206
(1790244530.707441) can0 28A#0000000000000000
(1790244530.707885) can0 18A#FB2CFAE206
(1790244530.717398) can0 18A#FB2CFAE206
(1790244530.727909) can0 28A#0000000000000000
(1790244530.728477) can0 18A#FB2CFAE206
(1790244530.737360) can0 18A#FB2CFAE206
(1790244530.747373) can0 38A#000005
(1790244530.747936) can0 28A#0000000000000000
(1790244530.748308) can0 18A#FB2DFAE206
(1790244530.757588) can0 18A#FB2DFAE206
(1790244530.767377) can0 28A#0000000000000000
(1790244530.767826) can0 18A#FB2DFAE206
(1790244530.777369) can0 18A#FB2DFAE206
(1790244530.787683) can0 28A#0000000000000000
(1790244530.788074) can0 18A#FB2DFAE206
(1790244530.797292) can0 38A#000005
(1790244530.797783) can0 18A#FB2DFAE206
(1790244530.807474) can0 28A#0000000000000000
(1790244530.807977) can0 18A#FB2DFAE206
(1790244530.817683) can0 18A#FB2DFAE206
(1790244530.827466) can0 28A#0000000000000000
(1790244530.827993) can0 18A#FB2DFAE206
(1790244530.837212) can0 18A#FB2DFAE206
(1790244530.847618) can0 38A#000005
(1790244530.848189) can0 28A#0000000000000000
(1790244530.848550) can0 18A#FB2DFAE206
(1790244530.857182) can0 18A#FB2DFAE206
(1790244530.867422) can0 28A#0000000000000000
(1790244530.867924) can0 18A#FB2DFAE206
(1790244530.877605) can0 18A#FB2DFAE206
(1790244530.887308) can0 28A#0000000000000000
(1790244530.887675) can0 18A#FB2DFAE206
(1790244530.897256) can0 38A#000005
(1790244530.897728) can0 18A#FB2DFAE206
(1790244530.907646) can0 28A#0000000000000000
(1790244530.908493) can0 18A#FB2DFAE206
(1790244530.917212) can0 18A#FB2DFAE206
(1790244530.931273) can0 28A#0000000000000000
(1790244530.936091) can0 18A#FB2DFAE206
(1790244530.937528) can0 18A#FB2DFAE206
(1790244530.947249) can0 38A#000005
(1790244530.947777) can0 28A#0000000000000000
(1790244530.948136) can0 18A#FB2DFAE206
(1790244530.957219) can0 18A#FB2DFAE206
(1790244530.967692) can0 28A#0000000000000000
(1790244530.968213) can0 18A#FB2DFAE206
(1790244530.977372) can0 18A#FB2DFAE206
(1790244530.987298) can0 28A#0000000000000000
(1790244530.988128) can0 18A#FB2DFAE206
(1790244530.997597) can0 38A#000005
(1790244530.998105) can0 18A#FC2EF9E206
(1790244531.007231) can0 28A#0000000000000000
(1790244531.007673) can0 18A#FC2EF9E206
(1790244531.017260) can0 18A#FC2EF9E206
(1790244531.027539) can0 28A#0000000000000000
(1790244531.028028) can0 18A#FB2EF9E206
(1790244531.037132) can0 18A#FB2EF9E206
(1790244531.047140) can0 38A#000005
(1790244531.047646) can0 28A#0000000000000000
(1790244531.048032) can0 18A#FC2EF9E206
(1790244531.057425) can0 18A#FC2EF9E206
(1790244531.067312) can0 28A#0000000000000000
(1790244531.067821) can0 18A#FC2EF9E206
(1790244531.077156) can0 18A#FC2EF8E206
(1790244531.087493) can0 28A#0000000000000000
(1790244531.088106) can0 18A#FB2EF9E206
(1790244531.097164) can0 38A#000005
(1790244531.099929) can0 18A#FC2EF9E206
(1790244531.107128) can0 28A#0000000000000000
(1790244531.107696) can0 18A#FC2EF9E206
(1790244531.117411) can0 18A#FC2EF9E206
(1790244531.127153) can0 28A#0000000000000000
(1790244531.127765) can0 18A#FC2EF9E206
(1790244531.137039) can0 18A#FC2EF9E206
(1790244531.147226) can0 70A#05
(1790244531.147598) can0 38A#000005
(1790244531.147920) can0 28A#0000000000000000
(1790244531.156915) can0 18A#FC2EF9E206
(1790244531.167090) can0 28A#0000000000000000
(1790244531.167594) can0 18A#FB2EF9E206
(1790244531.177310) can0 18A#FC2EF9E206
(1790244531.186889) can0 28A#0000000000000000
(1790244531.187282) can0 18A#FC2EF9E206
(1790244531.196969) can0 38A#000005
(1790244531.197442) can0 18A#FC2EF8E206
(1790244531.207228) can0 28A#0000000000000000
(1790244531.207831) can0 18A#FB2EF9E206
(1790244531.216867) can0 18A#FC2EF9E206
(1790244531.234475) can0 28A#0000000000000000
(1790244531.234955) can0 18A#FC2EF9E306
(1790244531.237077) can0 18A#FC2EF9E206
(1790244531.246853) can0 38A#000005
(1790244531.247513) can0 28A#0000000000000000
(1790244531.247983) can0 18A#FC2EF8E206
(1790244531.257049) can0 18A#FC2EF8E206
(1790244531.267282) can0 28A#0000000000000000
(1790244531.267976) can0 18A#FC2FF8E206
(1790244531.276902) can0 18A#FC2FF8E206
(1790244531.286853) can0 28A#0000000000000000
(1790244531.288066) can0 18A#FC2FF8E206
(1790244531.296980) can0 38A#000005
(1790244531.297497) can0 18A#FC2FF8E206
(1790244531.306793) can0 28A#0000000000000000
(1790244531.307280) can0 18A#FC2FF8E306
(1790244531.316655) can0 18A#FC2FF8E206
(1790244531.327153) can0 28A#0000000000000000
(1790244531.327641) can0 18A#FC2FF8E206
(1790244531.336647) can0 18A#FC2FF8E306
(1790244531.348738) can0 38A#000005
(1790244531.350014) can0 28A#0000000000000000
(1790244531.350485) can0 18A#FC2FF8E306
(1790244531.357087) can0 18A#FC2FF8E206
(1790244531.366826) can0 28A#0000000000000000
(1790244531.367630) can0 18A#FC2FF8E306
(1790244531.377510) can0 18A#FC2FF8E306
(1790244531.387148) can0 28A#0000000000000000
(1790244531.387928) can0 18A#FC2FF8E206
(1790244531.396701) can0 38A#000005
(1790244531.397466) can0 18A#FC2FF8E206
(1790244531.406713) can0 28A#0000000000000000
(1790244531.407730) can0 18A#FC2FF8E206
(1790244531.417085) can0 18A#FC2FF8E206
(1790244531.426969) can0 28A#0000000000000000
(1790244531.428066) can0 18A#FC2FF8E306
(1790244531.436785) can0 18A#FC2FF8E206
(1790244531.447083) can0 38A#000005
(1790244531.448179) can0 28A#0000000000000000
(1790244531.449146) can0 18A#FC2FF8E206
(1790244531.456726) can0 18A#FC2FF8E206
(1790244531.466651) can0 28A#0000000000000000
(1790244531.467244) can0 18A#FC2FF8E206
(1790244531.477032) can0 18A#FC2FF8E206
(1790244531.486559) can0 28A#0000000000000000
(1790244531.487180) can0 18A#FC2FF8E206
(1790244531.496619) can0 38A#000005
(1790244531.497466) can0 18A#FC2FF8E206
(1790244531.506746) can0 28A#0000000000000000
(1790244531.507148) can0 18A#FC30F8E206
(1790244531.516444) can0 18A#FC30F8E206
(1790244531.526705) can0 28A#0000000000000000
(1790244531.527833) can0 18A#FC30F8E206
(1790244531.536851) can0 18A#FC30F8E306
(1790244531.546455) can0 38A#000005
(1790244531.546987) can0 28A#0000000000000000
(1790244531.547293) can0 18A#FC30F8E206
(1790244531.556394) can0 18A#FD30F8E206
(1790244531.566753) can0 28A#0000000000000000
(1790244531.567368) can0 18A#FC30F8E306
(1790244531.576348) can0 18A#FD30F8E306
(1790244531.586328) can0 28A#0000000000000000
(1790244531.586917) can0 18A#FD30F8E306
(1790244531.596534) can0 38A#000005
(1790244531.596986) can0 18A#FD30F8E306
(1790244531.606297) can0 28A#0000000000000000
(1790244531.606707) can0 18A#FD30F8E306
(1790244531.616320) can0 18A#FD30F8E306
(1790244531.626798) can0 28A#0000000000000000
(1790244531.627519) can0 18A#FD30F7E306
(1790244531.636304) can0 18A#FC30F8E306
(1790244531.646313) can0 38A#000005
(1790244531.646899) can0 28A#0000000000000000
(1790244531.647365) can0 18A#FD30F8E306
(1790244531.656562) can0 18A#FC30F8E306
(1790244531.666283) can0 28A#0000000000000000
(1790244531.666792) can0 18A#FD30F8E306
(1790244531.676286) can0 18A#FD30F7E306
(1790244531.686516) can0 28A#0000000000000000
(1790244531.686909) can0 18A#FD30F7E306
(1790244531.696217) can0 38A#000005
(1790244531.696752) can0 18A#FD30F7E306
(1790244531.706124) can0 28A#0000000000000000
(1790244531.706520) can0 18A#FD30F7E306
(1790244531.716394) can0 18A#FD30F7E306
(1790244531.726097) can0 28A#0000000000000000
(1790244531.726571) can0 18A#FD30F7E306
(1790244531.736009) can0 18A#FD30F7E306
(1790244531.746557) can0 38A#000005
(1790244531.747172) can0 28A#0000000000000000
(1790244531.747540) can0 18A#FC30F8E306
(1790244531.755989) can0 18A#FD30F8E306
(1790244531.766188) can0 28A#0000000000000000
(1790244531.766829) can0 18A#FD31F7E206
(1790244531.776352) can0 18A#FD31F8E306
(1790244531.786023) can0 28A#0000000000000000
(1790244531.786558) can0 18A#FD31F8E306
(1790244531.797131) can0 38A#000005
(1790244531.801744) can0 18A#FD31F8E206
(1790244531.806307) can0 28A#0000000000000000
(1790244531.807119) can0 18A#FD31F8E306
(1790244531.816015) can0 18A#FD31F8E306
(1790244531.826022) can0 28A#0000000000000000
(1790244531.826669) can0 18A#FD32F8E306
(1790244531.836185) can0 18A#FD32F8E206
(1790244531.845772) can0 38A#000005
(1790244531.846268) can0 28A#0000000000000000
(1790244531.846738) can0 18A#FD32F8E206
(1790244531.855896) can0 18A#FD31F8E306
(1790244531.866268) can0 28A#0000000000000000
(1790244531.866732) can0 18A#FD32F8E306
(1790244531.875883) can0 18A#FD32F8E206
(1790244531.885869) can0 28A#0000000000000000
(1790244531.886405) can0 18A#FD31F8E306
(1790244531.896159) can0 38A#000005
(1790244531.896799) can0 18A#FD32F8E206
(1790244531.905824) can0 28A#0000000000000000
(1790244531.906227) can0 18A#FD32F8E206
(1790244531.915911) can0 18A#FD31F8E306
(1790244531.926173) can0 28A#0000000000000000
(1790244531.926625) can0 18A#FD32F8E206
(1790244531.935755) can0 18A#FD32F8E206
(1790244531.945785) can0 38A#000005
(1790244531.946288) can0 28A#0000000000000000
(1790244531.946574) can0 18A#FD32F8E206
(1790244531.955974) can0 18A#FD31F8E206
(1790244531.965774) can0 28A#0000000000000000
(1790244531.966222) can0 18A#FD32F8E206
(1790244531.975689) can0 18A#FD32F8E206
(1790244531.985973) can0 28A#0000000000000000
(1790244531.986370) can0 18A#FD31F8E206
(1790244531.995630) can0 38A#000005
(1790244531.996123) can0 18A#FD31F8E306
(1790244532.005663) can0 28A#0000000000000000
(1790244532.006162) can0 18A#FD32F8E306
(1790244532.016010) can0 18A#FD32F8E206
(1790244532.025721) can0 28A#0000000000000000
(1790244532.026404) can0 18A#FD32F8E206
(1790244532.035532) can0 18A#FD32F8E206
(1790244532.045940) can0 38A#000005
(1790244532.046572) can0 28A#0000000000000000
(1790244532.046962) can0 18A#FD32F8E206
(1790244532.055482) can0 18A#FD32F8E206
(1790244532.065659) can0 28A#0000000000000000
(1790244532.066321) can0 18A#FD33F8E206
(1790244532.075885) can0 18A#FD33F8E206
(1790244532.085509) can0 28A#0000000000000000
(1790244532.085984) can0 18A#FD33F8E206
(1790244532.095306) can0 38A#000005
(1790244532.095848) can0 18A#FD33F8E206
(1790244532.105759) can0 28A#0000000000000000
(1790244532.106521) can0 18A#FD33F8E206
(1790244532.115257) can0 18A#FD33F8E206
(1790244532.125476) can0 28A#0000000000000000
(1790244532.126026) can0 18A#FD33F8E206
(1790244532.135642) can0 18A#FD33F8E206
(1790244532.145295) can0 70A#05
(1790244532.145814) can0 38A#000005
(1790244532.146158) can0 28A#0000000000000000
(1790244532.155236) can0 18A#FD33F8E206
(1790244532.165644) can0 28A#0000000000000000
(1790244532.166268) can0 18A#FD33F8E206
(1790244532.175227) can0 18A#FD33F8E206
(1790244532.185360) can0 28A#0000000000000000
(1790244532.185893) can0 18A#FD33F8E206
(1790244532.195516) can0 38A#000005
(1790244532.196115) can0 18A#FD33F8E206
(1790244532.205258) can0 28A#0000000000000000
(1790244532.205801) can0 18A#FD33F8E206
(1790244532.215183) can0 18A#FD33F8E206
(1790244532.225622) can0 28A#0000000000000000
(1790244532.226233) can0 18A#FD33F8E206
(1790244532.235042) can0 18A#FD33F8E206
(1790244532.245045) can0 38A#000005
(1790244532.245886) can0 28A#0000000000000000
(1790244532.246559) can0 18A#FD33F8E206
(1790244532.255235) can0 18A#FD33F8E206
(1790244532.270263) can0 28A#0000000000000000
(1790244532.270680) can0 18A#FD33F8E206
(1790244532.274928) can0 18A#FD33F8E206
(1790244532.285318) can0 28A#0000000000000000
(1790244532.285862) can0 18A#FD33F8E206
(1790244532.295014) can0 38A#000005
(1790244532.295676) can0 18A#FD33F8E206
(1790244532.305141) can0 28A#0000000000000000
(1790244532.306679) can0 18A#FD33F8E206
(1790244532.315234) can0 18A#FD33F8E206
(1790244532.325155) can0 28A#0000000000000000
(1790244532.325737) can0 18A#FD33F8E206
(1790244532.334793) can0 18A#FD34F8E206
(1790244532.345160) can0 38A#000005
(1790244532.345790) can0 28A#0000000000000000
(1790244532.346227) can0 18A#FD34F8E206
(1790244532.354803) can0 18A#FD34F8E206
(1790244532.364707) can0 28A#0000000000000000
(1790244532.365149) can0 18A#FD34F8E206
(1790244532.375039) can0 18A#FD34F8E206
(1790244532.384756) can0 28A#0000000000000000
(1790244532.385260) can0 18A#FD34F8E206
(1790244532.394677) can0 38A#000005
(1790244532.395238) can0 18A#FD34F8E206
(1790244532.405115) can0 28A#0000000000000000
(1790244532.405906) can0 18A#FD34F8E206
(1790244532.414600) can0 18A#FD34F8E206
(1790244532.424818) can0 28A#0000000000000000
(1790244532.425329) can0 18A#FD34F8E106
(1790244532.434820) can0 18A#FD34F8E206
(1790244532.444488) can0 38A#000005
(1790244532.444924) can0 28A#0000000000000000
(1790244532.445232) can0 18A#FD34F8E206
(1790244532.454447) can0 18A#FD34F8E206
(1790244532.464849) can0 28A#0000000000000000
(1790244532.465251) can0 18A#FD34F8E106
(1790244532.474412) can0 18A#FD34F8E206
(1790244532.484588) can0 28A#0000000000000000
(1790244532.485199) can0 18A#FD34F8E106
(1790244532.494761) can0 38A#000005
(1790244532.495324) can0 18A#FD34F8E206
(1790244532.504464) can0 28A#0000000000000000
(1790244532.504844) can0 18A#FD34F8E106
(1790244532.514334) can0 18A#FD34F8E206
(1790244532.524795) can0 28A#0000000000000000
(1790244532.525267) can0 18A#FD34F8E106
(1790244532.534274) can0 18A#FD34F8E106
(1790244532.544448) can0 38A#000005
(1790244532.545879) can0 28A#0000000000000000
(1790244532.546345) can0 18A#FD34F8E206
(1790244532.554532) can0 18A#FD34F8E206
(1790244532.564338) can0 28A#0000000000000000
(1790244532.564855) can0 18A#FD34F8E106
(1790244532.574325) can0 18A#FD34F8E206
(1790244532.584631) can0 28A#0000000000000000
(1790244532.585418) can0 18A#FD35F9E206
(1790244532.594228) can0 38A#000005
(1790244532.594860) can0 18A#FD35F9E106
(1790244532.604192) can0 28A#E2FD520000000000
(1790244532.604939) can0 18A#FD35F9E10E
(1790244532.614478) can0 18A#FD35F9E10E
(1790244532.624269) can0 28A#E8FD500000000000
(1790244532.624957) can0 18A#FD35F9E10E
(1790244532.634049) can0 18A#FC35FAE10E
(1790244532.644409) can0 38A#000005
(1790244532.645154) can0 28A#E8FD4F0000000000
(1790244532.645821) can0 18A#FC36FAE10E
(1790244532.653996) can0 18A#FC35FAE10E
(1790244532.663997) can0 28A#E8FD4F0000000000
(1790244532.664451) can0 18A#FC35FAE20E
(1790244532.674230) can0 18A#FC35FAE10E
(1790244532.684027) can0 28A#E8FD4F0000000000
(1790244532.685294) can0 18A#FC35FAE10E
(1790244532.694484) can0 38A#000005
(1790244532.695541) can0 18A#FC36FAE10E
(1790244532.704551) can0 28A#E8FD4E0000000000
(1790244532.705455) can0 18A#FC35FAE10E
(1790244532.714127) can0 18A#FC35FAE10E
(1790244532.724045) can0 28A#E8FD4F0000000000
(1790244532.724770) can0 18A#FC35FAE10E
(1790244532.734116) can0 18A#FC35FAE10E
(1790244532.743878) can0 38A#000005
(1790244532.744535) can0 28A#E8FD4F0000000000
(1790244532.745218) can0 18A#FC35FAE10E
(1790244532.753763) can0 18A#FC35FAE10E
(1790244532.764188) can0 28A#E8FD4E0000000000
(1790244532.764905) can0 18A#FC36FAE10E
(1790244532.773795) can0 18A#FC35FAE10E
(1790244532.783777) can0 28A#E8FD4F0000000000
(1790244532.784342) can0 18A#FC35FAE10E
(1790244532.793892) can0 38A#000005
(1790244532.794329) can0 18A#FC35FAE20E
(1790244532.803648) can0 28A#E8FD4F0000000000
(1790244532.804111) can0 18A#FC35FAE10E
(1790244532.813600) can0 18A#FC35FAE10E
(1790244532.824062) can0 28A#E8FD4D0000000000
(1790244532.824563) can0 18A#FC36FAE10E
(1790244532.833506) can0 18A#FC36FAE10E
(1790244532.843563) can0 38A#000005
(1790244532.844070) can0 28A#E8FD4B0000000000
(1790244532.844449) can0 18A#FC36FAE10E
(1790244532.853811) can0 18A#FC36FAE10E
(1790244532.863659) can0 28A#E8FD490000000000
(1790244532.864209) can0 18A#FC36FAE10E
(1790244532.873834) can0 18A#FC37FAE10E
(1790244532.883848) can0 28A#E8FD460000000000
(1790244532.884531) can0 18A#FC37FAE00E
(1790244532.893289) can0 38A#000005
(1790244532.893755) can0 18A#FC37FAE00E
(1790244532.903397) can0 28A#EDFD450000000000
(1790244532.903949) can0 18A#FC37FAE00E
(1790244532.913648) can0 18A#FC37FAE00E
(1790244532.923635) can0 28A#EDFD460000000000
(1790244532.924560) can0 18A#FC37FAE00E
(1790244532.933239) can0 18A#FC37FAE00E
(1790244532.943700) can0 38A#000005
(1790244532.944252) can0 28A#EDFD460000000000
(1790244532.944659) can0 18A#FC37FAE00E
(1790244532.953271) can0 18A#FC37FAE10E
(1790244532.963462) can0 28A#E8FD460000000000
(1790244532.964011) can0 18A#FC37FAE10E
(1790244532.973703) can0 18A#FC37FAE00E
(1790244532.983224) can0 28A#EDFD460000000000
(1790244532.983674) can0 18A#FC37FAE00E
(1790244532.993133) can0 38A#000005
(1790244532.993687) can0 18A#FC37FAE10E
(1790244533.003443) can0 28A#EDFD460000000000
(1790244533.003819) can0 18A#FC37FAE10E
(1790244533.013148) can0 18A#FC37FAE10E
(1790244533.023299) can0 28A#EDFD460000000000
(1790244533.023906) can0 18A#FC37FAE10E
(1790244533.033330) can0 18A#FC37FAE10E
(1790244533.042959) can0 38A#000005
(1790244533.043521) can0 28A#EDFD460000000000
(1790244533.043956) can0 18A#FC37FAE00E
(1790244533.052927) can0 18A#FC37FAE00E
(1790244533.063397) can0 28A#EDFD450000000000
(1790244533.063956) can0 18A#FC37FAE00E
(1790244533.073005) can0 18A#FC37FAE00E
(1790244533.083026) can0 28A#EDFD430000000000
(1790244533.083713) can0 18A#FC38FAE00E
(1790244533.093322) can0 38A#000005
(1790244533.093998) can0 18A#FC38FAE00E
(1790244533.102835) can0 28A#EDFD400000000000
(1790244533.103458) can0 18A#FC38FBE00E
(1790244533.112806) can0 18A#FC38FCE00E
(1790244533.123164) can0 28A#EDFD3D0000000000
(1790244533.123727) can0 18A#FC38FCE00E
(1790244533.132634) can0 18A#FC38FCE00E
(1790244533.142600) can0 70A#05
(1790244533.143035) can0 38A#000005
(1790244533.143463) can0 28A#EDFD3B0000000000
(1790244533.152840) can0 18A#FC38FCE00E
(1790244533.162625) can0 28A#EDFD3B0000000000
(1790244533.163100) can0 18A#FC38FCE00E
(1790244533.172619) can0 18A#FC38FCE00E
(1790244533.182826) can0 28A#EDFD3A0000000000
(1790244533.183199) can0 18A#FC38FCE00E
(1790244533.192433) can0 38A#000005
(1790244533.192867) can0 18A#FC38FCE00E
(1790244533.202441) can0 28A#EDFD3B0000000000
(1790244533.202842) can0 18A#FC38FCE00E
(1790244533.212748) can0 18A#FC38FCE00E
(1790244533.222472) can0 28A#EDFD3A0000000000
(1790244533.223028) can0 18A#FC38FCE00E
(1790244533.232314) can0 18A#FC38FCE00E
(1790244533.242686) can0 38A#000005
(1790244533.243288) can0 28A#EDFD3A0000000000
(1790244533.243683) can0 18A#FC38FCE00E
(1790244533.252269) can0 18A#FC38FCE00E
(1790244533.262340) can0 28A#EDFD3B0000000000
(1790244533.263054) can0 18A#FC38FCE00E
(1790244533.272658) can0 18A#FC38FCE00E
(1790244533.282322) can0 28A#EDFD3A0000000000
(1790244533.283083) can0 18A#FC38FCE00E
(1790244533.292206) can0 38A#000005
(1790244533.292992) can0 18A#FC38FCE00E
(1790244533.302630) can0 28A#EDFD3B0000000000
(1790244533.303645) can0 18A#FC38FCE00E
(1790244533.312025) can0 18A#FC38FCE00E
(1790244533.322097) can0 28A#EDFD3B0000000000
(1790244533.322658) can0 18A#FC38FCE00E
(1790244533.332300) can0 18A#FC38FCE00E
(1790244533.341981) can0 38A#000005
(1790244533.342597) can0 28A#EDFD380000000000
(1790244533.343121) can0 18A#FC38FCE00E
(1790244533.351910) can0 18A#FC38FCE00E
(1790244533.362329) can0 28A#EDFD350000000000
(1790244533.362964) can0 18A#FC38FCE00E
(1790244533.371929) can0 18A#FC38FCE10E
(1790244533.381887) can0 28A#F2FD320000000000
(1790244533.382806) can0 18A#FC38FCE10E
(1790244533.392049) can0 38A#000005
(1790244533.392522) can0 18A#FC38FCE10E
(1790244533.401760) can0 28A#F2FD2E0000000000
(1790244533.402263) can0 18A#FC38FCE20E
(1790244533.411607) can0 18A#FC38FDE20E
(1790244533.422025) can0 28A#F2FD2D0000000000
(1790244533.422524) can0 18A#FC38FDE20E
(1790244533.431556) can0 18A#FC38FDE20E
(1790244533.441589) can0 38A#000005
(1790244533.442210) can0 28A#F2FD2D0000000000
(1790244533.442650) can0 18A#FC38FDE20E
(1790244533.451810) can0 18A#FC38FDE20E
(1790244533.461611) can0 28A#F2FD2D0000000000
(1790244533.462145) can0 18A#FC38FDE20E
(1790244533.471563) can0 18A#FC38FDE20E
(1790244533.481766) can0 28A#F2FD2D0000000000
(1790244533.482129) can0 18A#FC38FDE20E
(1790244533.491474) can0 38A#000005
(1790244533.492001) can0 18A#FC38FDE20E
(1790244533.501402) can0 28A#F2FD2D0000000000
(1790244533.501822) can0 18A#FC38FDE20E
(1790244533.511615) can0 18A#FC38FDE20E
(1790244533.521412) can0 28A#F2FD2D0000000000
(1790244533.521957) can0 18A#FC38FDE20E
(1790244533.531216) can0 18A#FC38FDE20E
(1790244533.541565) can0 38A#000005
(1790244533.542096) can0 28A#F2FD2D0000000000
(1790244533.542503) can0 18A#FC38FDE20E
(1790244533.551196) can0 18A#FC38FDE20E
(1790244533.561287) can0 28A#F2FD2D0000000000
(1790244533.561901) can0 18A#FC38FDE20E
(1790244533.571523) can0 18A#FC38FDE20E
(1790244533.581193) can0 28A#F2FD2D0000000000
(1790244533.581888) can0 18A#FC38FDE20E
(1790244533.591127) can0 38A#000005
(1790244533.591846) can0 18A#FC38FDE20E
(1790244533.601493) can0 28A#F2FD2D0000000000
(1790244533.602657) can0 18A#FC38FDE20E
(1790244533.610934) can0 18A#FC38FDE20E
(1790244533.621105) can0 28A#F2FD2D0000000000
(1790244533.621643) can0 18A#FC38FDE20E
(1790244533.631176) can0 18A#FC38FDE20E
(1790244533.641000) can0 38A#000005
(1790244533.641727) can0 28A#F2FD2B0000000000
(1790244533.642307) can0 18A#FC38FDE20E
(1790244533.650858) can0 18A#FC38FDE20E
(1790244533.661302) can0 28A#F2FD260000000000
(1790244533.661926) can0 18A#FC39FDE30E
(1790244533.670773) can0 18A#FB39FDE30E
(1790244533.680782) can0 28A#F2FD230000000000
(1790244533.681252) can0 18A#FB39FEE30E
(1790244533.691025) can0 38A#000005
(1790244533.691632) can0 18A#FB39FEE30E
(1790244533.700706) can0 28A#F2FD1F0000000000
(1790244533.701260) can0 18A#FB39FEE30E
(1790244533.710618) can0 18A#FB39FEE40E
(1790244533.721006) can0 28A#F2FD1D0000000000
(1790244533.721589) can0 18A#FB39FEE40E
(1790244533.730464) can0 18A#FB39FEE40E
(1790244533.740406) can0 38A#000005
(1790244533.741035) can0 28A#F2FD1D0000000000
(1790244533.741480) can0 18A#FB39FEE40E
(1790244533.750730) can0 18A#FB39FEE40E
(1790244533.760498) can0 28A#F2FD1D0000000000
(1790244533.760997) can0 18A#FB39FEE40E
(1790244533.770465) can0 18A#FB39FEE40E
(1790244533.780747) can0 28A#F2FD1D0000000000
(1790244533.781247) can0 18A#FB39FEE40E
(1790244533.790335) can0 38A#000005
(1790244533.790841) can0 18A#FB39FEE40E
(1790244533.800394) can0 28A#F2FD1D0000000000
(1790244533.800977) can0 18A#FB39FEE40E
(1790244533.810614) can0 18A#FB39FEE40E
(1790244533.823045) can0 28A#F2FD1D0000000000
(1790244533.823926) can0 18A#FB39FEE40E
(1790244533.830175) can0 18A#FB39FEE40E
(1790244533.840501) can0 38A#000005
(1790244533.841073) can0 28A#F2FD1D0000000000
(1790244533.841460) can0 18A#FB39FEE40E
(1790244533.850048) can0 18A#FB39FEE40E
(1790244533.860470) can0 28A#F2FD1D0000000000
(1790244533.861147) can0 18A#FB39FEE40E
(1790244533.870316) can0 18A#FB39FEE40E
(1790244533.880005) can0 28A#F2FD1D0000000000
(1790244533.880483) can0 18A#FB39FEE40E
(1790244533.889988) can0 38A#000005
(1790244533.890582) can0 18A#FB39FEE40E
(1790244533.900358) can0 28A#F2FD1B0000000000
(1790244533.900904) can0 18A#FB39FEE40E
(1790244533.910204) can0 18A#FB39FEE40E
(1790244533.920052) can0 28A#F2FD170000000000
(1790244533.920768) can0 18A#FB39FFE40E
(1790244533.930194) can0 18A#FB39FFE50E
(1790244533.939885) can0 38A#000005
(1790244533.940479) can0 28A#F2FD130000000000
(1790244533.940947) can0 18A#FB39FFE50E
(1790244533.949714) can0 18A#FB39FFE50E
(1790244533.960181) can0 28A#F7FD0E0000000000
(1790244533.960665) can0 18A#FB39FFE50E
(1790244533.969861) can0 18A#FB39FFE50E
(1790244533.979661) can0 28A#F7FD0C0000000000
(1790244533.980261) can0 18A#FB39FFE60E
(1790244533.989948) can0 38A#000005
(1790244533.990427) can0 18A#FB39FFE60E
(1790244533.999556) can0 28A#F7FD0C0000000000
(1790244533.999889) can0 18A#FB39FFE60E
(1790244534.009524) can0 18A#FB39FFE60E
(1790244534.020027) can0 28A#F7FD0C0000000000
(1790244534.020614) can0 18A#FB39FFE60E
(1790244534.029496) can0 18A#FB39FFE60E
(1790244534.039496) can0 38A#000005
(1790244534.040056) can0 28A#F7FD0C0000000000
(1790244534.040421) can0 18A#FB39FFE60E
(1790244534.049713) can0 18A#FB39FFE60E
(1790244534.059475) can0 28A#F7FD0C0000000000
(1790244534.060023) can0 18A#FB39FFE60E
(1790244534.069386) can0 18A#FB39FFE60E
(1790244534.079642) can0 28A#F7FD0C0000000000
(1790244534.080118) can0 18A#FB39FFE60E
(1790244534.089251) can0 38A#000005
(1790244534.089808) can0 18A#FB39FFE60E
(1790244534.099210) can0 28A#F7FD0C0000000000
(1790244534.099647) can0 18A#FB39FFE60E
(1790244534.109649) can0 18A#FB39FFE60E
(1790244534.119245) can0 28A#F7FD0C0000000000
(1790244534.119821) can0 18A#FB39FFE60E
(1790244534.129000) can0 18A#FB39FFE60E
(1790244534.139333) can0 70A#05
(1790244534.139759) can0 38A#000005
(1790244534.140286) can0 28A#F7FD0C0000000000
(1790244534.148938) can0 18A#FB39FFE60E
(1790244534.159099) can0 28A#F7FD0A0000000000
(1790244534.159678) can0 18A#FB3900E60E
(1790244534.169300) can0 18A#FB3900E60E
(1790244534.178905) can0 28A#F7FD060000000000
(1790244534.179405) can0 18A#FB3900E60E
(1790244534.188858) can0 38A#000005
(1790244534.189644) can0 18A#FB3900E60E
(1790244534.199267) can0 28A#F7FD000000000000
(1790244534.200130) can0 18A#FB3900E60E
(1790244534.208807) can0 18A#FB3900E60E
(1790244534.218850) can0 28A#F2FDFDFF00000000
(1790244534.219497) can0 18A#FB3900E70E
(1790244534.228993) can0 18A#FB3900E70E
(1790244534.238805) can0 38A#000005
(1790244534.239362) can0 28A#F2FDFBFF00000000
(1790244534.239882) can0 18A#FB3900E70E
(1790244534.248445) can0 18A#FB3900E70E
(1790244534.258862) can0 28A#F2FDFBFF00000000
(1790244534.259313) can0 18A#FB3900E80E
(1790244534.268591) can0 18A#FB3900E80E
(1790244534.278399) can0 28A#F2FDFBFF00000000
(1790244534.278885) can0 18A#FB3900E80E
(1790244534.288708) can0 38A#000005
(1790244534.289143) can0 18A#FB3900E80E
(1790244534.298304) can0 28A#F2FDFAFF00000000
(1790244534.298661) can0 18A#FB3900E80E
(1790244534.308298) can0 18A#FB3900E80E
(1790244534.318652) can0 28A#F2FDFAFF00000000
(1790244534.319090) can0 18A#FB3900E80E
(1790244534.328113) can0 18A#FB3900E80E
(1790244534.340131) can0 38A#000005
(1790244534.340684) can0 28A#F2FDFBFF00000000
(1790244534.341074) can0 18A#FB3900E80E
(1790244534.348403) can0 18A#FB3900E80E
(1790244534.358127) can0 28A#F2FDFBFF00000000
(1790244534.358613) can0 18A#FB3900E80E
(1790244534.368157) can0 18A#FB3900E80E
(1790244534.378669) can0 28A#F2FDFBFF00000000
(1790244534.379398) can0 18A#FB3900E80E
(1790244534.387824) can0 38A#000005
(1790244534.388237) can0 18A#FB3900E80E
(1790244534.397911) can0 28A#F2FDFBFF00000000
(1790244534.398310) can0 18A#FB3900E80E
(1790244534.408229) can0 18A#FB3900E80E
(1790244534.417907) can0 28A#F2FDF9FF00000000
(1790244534.418471) can0 18A#FB3900E80E
(1790244534.427763) can0 18A#FB3901E80E
(1790244534.438224) can0 38A#000005
(1790244534.438851) can0 28A#F2FDF3FF00000000
(1790244534.439269) can0 18A#FB3901E80E
(1790244534.447682) can0 18A#FB3901E80E
(1790244534.457726) can0 28A#F2FDEFFF00000000
(1790244534.458198) can0 18A#FB3901E80E
(1790244534.468371) can0 18A#FA3901E90E
(1790244534.478980) can0 28A#F2FDEBFF00000000
(1790244534.479688) can0 18A#FA3902E90E
(1790244534.487496) can0 38A#000005
(1790244534.487980) can0 18A#FA3A02E90E
(1790244534.497847) can0 28A#F2FDE8FF00000000
(1790244534.498332) can0 18A#FA3A02E90E
(1790244534.507397) can0 18A#FA3A02E90E
(1790244534.517443) can0 28A#F2FDE9FF00000000
(1790244534.518000) can0 18A#FA3A02E90E
(1790244534.527658) can0 18A#FA3A02E90E
(1790244534.537317) can0 38A#000005
(1790244534.537871) can0 28A#F2FDE9FF00000000
(1790244534.538205) can0 18A#FA3A02E90E
(1790244534.547202) can0 18A#FA3A02E90E
(1790244534.557650) can0 28A#F2FDE9FF00000000
(1790244534.558250) can0 18A#FA3A02E90E
(1790244534.567316) can0 18A#FA3A02E90E
(1790244534.577290) can0 28A#F2FDE8FF00000000
(1790244534.578082) can0 18A#FA3A02E90E
(1790244534.587424) can0 38A#000005
(1790244534.587907) can0 18A#FA3A02E90E
(1790244534.597106) can0 28A#F2FDE8FF00000000
(1790244534.597569) can0 18A#FA3A02E90E
(1790244534.607050) can0 18A#FA3A02E90E
(1790244534.617562) can0 28A#F2FDE9FF00000000
(1790244534.618439) can0 18A#FA3A02E90E
(1790244534.626939) can0 18A#FA3A02E90E
(1790244534.636999) can0 38A#000005
(1790244534.637736) can0 28A#F2FDE9FF00000000
(1790244534.638262) can0 18A#FA3A02E90E
(1790244534.647228) can0 18A#FA3A02E90E
(1790244534.656860) can0 28A#F2FDE9FF00000000
(1790244534.657403) can0 18A#FA3A02E90E
(1790244534.666884) can0 18A#FA3A02E90E
(1790244534.677114) can0 28A#F2FDE9FF00000000
(1790244534.677696) can0 18A#FA3A02E90E
(1790244534.686692) can0 38A#000005
(1790244534.687246) can0 18A#FA3A02E90E
(1790244534.696682) can0 28A#F2FDE8FF00000000
(1790244534.697158) can0 18A#FA3A02E90E
(1790244534.706932) can0 18A#FA3A02E90E
(1790244534.716609) can0 28A#EDFDE4FF00000000
(1790244534.717048) can0 18A#FA3A02E90E
(1790244534.726440) can0 18A#FA3A02EA0E
(1790244534.736778) can0 38A#000005
(1790244534.737260) can0 28A#EDFDDFFF00000000
(1790244534.737560) can0 18A#FA3A02EA0E
(1790244534.746389) can0 18A#FA3A02EA0E
(1790244534.756497) can0 28A#EDFDDCFF00000000
(1790244534.757236) can0 18A#FA3A02EB0E
(1790244534.766692) can0 18A#FA3A03EB0E
(1790244534.776307) can0 28A#EDFDD8FF00000000
(1790244534.776807) can0 18A#FA3A03EB0E
(1790244534.786154) can0 38A#000005
(1790244534.786592) can0 18A#FA3A03EB0E
(1790244534.796510) can0 28A#EDFDD8FF00000000
(1790244534.796937) can0 18A#FA3A03EB0E
(1790244534.806109) can0 18A#FA3A04EB0E
(1790244534.816243) can0 28A#EDFDD7FF00000000
(1790244534.816861) can0 18A#FA3A04EB0E
(1790244534.826334) can0 18A#FA3A04EB0E
(1790244534.835980) can0 38A#000005
(1790244534.836768) can0 28A#EDFDD8FF00000000
(1790244534.837711) can0 18A#FA3A04EB0E
(1790244534.846703) can0 18A#FA3A04EB0E
(1790244534.856409) can0 28A#EDFDD8FF00000000
(1790244534.858840) can0 18A#FA3A04EB0E
(1790244534.865968) can0 18A#FA3A04EB0E
(1790244534.875830) can0 28A#EDFDD8FF00000000
(1790244534.876280) can0 18A#FA3A04EB0E
(1790244534.886184) can0 38A#000005
(1790244534.886768) can0 18A#FA3A04EB0E
(1790244534.895808) can0 28A#EDFDD8FF00000000
(1790244534.896343) can0 18A#FA3A04EB0E
(1790244534.905893) can0 18A#FA3A04EB0E
(1790244534.916447) can0 28A#EDFDD8FF00000000
(1790244534.917742) can0 18A#FA3A04EB0E
(1790244534.925600) can0 18A#FA3A04EB0E
(1790244534.935775) can0 38A#000005
(1790244534.936288) can0 28A#EDFDD8FF00000000
(1790244534.936836) can0 18A#FA3A04EB0E
(1790244534.945905) can0 18A#FA3A04EB0E
(1790244534.955639) can0 28A#EDFDD8FF00000000
(1790244534.956230) can0 18A#FA3A04EB0E
(1790244534.965573) can0 18A#FA3A04EB0E
(1790244534.975950) can0 28A#EDFDD3FF00000000
(1790244534.976813) can0 18A#FA3A04EC0E
(1790244534.985482) can0 38A#000005
(1790244534.986151) can0 18A#FA3A04EC0E
(1790244534.995490) can0 28A#EDFDCFFF00000000
(1790244534.996240) can0 18A#FA3A04EC0E
(1790244535.005764) can0 18A#FA3A04ED0E
(1790244535.015440) can0 28A#EDFDCCFF00000000
(1790244535.016105) can0 18A#FA3A04ED0E
(1790244535.025258) can0 18A#FA3A04ED0E
(1790244535.035385) can0 38A#000005
(1790244535.035792) can0 28A#E8FDC9FF00000000
(1790244535.036126) can0 18A#FA3A04ED0E
(1790244535.045008) can0 18A#FA3A04ED0E
(1790244535.055205) can0 28A#E8FDC9FF00000000
(1790244535.055639) can0 18A#FA3A04ED0E
(1790244535.065522) can0 18A#FA3A04EE0E
(1790244535.074970) can0 28A#E8FDC9FF00000000
(1790244535.075379) can0 18A#FA3A04EE0E
(1790244535.084938) can0 38A#000005
(1790244535.085498) can0 18A#FA3A04EE0E
(1790244535.095166) can0 28A#E8FDC9FF00000000
(1790244535.095535) can0 18A#FA3A04EE0E
(1790244535.104822) can0 18A#FA3A04EE0E
(1790244535.114955) can0 28A#E8FDC9FF00000000
(1790244535.115452) can0 18A#FA3A04EE0E
(1790244535.124965) can0 18A#FA3A04EE0E
(1790244535.134623) can0 70A#05
(1790244535.135019) can0 38A#000005
(1790244535.135367) can0 28A#E8FDC9FF00000000
(1790244535.144543) can0 18A#FA3A04EE0E
(1790244535.155006) can0 28A#E8FDC9FF00000000
(1790244535.155551) can0 18A#FA3A04EE0E
(1790244535.164610) can0 18A#FA3A04EE0E
(1790244535.174548) can0 28A#E8FDC9FF00000000
(1790244535.175098) can0 18A#FA3A04EE0E
(1790244535.184728) can0 38A#000005
(1790244535.185176) can0 18A#FA3A04EE0E
(1790244535.194370) can0 28A#E8FDC9FF00000000
(1790244535.194742) can0 18A#FA3A04EE0E
(1790244535.204224) can0 18A#FA3A04EE0E
(1790244535.214714) can0 28A#E8FDC9FF00000000
(1790244535.215212) can0 18A#FA3A04EE0E
(1790244535.224155) can0 18A#FA3A04EE0E
(1790244535.234193) can0 38A#000005
(1790244535.234748) can0 28A#E8FDC7FF00000000
(1790244535.235133) can0 18A#F93A05EE0E
(1790244535.244502) can0 18A#F93A05EE0E
(1790244535.254130) can0 28A#E8FDC4FF00000000
(1790244535.254589) can0 18A#F93A05EE0E
(1790244535.264070) can0 18A#F93A05EF0E
(1790244535.274369) can0 28A#E8FDC0FF00000000
(1790244535.274769) can0 18A#F93A05EF0E
(1790244535.283959) can0 38A#000005
(1790244535.284463) can0 18A#F93A05EF0E
(1790244535.293902) can0 28A#E2FDBEFF00000000
(1790244535.294435) can0 18A#F93A05F00E
(1790244535.304250) can0 18A#F93A05F00E
(1790244535.313778) can0 28A#E2FDBCFF00000000
(1790244535.314217) can0 18A#F93A05F00E
(1790244535.323644) can0 18A#F93A05F10E
(1790244535.333944) can0 38A#000005
(1790244535.334517) can0 28A#E2FDBDFF00000000
(1790244535.335885) can0 18A#F93A05F10E
(1790244535.343579) can0 18A#F93A05F10E
(1790244535.353662) can0 28A#E2FDBDFF00000000
(1790244535.354147) can0 18A#F93A05F10E
(1790244535.363918) can0 18A#F93A05F10E
(1790244535.373550) can0 28A#E2FDBDFF00000000
(1790244535.373940) can0 18A#F93A05F10E
(1790244535.383536) can0 38A#000005
(1790244535.384048) can0 18A#F93A05F10E
(1790244535.393739) can0 28A#E2FDBDFF00000000
(1790244535.394179) can0 18A#F93A05F10E
(1790244535.403410) can0 18A#F93A05F10E
(1790244535.413498) can0 28A#E2FDBDFF00000000
(1790244535.414345) can0 18A#F93A05F10E
(1790244535.423627) can0 18A#F93A05F10E
(1790244535.433259) can0 38A#000005
(1790244535.433910) can0 28A#E2FDBDFF00000000
(1790244535.434387) can0 18A#F93A05F10E
(1790244535.443206) can0 18A#F93A05F10E
(1790244535.453567) can0 28A#E2FDBDFF00000000
(1790244535.454028) can0 18A#F93A05F10E
(1790244535.463017) can0 18A#F93A05F10E
(1790244535.472972) can0 28A#E8FDBDFF00000000
(1790244535.473429) can0 18A#F93A05F10E
(1790244535.483300) can0 38A#000005
(1790244535.483977) can0 18A#F93A05F10E
(1790244535.492895) can0 28A#E2FDBCFF00000000
(1790244535.493253) can0 18A#F93A05F10E
(1790244535.502945) can0 18A#F93A05F10E
(1790244535.513247) can0 28A#E2FDB9FF00000000
(1790244535.513721) can0 18A#F93A05F10E
(1790244535.522722) can0 18A#F93A05F10E
(1790244535.532767) can0 38A#000005
(1790244535.533250) can0 28A#E2FDB6FF00000000
(1790244535.533629) can0 18A#F93A05F20E
(1790244535.543007) can0 18A#F93A06F20E
(1790244535.552704) can0 28A#E2FDB4FF00000000
(1790244535.553243) can0 18A#F93A06F20E
(1790244535.562591) can0 18A#F93A07F30E
(1790244535.572834) can0 28A#DDFDB2FF00000000
(1790244535.573244) can0 18A#F93A07F30E
(1790244535.582376) can0 38A#000005
(1790244535.582782) can0 18A#F93A07F30E
(1790244535.592409) can0 28A#DDFDB3FF00000000
(1790244535.592774) can0 18A#F93A07F30E
(1790244535.602634) can0 18A#F93A07F30E
(1790244535.612438) can0 28A#E2FDB3FF00000000
(1790244535.612957) can0 18A#F93A07F30E
(1790244535.622248) can0 18A#F93A07F30E
(1790244535.632637) can0 38A#000005
(1790244535.633235) can0 28A#DDFDB3FF00000000
(1790244535.633759) can0 18A#F93A07F30E
(1790244535.642131) can0 18A#F93A07F30E
(1790244535.652188) can0 28A#DDFDB3FF00000000
(1790244535.652716) can0 18A#F93A07F30E
(1790244535.662456) can0 18A#F93A07F30E
(1790244535.672070) can0 28A#E2FDB3FF00000000
(1790244535.672549) can0 18A#F93A06F30E
(1790244535.682013) can0 38A#000005
(1790244535.682497) can0 18A#F93A07F30E
(1790244535.692352) can0 28A#DDFDB2FF00000000
(1790244535.692770) can0 18A#F93A07F30E
(1790244535.701921) can0 18A#F93A06F30E
(1790244535.712035) can0 28A#DDFDB3FF00000000
(1790244535.712590) can0 18A#F93A07F30E
(1790244535.722068) can0 18A#F93A07F30E
(1790244535.731747) can0 38A#000005
(1790244535.732246) can0 28A#DDFDB3FF00000000
(1790244535.732652) can0 18A#F93A07F30E
(1790244535.741618) can0 18A#F93A07F30E
(1790244535.751987) can0 28A#DDFDB3FF00000000
(1790244535.752440) can0 18A#F93A07F30E
(1790244535.761665) can0 18A#F93A07F30E
(1790244535.771697) can0 28A#DDFDB2FF00000000
(1790244535.773033) can0 18A#F93A07F30E
(1790244535.782148) can0 38A#000005
(1790244535.789922) can0 18A#F93A07F30E
(1790244535.791533) can0 28A#DDFDB0FF00000000
(1790244535.792333) can0 18A#F93A07F40E
(1790244535.801557) can0 18A#F93A07F40E
(1790244535.811990) can0 28A#0000000000000000
(1790244535.812661) can0 18A#F93B07F506
(1790244535.821367) can0 18A#F93B07F506
(1790244535.831239) can0 38A#000005
(1790244535.831749) can0 28A#0000000000000000
(1790244535.832137) can0 18A#F93B08F506
(1790244535.841501) can0 18A#F93B08F606
(1790244535.851166) can0 28A#0000000000000000
(1790244535.851562) can0 18A#F93B08F606
(1790244535.861179) can0 18A#F93B08F606
(1790244535.871690) can0 28A#0000000000000000
(1790244535.872368) can0 18A#F93B08F606
(1790244535.880964) can0 38A#000005
(1790244535.881482) can0 18A#F93B08F606
(1790244535.890982) can0 28A#0000000000000000
(1790244535.891430) can0 18A#F93B08F606
(1790244535.901308) can0 18A#F93B08F606
(1790244535.912864) can0 28A#0000000000000000
(1790244535.914712) can0 18A#F93B08F606
(1790244535.920884) can0 18A#F93B08F606
(1790244535.931497) can0 38A#000005
(1790244535.932287) can0 28A#0000000000000000
(1790244535.932634) can0 18A#F93B08F606
(1790244535.940879) can0 18A#F93B08F606
(1790244535.950902) can0 28A#0000000000000000
(1790244535.952289) can0 18A#F93B08F606
(1790244535.961772) can0 18A#F93B08F606
(1790244535.971339) can0 28A#0000000000000000
(1790244535.973395) can0 18A#F93B08F606
(1790244535.980861) can0 38A#000005
(1790244535.984677) can0 18A#F93B08F606
(1790244535.992060) can0 28A#0000000000000000
(1790244535.992999) can0 18A#F93B08F606
(1790244536.001555) can0 18A#F93B08F606
(1790244536.010603) can0 28A#0000000000000000
(1790244536.011136) can0 18A#F93B08F606
(1790244536.020577) can0 18A#F93B08F606
(1790244536.030248) can0 38A#000005
(1790244536.030773) can0 28A#0000000000000000
(1790244536.031117) can0 18A#F93B08F606
(1790244536.040209) can0 18A#F93B08F606
(1790244536.050691) can0 28A#0000000000000000
(1790244536.051442) can0 18A#F93B08F706
(1790244536.060246) can0 18A#F83B08F706
(1790244536.070154) can0 28A#0000000000000000
(1790244536.070619) can0 18A#F93B07F806
(1790244536.080410) can0 38A#000005
(1790244536.080934) can0 18A#F83B08F806
(1790244536.089990) can0 28A#0000000000000000
(1790244536.090410) can0 18A#F83B08F806
(1790244536.099880) can0 18A#F83B08F906
(1790244536.110229) can0 28A#0000000000000000
(1790244536.110671) can0 18A#F83B08F906
(1790244536.119727) can0 18A#F83B08F906
(1790244536.129596) can0 70A#05
(1790244536.129948) can0 38A#000005
(1790244536.130242) can0 28A#0000000000000000
(1790244536.139918) can0 18A#F83B08F906
(1790244536.149730) can0 28A#0000000000000000
(1790244536.150460) can0 18A#F83B08F906
(1790244536.159600) can0 18A#F83B08F906
(1790244536.169961) can0 28A#0000000000000000
(1790244536.170550) can0 18A#F83B08F906
(1790244536.179490) can0 38A#000005
(1790244536.180060) can0 18A#F83B08F906
(1790244536.189445) can0 28A#0000000000000000
(1790244536.189967) can0 18A#F83B08F906
(1790244536.199688) can0 18A#F83B08F906
(1790244536.209399) can0 28A#0000000000000000
(1790244536.209874) can0 18A#F83B08FA06
(1790244536.219347) can0 18A#F83B08F906
(1790244536.229695) can0 38A#000005
(1790244536.230246) can0 28A#0000000000000000
(1790244536.230582) can0 18A#F83B08F906
(1790244536.239064) can0 18A#F83B08F906
(1790244536.249121) can0 28A#0000000000000000
(1790244536.249633) can0 18A#F83B08F906
(1790244536.259452) can0 18A#F83B08FA06
(1790244536.268957) can0 28A#0000000000000000
(1790244536.269405) can0 18A#F83B08FA06
(1790244536.278905) can0 38A#000005
(1790244536.279456) can0 18A#F83B08FA06
(1790244536.289233) can0 28A#0000000000000000
(1790244536.289827) can0 18A#F83B08FA06
(1790244536.298931) can0 18A#F83B08FA06
(1790244536.309419) can0 28A#0000000000000000
(1790244536.310147) can0 18A#F83B08FA06
(1790244536.319017) can0 18A#F83B08FA06
(1790244536.328657) can0 38A#000005
(1790244536.329192) can0 28A#0000000000000000
(1790244536.329507) can0 18A#F83B08FB06
(1790244536.338538) can0 18A#F83B08FB06
(1790244536.348972) can0 28A#0000000000000000
(1790244536.349403) can0 18A#F83B08FC06
(1790244536.358556) can0 18A#F83B08FC06
(1790244536.368430) can0 28A#0000000000000000
(1790244536.368850) can0 18A#F83B08FD06
(1790244536.378645) can0 38A#000005
(1790244536.379041) can0 18A#F83B08FD06
(1790244536.388347) can0 28A#0000000000000000
(1790244536.388774) can0 18A#F83B08FD06
(1790244536.398244) can0 18A#F83B08FD06
(1790244536.408702) can0 28A#0000000000000000
(1790244536.409186) can0 18A#F83B08FD06
(1790244536.418168) can0 18A#F83B08FD06
(1790244536.428195) can0 38A#000005
(1790244536.428809) can0 28A#0000000000000000
(1790244536.429229) can0 18A#F83B08FD06
(1790244536.438304) can0 18A#F83B08FD06
(1790244536.448150) can0 28A#0000000000000000
(1790244536.448620) can0 18A#F83B08FD06
(1790244536.457953) can0 18A#F83B08FD06
(1790244536.468302) can0 28A#0000000000000000
(1790244536.468723) can0 18A#F83B08FD06
(1790244536.477817) can0 38A#000005
(1790244536.478277) can0 18A#F83B08FD06
(1790244536.487820) can0 28A#0000000000000000
(1790244536.488292) can0 18A#F83B08FD06
(1790244536.498161) can0 18A#F83B08FD06
(1790244536.507840) can0 28A#0000000000000000
(1790244536.508409) can0 18A#F83B08FD06
(1790244536.517527) can0 18A#F83B08FD06
(1790244536.527933) can0 38A#000005
(1790244536.528437) can0 28A#0000000000000000
(1790244536.528810) can0 18A#F83B08FD06
(1790244536.537427) can0 18A#F83B08FD06
(1790244536.547677) can0 28A#0000000000000000
(1790244536.548184) can0 18A#F83B08FD06
(1790244536.557838) can0 18A#F83B08FD06
(1790244536.567369) can0 28A#0000000000000000
(1790244536.567750) can0 18A#F83B08FE06
(1790244536.577335) can0 38A#000005
(1790244536.577906) can0 18A#F83B08FE06
(1790244536.587629) can0 28A#0000000000000000
(1790244536.588188) can0 18A#F83B08FF06
(1790244536.597299) can0 18A#F83B080006
(1790244536.607437) can0 28A#0000000000000000
(1790244536.608008) can0 18A#F83B080006
(1790244536.617439) can0 18A#F83B080006
(1790244536.626920) can0 38A#000005
(1790244536.627433) can0 28A#0000000000000000
(1790244536.627795) can0 18A#F83B080006
(1790244536.636880) can0 18A#F83B080006
(1790244536.647251) can0 28A#0000000000000000
(1790244536.647610) can0 18A#F83B080006
(1790244536.656917) can0 18A#F83B080006
(1790244536.666882) can0 28A#0000000000000000
(1790244536.667459) can0 18A#F83B080006
(1790244536.677178) can0 38A#000005
(1790244536.677811) can0 18A#F83B080006
(1790244536.686894) can0 28A#0000000000000000
(1790244536.687673) can0 18A#F83B080006
(1790244536.696742) can0 18A#F83B080006
(1790244536.707130) can0 28A#0000000000000000
(1790244536.707762) can0 18A#F83B080006
(1790244536.716588) can0 18A#F83B080006
(1790244536.726525) can0 38A#000005
(1790244536.727182) can0 28A#0000000000000000
(1790244536.727606) can0 18A#F83B080006
(1790244536.736734) can0 18A#F83B080006
(1790244536.746493) can0 28A#0000000000000000
(1790244536.747184) can0 18A#F83B080006
(1790244536.756358) can0 18A#F83B080006
(1790244536.766628) can0 28A#0000000000000000
(1790244536.766989) can0 18A#F83B080006
(1790244536.776155) can0 38A#000005
(1790244536.776565) can0 18A#F83B080006
(1790244536.786177) can0 28A#0000000000000000
(1790244536.786535) can0 18A#F83B080006
(1790244536.796460) can0 18A#F83B080006
(1790244536.806256) can0 28A#0000000000000000
(1790244536.807173) can0 18A#F83B080006
(1790244536.815927) can0 18A#F83B080006
(1790244536.826394) can0 38A#000005
(1790244536.826917) can0 28A#0000000000000000
(1790244536.827355) can0 18A#F83B080006
(1790244536.835854) can0 18A#F83B080006
(1790244536.846011) can0 28A#0000000000000000
(1790244536.846504) can0 18A#F83B080006
(1790244536.856395) can0 18A#F83B080006
(1790244536.866297) can0 28A#0000000000000000
(1790244536.866741) can0 18A#F83B080006
(1790244536.875746) can0 38A#000005
(1790244536.876298) can0 18A#F83B080006
(1790244536.886007) can0 28A#0000000000000000
(1790244536.886357) can0 18A#F83B070006
(1790244536.895588) can0 18A#F83B070006
(1790244536.905859) can0 28A#0000000000000000
(1790244536.914432) can0 18A#F83B080006
(1790244536.915711) can0 18A#F83B080006
(1790244536.925350) can0 38A#000005
(1790244536.925810) can0 28A#0000000000000000
(1790244536.926192) can0 18A#F83B080006
(1790244536.935289) can0 18A#F83B080006
(1790244536.945685) can0 28A#0000000000000000
(1790244536.946141) can0 18A#F83B080006
(1790244536.955287) can0 18A#F83B080006
(1790244536.965211) can0 28A#0000000000000000
(1790244536.965748) can0 18A#F83B080006
(1790244536.975516) can0 38A#000005
(1790244536.976101) can0 18A#F83B080006
(1790244536.985181) can0 28A#0000000000000000
(1790244536.985809) can0 18A#F83B080006
(1790244536.995087) can0 18A#F83B080006
(1790244537.005641) can0 28A#0000000000000000
(1790244537.006332) can0 18A#F83B080006
(1790244537.015036) can0 18A#F83B080006
(1790244537.024884) can0 38A#000005
(1790244537.025497) can0 28A#0000000000000000
(1790244537.025983) can0 18A#F83B070006
(1790244537.035152) can0 18A#F83B070006
(1790244537.044879) can0 28A#0000000000000000
(1790244537.045547) can0 18A#F83B070006
(1790244537.054758) can0 18A#F83B080006
(1790244537.065045) can0 28A#0000000000000000
(1790244537.065598) can0 18A#F83B080006
(1790244537.074524) can0 38A#000005
(1790244537.075013) can0 18A#F83B080006
(1790244537.084499) can0 28A#0000000000000000
(1790244537.085006) can0 18A#F83B080006
(1790244537.094898) can0 18A#F83B080006
(1790244537.104542) can0 28A#0000000000000000
(1790244537.105106) can0 18A#F83B080006
(1790244537.114303) can0 18A#F83B080006
(1790244537.124584) can0 70A#05
(1790244537.125088) can0 38A#000005
(1790244537.125502) can0 28A#0000000000000000
(1790244537.134143) can0 18A#F83B070006
(1790244537.144353) can0 28A#0000000000000000
(1790244537.144824) can0 18A#F83B070006
(1790244537.154519) can0 18A#F83B080006
(1790244537.164085) can0 28A#0000000000000000
(1790244537.164475) can0 18A#F83B080006
(1790244537.173954) can0 38A#000005
(1790244537.174378) can0 18A#F83B080006
(1790244537.184230) can0 28A#0000000000000000
(1790244537.184612) can0 18A#F83B080006
(1790244537.193865) can0 18A#F83B080006
(1790244537.203864) can0 28A#0000000000000000
(1790244537.204330) can0 18A#F83B080006
(1790244537.214131) can0 18A#F83B080006
(1790244537.223827) can0 38A#000005
(1790244537.224433) can0 28A#0000000000000000
(1790244537.224814) can0 18A#F83B080006
(1790244537.233674) can0 18A#F83B080006
(1790244537.244051) can0 28A#0000000000000000
(1790244537.244674) can0 18A#F83B080006
(1790244537.253661) can0 18A#F83B080006
(1790244537.263698) can0 28A#0000000000000000
(1790244537.264447) can0 18A#F83B080006
(1790244537.273849) can0 38A#000005
(1790244537.274581) can0 18A#F83B080006
(1790244537.283593) can0 28A#0000000000000000
(1790244537.284388) can0 18A#F83B080006
(1790244537.293461) can0 18A#F83B080006
(1790244537.303715) can0 28A#0000000000000000
(1790244537.304502) can0 18A#F83B080006
(1790244537.313159) can0 18A#F83B080006
(1790244537.323186) can0 38A#000005
(1790244537.323935) can0 28A#0000000000000000
(1790244537.324388) can0 18A#F83B080006
(1790244537.333347) can0 18A#F83B080006
(1790244537.343709) can0 28A#0000000000000000
(1790244537.344272) can0 18A#F83B080006
(1790244537.352998) can0 18A#F83B080006
(1790244537.363218) can0 28A#0000000000000000
(1790244537.363631) can0 18A#F83B070006
(1790244537.372859) can0 38A#000005
(1790244537.373353) can0 18A#F83B070006
(1790244537.382776) can0 28A#0000000000000000
(1790244537.383195) can0 18A#F83B070006
(1790244537.393088) can0 18A#F83B070006
(1790244537.402793) can0 28A#0000000000000000
(1790244537.403378) can0 18A#F83B070006
(1790244537.412602) can0 18A#F83B060006
(1790244537.425465) can0 38A#000005
(1790244537.426337) can0 28A#0000000000000000
(1790244537.426955) can0 18A#F83B060006
(1790244537.432477) can0 18A#F83B060006
(1790244537.442413) can0 28A#0000000000000000
(1790244537.442824) can0 18A#F83B070006
(1790244537.452670) can0 18A#F73B070006
(1790244537.462279) can0 28A#0000000000000000
(1790244537.462641) can0 18A#F83B070006
(1790244537.472225) can0 38A#000005
(1790244537.472692) can0 18A#F83B070006
(1790244537.482522) can0 28A#0000000000000000
(1790244537.483546) can0 18A#F83B060006
(1790244537.492169) can0 18A#F83B060006
(1790244537.502207) can0 28A#0000000000000000
(1790244537.502764) can0 18A#F83B060006
(1790244537.512315) can0 18A#F83B060006
(1790244537.521949) can0 38A#000005
(1790244537.522480) can0 28A#0000000000000000
(1790244537.522849) can0 18A#F83B060006
(1790244537.531921) can0 18A#F83B060006
(1790244537.542252) can0 28A#0000000000000000
(1790244537.542728) can0 18A#F83B060006
(1790244537.551919) can0 18A#F83B060006
(1790244537.562221) can0 28A#0000000000000000
(1790244537.562870) can0 18A#F83B060006
(1790244537.571968) can0 38A#000005
(1790244537.572402) can0 18A#F83B060006
(1790244537.581657) can0 28A#0000000000000000
(1790244537.582139) can0 18A#F83B060006
(1790244537.591516) can0 18A#F83B060006
(1790244537.601929) can0 28A#0000000000000000
(1790244537.602412) can0 18A#F83B060006
(1790244537.611455) can0 18A#F83B060006
(1790244537.621460) can0 38A#000005
(1790244537.622120) can0 28A#0000000000000000
(1790244537.622717) can0 18A#F73B070006
(1790244537.631622) can0 18A#F73B070006
(1790244537.641384) can0 28A#0000000000000000
(1790244537.642000) can0 18A#F73B070006
(1790244537.651268) can0 18A#F73B080006
(1790244537.661512) can0 28A#0000000000000000
(1790244537.661901) can0 18A#F73B070006
(1790244537.671073) can0 38A#000005
(1790244537.671495) can0 18A#F73B070006
(1790244537.681002) can0 28A#0000000000000000
(1790244537.681459) can0 18A#F73B070006
(1790244537.691296) can0 18A#F73B070006
(1790244537.700953) can0 28A#0000000000000000
(1790244537.701432) can0 18A#F73B070006
(1790244537.710731) can0 18A#F73B060006
(1790244537.721030) can0 38A#000005
(1790244537.721514) can0 28A#0000000000000000
(1790244537.721871) can0 18A#F73B060006
(1790244537.730683) can0 18A#F73B060006
(1790244537.740794) can0 28A#0000000000000000
(1790244537.741282) can0 18A#F73B060006
(1790244537.751065) can0 18A#F73B060006
(1790244537.760591) can0 28A#0000000000000000
(1790244537.761041) can0 18A#F73B060006
(1790244537.770532) can0 38A#000005
(1790244537.770977) can0 18A#F73B060006
(1790244537.780871) can0 28A#0000000000000000
(1790244537.781266) can0 18A#F73B060006
(1790244537.790406) can0 18A#F73B060006
(1790244537.800466) can0 28A#0000000000000000
(1790244537.801097) can0 18A#F73B060006
(1790244537.810508) can0 18A#F73B060006
(1790244537.820178) can0 38A#000005
(1790244537.820647) can0 28A#0000000000000000
(1790244537.820964) can0 18A#F73B060006
(1790244537.830094) can0 18A#F73B060006
(1790244537.840473) can0 28A#0000000000000000
(1790244537.840973) can0 18A#F73B060006
(1790244537.850046) can0 18A#F73B060006
(1790244537.860003) can0 28A#0000000000000000
(1790244537.860404) can0 18A#F73B060006
(1790244537.870322) can0 38A#000005
(1790244537.870862) can0 18A#F73B060006
(1790244537.879812) can0 28A#0000000000000000
(1790244537.880169) can0 18A#F73B060006
(1790244537.889783) can0 18A#F73B060006
(1790244537.900217) can0 28A#0000000000000000
(1790244537.900705) can0 18A#F73B060006
(1790244537.909624) can0 18A#F73B060006
(1790244537.919682) can0 38A#000005
(1790244537.920193) can0 28A#0000000000000000
(1790244537.920484) can0 18A#F73B070006
(1790244537.929785) can0 18A#F73B070006
(1790244537.939777) can0 28A#0000000000000000
(1790244537.941620) can0 18A#F73B070006
(1790244537.949496) can0 18A#F73B070006
(1790244537.959766) can0 28A#0000000000000000
(1790244537.960243) can0 18A#F73B080006
(1790244537.969381) can0 38A#000005
(1790244537.969896) can0 18A#F73B080006
(1790244537.979339) can0 28A#0000000000000000
(1790244537.979843) can0 18A#F63B080006
(1790244537.989462) can0 18A#F63B080006
(1790244537.999371) can0 28A#0000000000000000
(1790244537.999995) can0 18A#F63B080006
(1790244538.009023) can0 18A#F63B080006
(1790244538.019385) can0 38A#000005
(1790244538.020020) can0 28A#0000000000000000
(1790244538.020466) can0 18A#F63B080006
(1790244538.028921) can0 18A#F63B080006
(1790244538.039114) can0 28A#0000000000000000
(1790244538.039730) can0 18A#F63B080006
(1790244538.049269) can0 18A#F63B080006
(1790244538.058916) can0 28A#0000000000000000
(1790244538.059597) can0 18A#F63B090006
(1790244538.068766) can0 38A#000005
(1790244538.069592) can0 18A#F63B080006
(1790244538.079005) can0 28A#0000000000000000
(1790244538.079437) can0 18A#F63B080006
(1790244538.088580) can0 18A#F63B080006
(1790244538.098649) can0 28A#0000000000000000
(1790244538.099270) can0 18A#F63B080006
(1790244538.108773) can0 18A#F63B090006
(1790244538.118354) can0 70A#05
(1790244538.118775) can0 38A#000005
(1790244538.119106) can0 28A#0000000000000000
(1790244538.128280) can0 18A#F63B080006
(1790244538.138727) can0 28A#0000000000000000
(1790244538.139353) can0 18A#F63B090006
(1790244538.148281) can0 18A#F63B090006
(1790244538.158171) can0 28A#0000000000000000
(1790244538.158631) can0 18A#F63B080006
(1790244538.168377) can0 38A#000005
(1790244538.168807) can0 18A#F63B080006
(1790244538.178027) can0 28A#0000000000000000
(1790244538.178410) can0 18A#F63B080006
(1790244538.188052) can0 18A#F63B080006
(1790244538.198304) can0 28A#0000000000000000
(1790244538.198810) can0 18A#F63B080006
(1790244538.207771) can0 18A#F63B080006
(1790244538.217764) can0 38A#000005
(1790244538.218227) can0 28A#0000000000000000
(1790244538.218575) can0 18A#F63B080006
(1790244538.228007) can0 18A#F63B090006
(1790244538.237724) can0 28A#0000000000000000
(1790244538.238254) can0 18A#F53B090006
(1790244538.247821) can0 18A#F53B090006
(1790244538.257841) can0 28A#0000000000000000
(1790244538.258288) can0 18A#F53B0A0006
(1790244538.267436) can0 38A#000005
(1790244538.267966) can0 18A#F53B090006
(1790244538.277391) can0 28A#0000000000000000
(1790244538.277868) can0 18A#F53B090006
(1790244538.287683) can0 18A#F53B0A0006
(1790244538.297521) can0 28A#0000000000000000
(1790244538.298255) can0 18A#F53B0A0006
(1790244538.307214) can0 18A#F53B0A0006
(1790244538.317555) can0 38A#000005
(1790244538.318180) can0 28A#0000000000000000
(1790244538.318730) can0 18A#F53B090006
(1790244538.327072) can0 18A#F53B090006
(1790244538.337158) can0 28A#0000000000000000
(1790244538.337679) can0 18A#F53B090006
(1790244538.347260) can0 18A#F53B090006
(1790244538.356945) can0 28A#0000000000000000
(1790244538.357419) can0 18A#F53B090006
(1790244538.366869) can0 38A#000005
(1790244538.367364) can0 18A#F53B090006
(1790244538.377163) can0 28A#0000000000000000
(1790244538.377622) can0 18A#F53B090006
(1790244538.386682) can0 18A#F53B090006
(1790244538.397157) can0 28A#0000000000000000
(1790244538.397935) can0 18A#F53B090006
(1790244538.406823) can0 18A#F53B090006
(1790244538.416494) can0 38A#000005
(1790244538.417038) can0 28A#0000000000000000
(1790244538.417495) can0 18A#F53B090006
(1790244538.426416) can0 18A#F53B090006
(1790244538.436902) can0 28A#0000000000000000
(1790244538.437437) can0 18A#F53B090006
(1790244538.446893) can0 18A#F53B090006
(1790244538.456327) can0 28A#0000000000000000
(1790244538.456750) can0 18A#F53B090006
(1790244538.466547) can0 38A#000005
(1790244538.467072) can0 18A#F53B090006
(1790244538.476227) can0 28A#0000000000000000
(1790244538.476616) can0 18A#F53B090006
(1790244538.486243) can0 18A#F53B090006
(1790244538.496526) can0 28A#0000000000000000
(1790244538.497254) can0 18A#F53B090006
(1790244538.505919) can0 18A#F53B090006
(1790244538.515864) can0 38A#000005
(1790244538.516333) can0 28A#0000000000000000
(1790244538.516715) can0 18A#F53B090006
(1790244538.526145) can0 18A#F53B090006
(1790244538.535744) can0 28A#0000000000000000
(1790244538.536267) can0 18A#F53B090006
(1790244538.546026) can0 18A#F53B090006
(1790244538.556110) can0 28A#0000000000000000
(1790244538.556848) can0 18A#F53B090006
(1790244538.565655) can0 38A#000005
(1790244538.566239) can0 18A#F53B090006
(1790244538.575475) can0 28A#0000000000000000
(1790244538.575804) can0 18A#F53B090006
(1790244538.585819) can0 18A#F53B090006
(1790244538.595768) can0 28A#0000000000000000
(1790244538.596756) can0 18A#F53B090006
(1790244538.605261) can0 18A#F53B090006
(1790244538.615641) can0 38A#000005
(1790244538.616285) can0 28A#0000000000000000
(1790244538.616783) can0 18A#F53B090006
(1790244538.625176) can0 18A#F53B090006
(1790244538.635270) can0 28A#0000000000000000
(1790244538.636033) can0 18A#F53B090006
(1790244538.645551) can0 18A#F53B090006
(1790244538.655143) can0 28A#0000000000000000
(1790244538.655797) can0 18A#F53B090006
(1790244538.664879) can0 38A#000005
(1790244538.665419) can0 18A#F53B090006
(1790244538.675371) can0 28A#0000000000000000
(1790244538.675889) can0 18A#F53B090006
(1790244538.684881) can0 18A#F53B090006
(1790244538.694911) can0 28A#0000000000000000
(1790244538.695566) can0 18A#F53B080006
(1790244538.704970) can0 18A#F53B080006
(1790244538.714594) can0 38A#000005
(1790244538.714997) can0 28A#0000000000000000
(1790244538.715348) can0 18A#F53B080006
(1790244538.724522) can0 18A#F53B080006
(1790244538.734950) can0 28A#0000000000000000
(1790244538.735407) can0 18A#F5F2082A06
(1790244538.744537) can0 18A#F6ED073404
(1790244538.754485) can0 28A#0000000000000000
(1790244538.755249) can0 18A#F6E5063E04
(1790244538.764877) can0 38A#000005
(1790244538.765468) can0 18A#F5DF064204
(1790244538.774292) can0 28A#0000000000000000
(1790244538.774684) can0 18A#F6DE064304
(1790244538.784123) can0 18A#F6DC064404
(1790244538.794555) can0 28A#0000000000000000
(1790244538.795220) can0 18A#F6DB054504
(1790244538.804015) can0 18A#F5DB064504
(1790244538.814058) can0 38A#000005
(1790244538.814538) can0 28A#0000000000000000
(1790244538.814829) can0 18A#F6DB054504
(1790244538.824248) can0 18A#F6DB054504
(1790244538.834008) can0 28A#0000000000000000
(1790244538.834510) can0 18A#F6DB054504
(1790244538.843928) can0 18A#F5DB064504
(1790244538.854206) can0 28A#0000000000000000
(1790244538.854802) can0 18A#F6DB064504
(1790244538.863779) can0 38A#000005
(1790244538.864419) can0 18A#F6DB054504
(1790244538.873765) can0 28A#0000000000000000
(1790244538.874347) can0 18A#F6DB054504
(1790244538.884051) can0 18A#F6DB054504
(1790244538.893984) can0 28A#0000000000000000
(1790244538.894897) can0 18A#F6DB054504
(1790244538.903380) can0 18A#F5DB064504
(1790244538.913960) can0 38A#000005
(1790244538.914735) can0 28A#0000000000000000
(1790244538.915317) can0 18A#F6DB054504
(1790244538.923480) can0 18A#F5DB064504
(1790244538.933511) can0 28A#0000000000000000
(1790244538.934115) can0 18A#F6DB054504
(1790244538.943732) can0 18A#F6DB054504
(1790244538.953198) can0 28A#0000000000000000
(1790244538.953687) can0 18A#F6DB054504
(1790244538.963380) can0 38A#000005
(1790244538.964039) can0 18A#F6DB054504
(1790244538.973502) can0 28A#0000000000000000
(1790244538.974070) can0 18A#F5DB064504
(1790244538.983175) can0 18A#F5DB064504
(1790244538.993137) can0 28A#0000000000000000
(1790244538.993678) can0 18A#F6DB054504
(1790244539.003258) can0 18A#F6DB054504
(1790244539.012836) can0 38A#000005
(1790244539.013474) can0 28A#0000000000000000
(1790244539.013826) can0 18A#F6DB044504
(1790244539.022771) can0 18A#F6DB054504
(1790244539.033211) can0 28A#0000000000000000
(1790244539.033973) can0 18A#F6DB044504
(1790244539.042696) can0 18A#F5DB044504
(1790244539.052530) can0 28A#0000000000000000
(1790244539.052987) can0 18A#F6DB034504
(1790244539.062717) can0 38A#000005
(1790244539.063196) can0 18A#F5DB044504
(1790244539.072394) can0 28A#0000000000000000
(1790244539.072832) can0 18A#F5DB044504
(1790244539.082330) can0 18A#F5DB044504
(1790244539.092805) can0 28A#0000000000000000
(1790244539.093405) can0 18A#F5DB044504
(1790244539.102294) can0 18A#F5DB044504
(1790244539.112144) can0 70A#05
(1790244539.112643) can0 38A#000005
(1790244539.113109) can0 28A#0000000000000000
(1790244539.122311) can0 18A#F5DB044504
(1790244539.132318) can0 28A#0000000000000000
(1790244539.133295) can0 18A#F5DB044504
(1790244539.142253) can0 18A#F5DB044504
(1790244539.152527) can0 28A#0000000000000000
(1790244539.153223) can0 18A#F5DB044504
(1790244539.161960) can0 38A#000005
(1790244539.162664) can0 18A#F5DB044504
(1790244539.171876) can0 28A#0000000000000000
(1790244539.172447) can0 18A#F6DB044504
(1790244539.182103) can0 18A#F5DB044504
(1790244539.191872) can0 28A#0000000000000000
(1790244539.192664) can0 18A#F5DB044504
(1790244539.201455) can0 18A#F5DB044504
(1790244539.211711) can0 38A#000005
(1790244539.212185) can0 28A#0000000000000000
(1790244539.212518) can0 18A#F6DB044504
(1790244539.221326) can0 18A#F5DB044504
(1790244539.231445) can0 28A#0000000000000000
(1790244539.231984) can0 18A#F6DB044504
(1790244539.241566) can0 18A#F5DB044504
(1790244539.251233) can0 28A#0000000000000000
(1790244539.251620) can0 18A#F5DB044504
(1790244539.261135) can0 38A#000005
(1790244539.261659) can0 18A#F5DB044504
(1790244539.271415) can0 28A#0000000000000000
(1790244539.271798) can0 18A#F5DA034504
(1790244539.280996) can0 18A#F5DA034504
(1790244539.291013) can0 28A#0000000000000000
(1790244539.291555) can0 18A#F5DA034504
(1790244539.301165) can0 18A#F5DA024504
(1790244539.310826) can0 38A#000005
(1790244539.311349) can0 28A#0000000000000000
(1790244539.311735) can0 18A#F5DA024504
(1790244539.320624) can0 18A#F5DA024504
(1790244539.330992) can0 28A#0000000000000000
(1790244539.331409) can0 18A#F5DA024504
(1790244539.340559) can0 18A#F5DA024504
(1790244539.350509) can0 28A#0000000000000000
(1790244539.350900) can0 18A#F5DA024504
(1790244539.360768) can0 38A#000005
(1790244539.361253) can0 18A#F5DA024504
(1790244539.370331) can0 28A#0000000000000000
(1790244539.370656) can0 18A#F5DA024504
(1790244539.380347) can0 18A#F5DA024504
(1790244539.390670) can0 28A#0000000000000000
(1790244539.391180) can0 18A#F5DA024504
(1790244539.400117) can0 18A#F5DA024504
(1790244539.410143) can0 38A#000005
(1790244539.410668) can0 28A#0000000000000000
(1790244539.411051) can0 18A#F5DA024504
(1790244539.420286) can0 18A#F5DA024504
(1790244539.430114) can0 28A#0000000000000000
(1790244539.430639) can0 18A#F5DB024504
(1790244539.439970) can0 18A#F5DA024504
(1790244539.450261) can0 28A#0000000000000000
(1790244539.450858) can0 18A#F5DA024504
(1790244539.459889) can0 38A#000005
(1790244539.460416) can0 18A#F5DA024504
(1790244539.469852) can0 28A#0000000000000000
(1790244539.470518) can0 18A#F5DA024504
(1790244539.480026) can0 18A#F5DA024504
(1790244539.489762) can0 28A#0000000000000000
(1790244539.490321) can0 18A#F5DA024504
(1790244539.499492) can0 18A#F5DA014504
(1790244539.509797) can0 38A#000005
(1790244539.510265) can0 28A#0000000000000000
(1790244539.510585) can0 18A#F5DA014504
(1790244539.519312) can0 18A#F5DA004504
(1790244539.529403) can0 28A#0000000000000000
(1790244539.529830) can0 18A#F5DA004504
(1790244539.539667) can0 18A#F5DA004504
(1790244539.549238) can0 28A#0000000000000000
(1790244539.549682) can0 18A#F5DA004504
(1790244539.559142) can0 38A#000005
(1790244539.559646) can0 18A#F5DAFF4504
(1790244539.569379) can0 28A#0000000000000000
(1790244539.569763) can0 18A#F5DAFE4504
(1790244539.578969) can0 18A#F5DAFE4504
(1790244539.589133) can0 28A#0000000000000000
(1790244539.589722) can0 18A#F5DAFE4504
(1790244539.599201) can0 18A#F5DAFE4504
(1790244539.608835) can0 38A#000005
(1790244539.609390) can0 28A#0000000000000000
(1790244539.609709) can0 18A#F5DAFE4504
(1790244539.618831) can0 18A#F5DAFE4504
(1790244539.629145) can0 28A#0000000000000000
(1790244539.629656) can0 18A#F5DAFE4504
(1790244539.640263) can0 18A#F5DAFE4504
(1790244539.648587) can0 28A#0000000000000000
(1790244539.648980) can0 18A#F5DAFE4504
(1790244539.658834) can0 38A#000005
(1790244539.659312) can0 18A#F5DAFE4504
(1790244539.668432) can0 28A#0000000000000000
(1790244539.668765) can0 18A#F5DAFE4504
(1790244539.678410) can0 18A#F5DAFE4504
(1790244539.688828) can0 28A#0000000000000000
(1790244539.689384) can0 18A#F5DAFE4504
(1790244539.698162) can0 18A#F5DAFE4504
(1790244539.708153) can0 38A#000005
(1790244539.708647) can0 28A#0000000000000000
(1790244539.709048) can0 18A#F5DAFE4504
(1790244539.718340) can0 18A#F5DAFE4504
(1790244539.728050) can0 28A#0000000000000000
(1790244539.728473) can0 18A#F5DAFE4504
(1790244539.737973) can0 18A#F5DAFE4504
(1790244539.748214) can0 28A#0000000000000000
(1790244539.748628) can0 18A#F5DAFE4504
(1790244539.757842) can0 38A#000005
(1790244539.758306) can0 18A#F5DAFE4504
(1790244539.767734) can0 28A#0000000000000000
(1790244539.768152) can0 18A#F5DAFF4504
(1790244539.778029) can0 18A#F5DAFE4504
(1790244539.787743) can0 28A#0000000000000000
(1790244539.788298) can0 18A#F5DAFE4504
(1790244539.797618) can0 18A#F5DAFE4504
(1790244539.807859) can0 38A#000005
(1790244539.808349) can0 28A#0000000000000000
(1790244539.808669) can0 18A#F5DAFD4504
(1790244539.817303) can0 18A#F5DAFD4504
(1790244539.827463) can0 28A#0000000000000000
(1790244539.828025) can0 18A#F5DAFD4504
(1790244539.837617) can0 18A#F5DAFD4504
(1790244539.847200) can0 28A#0000000000000000
(1790244539.847622) can0 18A#F5DAFD4504
(1790244539.857139) can0 38A#000005
(1790244539.857569) can0 18A#F5DAFD4504
(1790244539.867422) can0 28A#0000000000000000
(1790244539.867866) can0 18A#F5DAFD4504
(1790244539.877033) can0 18A#F5DAFD4504
(1790244539.887089) can0 28A#0000000000000000
(1790244539.887984) can0 18A#F5DAFD4504
(1790244539.897221) can0 18A#F5DAFD4504
(1790244539.906955) can0 38A#000005
(1790244539.907630) can0 28A#0000000000000000
(1790244539.908147) can0 18A#F5DAFD4504
(1790244539.916667) can0 18A#F5DAFD4504
(1790244539.927155) can0 28A#0000000000000000
(1790244539.927635) can0 18A#F5DAFD4504
(1790244539.936605) can0 18A#F5DAFD4504
(1790244539.946571) can0 28A#0000000000000000
(1790244539.947000) can0 18A#F5DAFD4504
(1790244539.956849) can0 38A#000005
(1790244539.957362) can0 18A#F5DAFD4504
(1790244539.966491) can0 28A#0000000000000000
(1790244539.966943) can0 18A#F5DAFD4504
(1790244539.976305) can0 18A#F5DAFD4504
(1790244539.986777) can0 28A#0000000000000000
(1790244539.987268) can0 18A#F5DAFD4504
(1790244539.996151) can0 18A#F5DAFD4504
(1790244540.006169) can0 38A#000005
(1790244540.006708) can0 28A#0000000000000000
(1790244540.007162) can0 18A#F5DAFD4504
(1790244540.016597) can0 18A#F5DAFD4504
(1790244540.026710) can0 28A#0000000000000000
(1790244540.027430) can0 18A#F5DAFD4504
(1790244540.036001) can0 18A#F5DAFD4504
(1790244540.046279) can0 28A#0000000000000000
(1790244540.046813) can0 18A#F5DAFD4504
(1790244540.055860) can0 38A#000005
(1790244540.056505) can0 18A#F5DAFE4504
(1790244540.065848) can0 28A#0000000000000000
(1790244540.066587) can0 18A#F5DAFE4504
(1790244540.076120) can0 18A#F5DAFE4504
(1790244540.086002) can0 28A#0000000000000000
(1790244540.086807) can0 18A#F5DAFD4504
(1790244540.095500) can0 18A#F5DAFE4504
(1790244540.105814) can0 70A#05
(1790244540.106392) can0 38A#000005
(1790244540.106785) can0 28A#0000000000000000
(1790244540.115280) can0 18A#F5DAFD4504
(1790244540.125355) can0 28A#0000000000000000
(1790244540.125854) can0 18A#F5DAFD4504
(1790244540.135589) can0 18A#F5DAFD4504
(1790244540.145243) can0 28A#0000000000000000
(1790244540.145741) can0 18A#F5DAFD4504
(1790244540.155109) can0 38A#000005
(1790244540.155608) can0 18A#F5DAFE4504
(1790244540.165384) can0 28A#0000000000000000
(1790244540.165829) can0 18A#F5DAFE4504
(1790244540.175103) can0 18A#F5DAFD4504
(1790244540.185142) can0 28A#0000000000000000
(1790244540.186034) can0 18A#F5DAFE4504
(1790244540.195397) can0 18A#F5DAFD4504
(1790244540.204826) can0 38A#000005
(1790244540.205434) can0 28A#0000000000000000
(1790244540.205812) can0 18A#F5DAFE4504
(1790244540.214605) can0 18A#F5DAFE4504
(1790244540.225148) can0 28A#0000000000000000
(1790244540.225747) can0 18A#F5DAFD4504
(1790244540.234687) can0 18A#F5DAFE4504
(1790244540.244702) can0 28A#0000000000000000
(1790244540.245534) can0 18A#F5DAFD4504
(1790244540.254836) can0 38A#000005
(1790244540.255348) can0 18A#F5DAFE4504
(1790244540.264402) can0 28A#0000000000000000
(1790244540.264846) can0 18A#F5DAFE4504
(1790244540.274288) can0 18A#F5DAFE4504
(1790244540.284703) can0 28A#0000000000000000
(1790244540.285281) can0 18A#F5DAFD4504
(1790244540.294150) can0 18A#F5DAFD4504
(1790244540.304190) can0 38A#000005
(1790244540.304853) can0 28A#0000000000000000
(1790244540.305338) can0 18A#F5DAFD4504
(1790244540.314294) can0 18A#F5DAFD4504
(1790244540.323966) can0 28A#0000000000000000
(1790244540.324347) can0 18A#F5DAFE4504
(1790244540.333895) can0 18A#F5DAFE4504
(1790244540.344249) can0 28A#0000000000000000
(1790244540.344705) can0 18A#F5DAFE4504
(1790244540.353713) can0 38A#000005
(1790244540.354205) can0 18A#F5DAFE4504
(1790244540.363666) can0 28A#0000000000000000
(1790244540.364089) can0 18A#F5DAFE4504
(1790244540.374017) can0 18A#F5DAFE4504
(1790244540.383669) can0 28A#0000000000000000
(1790244540.384306) can0 18A#F5DAFE4504
(1790244540.393374) can0 18A#F5DAFE4504
(1790244540.403749) can0 38A#000005
(1790244540.404253) can0 28A#0000000000000000
(1790244540.404747) can0 18A#F5DAFD4504
(1790244540.413283) can0 18A#F5DAFE4504
(1790244540.423307) can0 28A#0000000000000000
(1790244540.423774) can0 18A#F5DAFE4504
(1790244540.433620) can0 18A#F5DAFE4504
(1790244540.443127) can0 28A#0000000000000000
(1790244540.443537) can0 18A#F5DAFE4504
(1790244540.453080) can0 38A#000005
(1790244540.453592) can0 18A#F5DAFD4504
(1790244540.463296) can0 28A#0000000000000000
(1790244540.463667) can0 18A#F5DAFE4504
(1790244540.472902) can0 18A#F5DAFE4504
(1790244540.483038) can0 28A#0000000000000000
(1790244540.483773) can0 18A#F5DAFE4504
(1790244540.493047) can0 18A#F5DAFE4504
(1790244540.502715) can0 38A#000005
(1790244540.503286) can0 28A#0000000000000000
(1790244540.503746) can0 18A#F5DAFE4504
(1790244540.512602) can0 18A#F5DAFE4504
