(1790244540.601950) can0 38A#000005
(1790244540.602471) can0 28A#0000000000000000
(1790244540.602791) can0 18A#F5DAFD4504
(1790244540.612181) can0 18A#F5DAFE4504
(1790244540.621987) can0 28A#0000000000000000
(1790244540.622429) can0 18A#F5DAFE4504
(1790244540.631836) can0 18A#F5DAFE4504
(1790244540.642094) can0 28A#0000000000000000
(1790244540.642530) can0 18A#F5DAFE4504
(1790244540.651645) can0 38A#000005
(1790244540.652124) can0 18A#F5DAFE4504
(1790244540.661620) can0 28A#0000000000000000
(1790244540.662036) can0 18A#F5DAFE4504
(1790244540.671783) can0 18A#F5DAFE4504
(1790244540.681515) can0 28A#0000000000000000
(1790244540.681935) can0 18A#F5DAFE4504
(1790244540.691298) can0 18A#F5DAFE4504
(1790244540.701600) can0 38A#000005
(1790244540.702099) can0 28A#0000000000000000
(1790244540.702442) can0 18A#F5DAFE4504
(1790244540.711160) can0 18A#F5DAFE4504
(1790244540.721189) can0 28A#0000000000000000
(1790244540.721600) can0 18A#F5DAFE4504
(1790244540.731496) can0 18A#F5DAFE4504
(1790244540.741019) can0 28A#0000000000000000
(1790244540.741459) can0 18A#F5DAFE4504
(1790244540.750900) can0 38A#000005
(1790244540.751318) can0 18A#F5DAFE4504
(1790244540.761245) can0 28A#0000000000000000
(1790244540.761701) can0 18A#F5DAFE4504
(1790244540.770871) can0 18A#F5DAFE4504
(1790244540.780894) can0 28A#0000000000000000
(1790244540.781505) can0 18A#F5DAFE4504
(1790244540.790943) can0 18A#F5DAFE4504
(1790244540.800600) can0 38A#000005
(1790244540.801085) can0 28A#0000000000000000
(1790244540.801442) can0 18A#F5DAFE4504
(1790244540.810470) can0 18A#F5DAFE4504
(1790244540.820791) can0 28A#0000000000000000
(1790244540.821173) can0 18A#F5DAFE4504
(1790244540.830486) can0 18A#F5DAFE4504
(1790244540.840349) can0 28A#0000000000000000
(1790244540.840857) can0 18A#F5DAFE4504
(1790244540.850776) can0 38A#000005
(1790244540.851507) can0 18A#F5DAFE4504
(1790244540.860284) can0 28A#0000000000000000
(1790244540.860902) can0 18A#F5DAFE4504
(1790244540.870277) can0 18A#F5DAFD4504
(1790244540.880648) can0 28A#0000000000000000
(1790244540.881407) can0 18A#F5DAFE4504
(1790244540.889990) can0 18A#F5DAFE4504
(1790244540.900160) can0 38A#000005
(1790244540.901396) can0 28A#0000000000000000
(1790244540.901946) can0 18A#F5DAFE4504
(1790244540.910282) can0 18A#F5DBFF4504
(1790244540.920105) can0 28A#0000000000000000
(1790244540.920874) can0 18A#F5DBFF4504
(1790244540.929895) can0 18A#F5DBFF4504
(1790244540.940074) can0 28A#0000000000000000
(1790244540.940457) can0 18A#F5DBFF4504
(1790244540.949462) can0 38A#000005
(1790244540.949844) can0 18A#F5DAFF4504
(1790244540.959545) can0 28A#0000000000000000
(1790244540.960046) can0 18A#F5DBFF4504
(1790244540.969825) can0 18A#F5DAFF4504
(1790244540.979821) can0 28A#0000000000000000
(1790244540.980624) can0 18A#F5DBFF4504
(1790244540.989370) can0 18A#F5DBFF4504
(1790244540.999625) can0 38A#000005
(1790244541.000185) can0 28A#0000000000000000
(1790244541.000650) can0 18A#F5DAFF4504
(1790244541.009394) can0 18A#F5DBFF4504
(1790244541.019353) can0 28A#0000000000000000
(1790244541.020431) can0 18A#F5DBFF4504
(1790244541.029353) can0 18A#F5DAFF4504
(1790244541.038954) can0 28A#0000000000000000
(1790244541.039318) can0 18A#F5DBFF4504
(1790244541.048882) can0 38A#000005
(1790244541.049445) can0 18A#F5DBFF4504
(1790244541.059136) can0 28A#0000000000000000
(1790244541.059598) can0 18A#F5DBFF4504
(1790244541.068776) can0 18A#F5DBFF4504
(1790244541.078719) can0 28A#0000000000000000
(1790244541.079196) can0 18A#F5DBFF4504
(1790244541.088903) can0 18A#F5DBFF4504
(1790244541.098483) can0 70A#05
(1790244541.098940) can0 38A#000005
(1790244541.099262) can0 28A#0000000000000000
(1790244541.108341) can0 18A#F5DBFF4504
(1790244541.118767) can0 28A#0000000000000000
(1790244541.119232) can0 18A#F5DB004504
(1790244541.128489) can0 18A#F5DB004504
(1790244541.138345) can0 28A#0000000000000000
(1790244541.139103) can0 18A#F5DB004504
(1790244541.149964) can0 38A#000005
(1790244541.151820) can0 18A#F5DB004504
(1790244541.159642) can0 28A#0000000000000000
(1790244541.160469) can0 18A#F6DB004504
(1790244541.169113) can0 18A#F6DB004504
(1790244541.178626) can0 28A#0000000000000000
(1790244541.179488) can0 18A#F6DB004504
(1790244541.187895) can0 18A#F6DB004504
(1790244541.197700) can0 38A#000005
(1790244541.198699) can0 28A#0000000000000000
(1790244541.199099) can0 18A#F6DC004504
(1790244541.208048) can0 18A#F6DB004504
(1790244541.217699) can0 28A#0000000000000000
(1790244541.218274) can0 18A#F6DB004504
(1790244541.227646) can0 18A#F6DB004504
(1790244541.237954) can0 28A#0000000000000000
(1790244541.238714) can0 18A#F6DB004504
(1790244541.247364) can0 38A#000005
(1790244541.248027) can0 18A#F6DB004504
(1790244541.257350) can0 28A#0000000000000000
(1790244541.257985) can0 18A#F6DC004504
(1790244541.267609) can0 18A#F6DB004504
(1790244541.277750) can0 28A#0000000000000000
(1790244541.278728) can0 18A#F6DC004504
(1790244541.287262) can0 18A#F6DC004504
(1790244541.297349) can0 38A#000005
(1790244541.297865) can0 28A#0000000000000000
(1790244541.298202) can0 18A#F6DB004504
(1790244541.306831) can0 18A#F6DB004504
(1790244541.316905) can0 28A#0000000000000000
(1790244541.317341) can0 18A#F6DB004504
(1790244541.327118) can0 18A#F6DB004504
(1790244541.336670) can0 28A#0000000000000000
(1790244541.337041) can0 18A#F6DB004504
(1790244541.346595) can0 38A#000005
(1790244541.347032) can0 18A#F6DB004504
(1790244541.356885) can0 28A#0000000000000000
(1790244541.357291) can0 18A#F6DB004504
(1790244541.366865) can0 18A#F6DB004504
(1790244541.376689) can0 28A#0000000000000000
(1790244541.377755) can0 18A#F6DC004504
(1790244541.386921) can0 18A#F6DC014504
(1790244541.396502) can0 38A#000005
(1790244541.397390) can0 28A#0000000000000000
(1790244541.397898) can0 18A#F6DC014504
(1790244541.406160) can0 18A#F6DC014506
(1790244541.416511) can0 28A#0000000000000000
(1790244541.417042) can0 18A#F6DC014506
(1790244541.426144) can0 18A#F6DC014506
(1790244541.435962) can0 28A#0000000000000000
(1790244541.436520) can0 18A#F6DC024506
(1790244541.446139) can0 38A#000005
(1790244541.446792) can0 18A#F6DC014506
(1790244541.455850) can0 28A#0000000000000000
(1790244541.456313) can0 18A#F6DC014506
(1790244541.465776) can0 18A#F6DC024506
(1790244541.476080) can0 28A#0000000000000000
(1790244541.476748) can0 18A#F6DC024506
(1790244541.485492) can0 18A#F6DC024506
(1790244541.495476) can0 38A#000005
(1790244541.496024) can0 28A#0000000000000000
(1790244541.496473) can0 18A#F6DC024506
(1790244541.505794) can0 18A#F6DC024506
(1790244541.515418) can0 28A#0000000000000000
(1790244541.515993) can0 18A#F6DC024506
(1790244541.525459) can0 18A#F6DC024506
(1790244541.535633) can0 28A#0000000000000000
(1790244541.536238) can0 18A#F6DC024506
(1790244541.545110) can0 38A#000005
(1790244541.545706) can0 18A#F6DC024506
(1790244541.555155) can0 28A#0000000000000000
(1790244541.555918) can0 18A#F6DC024506
(1790244541.565525) can0 18A#F6DC024506
(1790244541.575423) can0 28A#0000000000000000
(1790244541.576489) can0 18A#F6DC024506
(1790244541.584816) can0 18A#F6DC024506
(1790244541.594990) can0 38A#000005
(1790244541.595442) can0 28A#0000000000000000
(1790244541.595781) can0 18A#F6DC024506
(1790244541.604560) can0 18A#F6DC024506
(1790244541.614656) can0 28A#0000000000000000
(1790244541.615106) can0 18A#F6DC024506
(1790244541.624886) can0 18A#F6DC024506
(1790244541.634480) can0 28A#0000000000000000
(1790244541.635047) can0 18A#F6DC014506
(1790244541.644356) can0 38A#000005
(1790244541.644934) can0 18A#F6DC014506
(1790244541.654706) can0 28A#0000000000000000
(1790244541.655204) can0 18A#F6DC014506
(1790244541.664193) can0 18A#F6DC014506
(1790244541.674305) can0 28A#0000000000000000
(1790244541.674840) can0 18A#F6DC024506
(1790244541.684338) can0 18A#F6DC024506
(1790244541.693977) can0 38A#000005
(1790244541.694448) can0 28A#0000000000000000
(1790244541.694763) can0 18A#F6DC024506
(1790244541.703788) can0 18A#F6DC024506
(1790244541.714223) can0 28A#0000000000000000
(1790244541.714686) can0 18A#F6DC024506
(1790244541.723774) can0 18A#F6DC024506
(1790244541.733684) can0 28A#0000000000000000
(1790244541.734148) can0 18A#F6DC024506
(1790244541.743875) can0 38A#000005
(1790244541.744309) can0 18A#F6DC024506
(1790244541.753564) can0 28A#0000000000000000
(1790244541.753988) can0 18A#F6DC024506
(1790244541.763489) can0 18A#F6DC024506
(1790244541.774077) can0 28A#0000000000000000
(1790244541.774793) can0 18A#F6DC024506
(1790244541.783261) can0 18A#F6DC024506
(1790244541.793239) can0 38A#000005
(1790244541.793791) can0 28A#0000000000000000
(1790244541.794217) can0 18A#F6DC024506
(1790244541.803454) can0 18A#F6DC024506
(1790244541.813163) can0 28A#0000000000000000
(1790244541.813652) can0 18A#F6DC024506
(1790244541.823422) can0 18A#F6DC024506
(1790244541.833404) can0 28A#0000000000000000
(1790244541.834008) can0 18A#F6DC024506
(1790244541.842750) can0 38A#000005
(1790244541.843158) can0 18A#F6DC024506
(1790244541.852766) can0 28A#0000000000000000
(1790244541.853116) can0 18A#F6DC024506
(1790244541.863056) can0 18A#F6DC024506
(1790244541.872845) can0 28A#0000000000000000
(1790244541.873531) can0 18A#F6DC024506
(1790244541.882551) can0 18A#F6DC024506
(1790244541.892905) can0 38A#000005
(1790244541.893753) can0 28A#0000000000000000
(1790244541.894295) can0 18A#F6DC024506
(1790244541.902390) can0 18A#F6DC024506
(1790244541.912398) can0 28A#0000000000000000
(1790244541.912951) can0 18A#F6DC024506
(1790244541.923375) can0 18A#F6DC034506
(1790244541.932503) can0 28A#0000000000000000
(1790244541.937709) can0 18A#F6DC034506
(1790244541.942051) can0 38A#000005
(1790244541.942506) can0 18A#F7DC024506
(1790244541.952306) can0 28A#0000000000000000
(1790244541.952609) can0 18A#F7DD024406
(1790244541.961887) can0 18A#F7DD024406
(1790244541.972021) can0 28A#0000000000000000
(1790244541.972561) can0 18A#F7DD024406
(1790244541.982096) can0 18A#F7DD024406
(1790244541.991760) can0 38A#000005
(1790244541.992307) can0 28A#0000000000000000
(1790244541.992863) can0 18A#F7DD024406
(1790244542.001603) can0 18A#F7DD024406
(1790244542.012001) can0 28A#0000000000000000
(1790244542.012584) can0 18A#F7DD024406
(1790244542.021694) can0 18A#F7DD024406
(1790244542.031457) can0 28A#0000000000000000
(1790244542.032133) can0 18A#F7DD024406
(1790244542.041900) can0 38A#000005
(1790244542.042779) can0 18A#F7DD024406
(1790244542.051315) can0 28A#0000000000000000
(1790244542.051840) can0 18A#F7DD024406
(1790244542.061273) can0 18A#F7DD024406
(1790244542.071603) can0 28A#0000000000000000
(1790244542.072242) can0 18A#F7DD024406
(1790244542.081123) can0 18A#F7DD024406
(1790244542.090963) can0 70A#05
(1790244542.091691) can0 38A#000005
(1790244542.092365) can0 28A#0000000000000000
(1790244542.101174) can0 18A#F7DD024406
(1790244542.110940) can0 28A#0000000000000000
(1790244542.111578) can0 18A#F7DD024406
(1790244542.120901) can0 18A#F7DD024406
(1790244542.131082) can0 28A#0000000000000000
(1790244542.131546) can0 18A#F7DD024406
(1790244542.140564) can0 38A#000005
(1790244542.141046) can0 18A#F7DD024406
(1790244542.150446) can0 28A#0000000000000000
(1790244542.150812) can0 18A#F7DD024406
(1790244542.160771) can0 18A#F7DD024406
(1790244542.171002) can0 28A#0000000000000000
(1790244542.171930) can0 18A#F7DD024406
(1790244542.180241) can0 18A#F7DD024406
(1790244542.190802) can0 38A#000005
(1790244542.192008) can0 28A#0000000000000000
(1790244542.193788) can0 18A#F7DD024406
(1790244542.200089) can0 18A#F7DD024406
(1790244542.210076) can0 28A#0000000000000000
(1790244542.210538) can0 18A#F7DD024406
(1790244542.220417) can0 18A#F7DD034406
(1790244542.230050) can0 28A#0000000000000000
(1790244542.230749) can0 18A#F7DD034406
(1790244542.239825) can0 38A#000005
(1790244542.240346) can0 18A#F7DD034406
(1790244542.250088) can0 28A#0000000000000000
(1790244542.250538) can0 18A#F7DD034406
(1790244542.259584) can0 18A#F7DD034406
(1790244542.269632) can0 28A#0000000000000000
(1790244542.270148) can0 18A#F7DD034406
(1790244542.280045) can0 18A#F7DD034406
(1790244542.289368) can0 38A#000005
(1790244542.289842) can0 28A#0000000000000000
(1790244542.290136) can0 18A#F7DD034406
(1790244542.299287) can0 18A#F7DD034406
(1790244542.309741) can0 28A#0000000000000000
(1790244542.310611) can0 18A#F7DD034406
(1790244542.319963) can0 18A#F7DD034406
(1790244542.329187) can0 28A#0000000000000000
(1790244542.329830) can0 18A#F7DD034406
(1790244542.339388) can0 38A#000005
(1790244542.339910) can0 18A#F7DD034406
(1790244542.348934) can0 28A#0000000000000000
(1790244542.349329) can0 18A#F7DD034406
(1790244542.358855) can0 18A#F7DD034406
(1790244542.369221) can0 28A#0000000000000000
(1790244542.369637) can0 18A#F7DD034406
(1790244542.378639) can0 18A#F7DD034406
(1790244542.388695) can0 38A#000005
(1790244542.389147) can0 28A#0000000000000000
(1790244542.389512) can0 18A#F7DD034406
(1790244542.398805) can0 18A#F7DD034406
(1790244542.408499) can0 28A#0000000000000000
(1790244542.408923) can0 18A#F7DD034406
(1790244542.418418) can0 18A#F7DD034406
(1790244542.428751) can0 28A#0000000000000000
(1790244542.429278) can0 18A#F7DD034406
(1790244542.438318) can0 38A#000005
(1790244542.438884) can0 18A#F7DD034406
(1790244542.448156) can0 28A#0000000000000000
(1790244542.448475) can0 18A#F7DD024406
(1790244542.458452) can0 18A#F7DD024406
(1790244542.468191) can0 28A#0000000000000000
(1790244542.468703) can0 18A#F7DE024406
(1790244542.477884) can0 18A#F7DE024406
(1790244542.488210) can0 38A#000005
(1790244542.488758) can0 28A#0000000000000000
(1790244542.489137) can0 18A#F7DE024406
(1790244542.497925) can0 18A#F7DE024406
(1790244542.507742) can0 28A#0000000000000000
(1790244542.508198) can0 18A#F7DE024406
(1790244542.517951) can0 18A#F7DE024406
(1790244542.527555) can0 28A#0000000000000000
(1790244542.528063) can0 18A#F7DE024406
(1790244542.537431) can0 38A#000005
(1790244542.537892) can0 18A#F7DE024406
(1790244542.549761) can0 28A#0000000000000000
(1790244542.551240) can0 18A#F7DE024406
(1790244542.557266) can0 18A#F7DE024406
(1790244542.567449) can0 28A#0000000000000000
(1790244542.568109) can0 18A#F7DE024406
(1790244542.577430) can0 18A#F7DE024406
(1790244542.587036) can0 38A#000005
(1790244542.587489) can0 28A#0000000000000000
(1790244542.587925) can0 18A#F7DE024406
(1790244542.596910) can0 18A#F7DE024406
(1790244542.607304) can0 28A#0000000000000000
(1790244542.607845) can0 18A#F7DE024406
(1790244542.617189) can0 18A#F7DE024406
(1790244542.626871) can0 28A#0000000000000000
(1790244542.627448) can0 18A#F7DE024406
(1790244542.637117) can0 38A#000005
(1790244542.637714) can0 18A#F7DE024406
(1790244542.646676) can0 28A#0000000000000000
(1790244542.647313) can0 18A#F7DE024406
(1790244542.656450) can0 18A#F7DE024406
(1790244542.667041) can0 28A#0000000000000000
(1790244542.667660) can0 18A#F7DE024406
(1790244542.676380) can0 18A#F7DE024406
(1790244542.686634) can0 38A#000005
(1790244542.687274) can0 28A#0000000000000000
(1790244542.687723) can0 18A#F7DE024406
(1790244542.696562) can0 18A#F7DE024406
(1790244542.706196) can0 28A#0000000000000000
(1790244542.706639) can0 18A#F7DE024406
(1790244542.716188) can0 18A#F7DE034406
(1790244542.726415) can0 28A#0000000000000000
(1790244542.726898) can0 18A#F7DE034406
(1790244542.735904) can0 38A#000005
(1790244542.736342) can0 18A#F7DE034406
(1790244542.745847) can0 28A#0000000000000000
(1790244542.746539) can0 18A#F8DE024406
(1790244542.756039) can0 18A#F8DE024406
(1790244542.766008) can0 28A#C3FDAFFF00000000
(1790244542.766503) can0 18A#F8DE02440E
(1790244542.775511) can0 18A#F8DE024406
(1790244542.785803) can0 38A#000005
(1790244542.786213) can0 28A#C3FDAEFF00000000
(1790244542.786557) can0 18A#F8DE02440E
(1790244542.795403) can0 18A#F8DE02440E
(1790244542.805442) can0 28A#BEFDAFFF00000000
(1790244542.805844) can0 18A#F8DE02440E
(1790244542.815664) can0 18A#F8DE024406
(1790244542.825267) can0 28A#0000000000000000
(1790244542.825774) can0 18A#F8DE024406
(1790244542.835167) can0 38A#000005
(1790244542.835733) can0 18A#F8DE024406
(1790244542.845475) can0 28A#0000000000000000
(1790244542.846035) can0 18A#F8DE024406
(1790244542.855018) can0 18A#F8DE024406
(1790244542.865587) can0 28A#0000000000000000
(1790244542.866403) can0 18A#F8DE024406
(1790244542.875173) can0 18A#F8DE024406
(1790244542.884771) can0 38A#000005
(1790244542.885257) can0 28A#0000000000000000
(1790244542.885560) can0 18A#F8DE024406
(1790244542.894606) can0 18A#F8DE024406
(1790244542.905077) can0 28A#0000000000000000
(1790244542.905506) can0 18A#F8DE024406
(1790244542.914558) can0 18A#F8DE024406
(1790244542.924453) can0 28A#C3FDAFFF00000000
(1790244542.924895) can0 18A#F8DE02440E
(1790244542.934733) can0 38A#000005
(1790244542.935211) can0 18A#F8DE02440E
(1790244542.944346) can0 28A#C3FDAFFF00000000
(1790244542.945108) can0 18A#F8DE02440E
(1790244542.954940) can0 18A#F8DE02440E
(1790244542.964606) can0 28A#C3FDB1FF00000000
(1790244542.965073) can0 18A#F8DE02440E
(1790244542.973959) can0 18A#F8DE02440E
(1790244542.984010) can0 38A#000005
(1790244542.984596) can0 28A#C3FDB4FF00000000
(1790244542.985095) can0 18A#F8DE02440E
(1790244542.994270) can0 18A#F8DE02440E
(1790244543.003949) can0 28A#C8FDB5FF00000000
(1790244543.004599) can0 18A#F8DE02440E
(1790244543.014304) can0 18A#F8DE02440E
(1790244543.024063) can0 28A#C8FDB6FF00000000
(1790244543.024812) can0 18A#F8DF02440E
(1790244543.033487) can0 38A#000005
(1790244543.033960) can0 18A#F8DE02440E
(1790244543.043489) can0 28A#C8FDB6FF00000000
(1790244543.043871) can0 18A#F8DF02440E
(1790244543.053853) can0 18A#F8DF02440E
(1790244543.063551) can0 28A#C8FDB6FF00000000
(1790244543.064170) can0 18A#F8DF02440E
(1790244543.073193) can0 18A#F8DE02440E
(1790244543.083546) can0 70A#05
(1790244543.084133) can0 38A#000005
(1790244543.084668) can0 28A#C8FDB7FF00000000
(1790244543.093143) can0 18A#F8DE02440E
(1790244543.103168) can0 28A#C8FDB6FF00000000
(1790244543.103796) can0 18A#F8DF02440E
(1790244543.113388) can0 18A#F8DF02440E
(1790244543.123041) can0 28A#C8FDB6FF00000000
(1790244543.123869) can0 18A#F8DF02440E
(1790244543.132983) can0 38A#000005
(1790244543.133887) can0 18A#F8DF02440E
(1790244543.143293) can0 28A#C8FDB6FF00000000
(1790244543.144156) can0 18A#F8DE02440E
(1790244543.152823) can0 18A#F8DF02440E
(1790244543.163820) can0 28A#C8FDB6FF00000000
(1790244543.164972) can0 18A#F8DE02440E
(1790244543.172848) can0 18A#F8DF02440E
(1790244543.182442) can0 38A#000005
(1790244543.183038) can0 28A#C8FDB6FF00000000
(1790244543.183463) can0 18A#F8DF02440E
(1790244543.192279) can0 18A#F8DE02440E
(1790244543.202671) can0 28A#C8FDB6FF00000000
(1790244543.203099) can0 18A#F8DF02440E
(1790244543.212197) can0 18A#F8DF02440E
(1790244543.222098) can0 28A#C8FDB6FF00000000
(1790244543.222572) can0 18A#F8DF02440E
(1790244543.232357) can0 38A#000005
(1790244543.232929) can0 18A#F8DF02440E
(1790244543.242081) can0 28A#C8FDB8FF00000000
(1790244543.242713) can0 18A#F8DF02440E
(1790244543.251918) can0 18A#F8DF01440E
(1790244543.262719) can0 28A#CDFDBBFF00000000
(1790244543.263550) can0 18A#F8DF01440E
(1790244543.271728) can0 18A#F8DF01440E
(1790244543.281642) can0 38A#000005
(1790244543.282229) can0 28A#CDFDBDFF00000000
(1790244543.282642) can0 18A#F8DF01440E
(1790244543.291831) can0 18A#F839011A0E
(1790244543.301536) can0 28A#CDFDC0FF00000000
(1790244543.302142) can0 18A#F83A01100E
(1790244543.311682) can0 18A#F83B01060E
(1790244543.321626) can0 28A#CDFDC0FF00000000
(1790244543.322116) can0 18A#F83B01020E
(1790244543.331137) can0 38A#000005
(1790244543.331688) can0 18A#F83B01010E
(1790244543.341097) can0 28A#CDFDC0FF00000000
(1790244543.341553) can0 18A#F83B01000E
(1790244543.351357) can0 18A#F83B01000E
(1790244543.361661) can0 28A#CDFDC0FF00000000
(1790244543.362474) can0 18A#F83B01000E
(1790244543.370835) can0 18A#F83B01000E
(1790244543.381102) can0 38A#000005
(1790244543.381557) can0 28A#CDFDC1FF00000000
(1790244543.381876) can0 18A#F83B01000E
(1790244543.390639) can0 18A#F83B01000E
(1790244543.401111) can0 28A#CDFDC0FF00000000
(1790244543.401552) can0 18A#F83B01000E
(1790244543.410867) can0 18A#F83B01000E
(1790244543.420449) can0 28A#CDFDC0FF00000000
(1790244543.420844) can0 18A#F83B01000E
(1790244543.430410) can0 38A#000005
(1790244543.430894) can0 18A#F83B01000E
(1790244543.440664) can0 28A#CDFDC0FF00000000
(1790244543.441074) can0 18A#F83B01000E
(1790244543.450260) can0 18A#F83B01000E
(1790244543.460312) can0 28A#CDFDC0FF00000000
(1790244543.460959) can0 18A#F83B01000E
(1790244543.470322) can0 18A#F83B01000E
(1790244543.479982) can0 38A#000005
(1790244543.480448) can0 28A#CDFDC1FF00000000
(1790244543.480763) can0 18A#F83B01000E
(1790244543.489890) can0 18A#F83B01000E
(1790244543.500310) can0 28A#CDFDC4FF00000000
(1790244543.500882) can0 18A#F83B01000E
(1790244543.510165) can0 18A#F83B01000E
(1790244543.519742) can0 28A#D3FDC7FF00000000
(1790244543.520329) can0 18A#F83B01000E
(1790244543.529916) can0 38A#000005
(1790244543.530361) can0 18A#F93B00000E
(1790244543.539496) can0 28A#D3FDC9FF00000000
(1790244543.539872) can0 18A#F93B00000E
(1790244543.549415) can0 18A#F93B00000E
(1790244543.559687) can0 28A#D3FDCDFF00000000
(1790244543.560107) can0 18A#F93B00000E
(1790244543.569307) can0 18A#F93B00000E
(1790244543.579081) can0 38A#000005
(1790244543.579510) can0 28A#D3FDCCFF00000000
(1790244543.579816) can0 18A#F93B00000E
(1790244543.589390) can0 18A#F93B00000E
(1790244543.599043) can0 28A#D3FDCDFF00000000
(1790244543.599778) can0 18A#F93B00000E
(1790244543.609245) can0 18A#F93B00000E
(1790244543.619286) can0 28A#D3FDCDFF00000000
(1790244543.619760) can0 18A#F93B00000E
(1790244543.628854) can0 38A#000005
(1790244543.629503) can0 18A#F93B00000E
(1790244543.638794) can0 28A#D3FDCDFF00000000
(1790244543.639373) can0 18A#F93B00000E
(1790244543.648996) can0 18A#F93B00000E
(1790244543.659266) can0 28A#D3FDCDFF00000000
(1790244543.660031) can0 18A#F93B00000E
(1790244543.668448) can0 18A#F93B00000E
(1790244543.678814) can0 38A#000005
(1790244543.679420) can0 28A#D3FDCDFF00000000
(1790244543.679850) can0 18A#F93B00000E
(1790244543.688336) can0 18A#F93B00000E
(1790244543.698401) can0 28A#D3FDCCFF00000000
(1790244543.698897) can0 18A#F93B00000E
(1790244543.708587) can0 18A#F93B00000E
(1790244543.718029) can0 28A#D3FDCDFF00000000
(1790244543.718397) can0 18A#F93B00000E
(1790244543.727983) can0 38A#000005
(1790244543.728438) can0 18A#F93B00000E
(1790244543.738235) can0 28A#D3FDCEFF00000000
(1790244543.738604) can0 18A#F93B00000E
(1790244543.747928) can0 18A#F93B00000E
(1790244543.758237) can0 28A#D8FDD1FF00000000
(1790244543.758970) can0 18A#F93B00000E
(1790244543.768001) can0 18A#F93B00000E
(1790244543.777669) can0 38A#000005
(1790244543.778291) can0 28A#D8FDD4FF00000000
(1790244543.778802) can0 18A#F93B00000E
(1790244543.787535) can0 18A#F93B00000E
(1790244543.797944) can0 28A#D8FDD8FF00000000
(1790244543.798601) can0 18A#F93B00000E
(1790244543.807784) can0 18A#F93B00000E
(1790244543.817489) can0 28A#DDFDDBFF00000000
(1790244543.818261) can0 18A#F93B00000E
(1790244543.827532) can0 38A#000005
(1790244543.828097) can0 18A#F93BFF000E
(1790244543.837159) can0 28A#D8FDDBFF00000000
(1790244543.837629) can0 18A#F93BFF000E
(1790244543.847069) can0 18A#F93BFF000E
(1790244543.857555) can0 28A#D8FDDBFF00000000
(1790244543.858179) can0 18A#F93BFF000E
(1790244543.866946) can0 18A#F93BFF000E
(1790244543.876859) can0 38A#000005
(1790244543.877530) can0 28A#D8FDDBFF00000000
(1790244543.877925) can0 18A#F93BFF000E
(1790244543.887044) can0 18A#F93BFF000E
(1790244543.896807) can0 28A#DDFDDBFF00000000
(1790244543.897458) can0 18A#F93BFF000E
(1790244543.907174) can0 18A#F93BFF000E
(1790244543.916866) can0 28A#DDFDDBFF00000000
(1790244543.917284) can0 18A#F93BFF000E
(1790244543.926365) can0 38A#000005
(1790244543.926804) can0 18A#F93BFF000E
(1790244543.936357) can0 28A#DDFDDBFF00000000
(1790244543.936703) can0 18A#F93BFF000E
(1790244543.946625) can0 18A#F93BFF000E
(1790244543.956377) can0 28A#DDFDDBFF00000000
(1790244543.956939) can0 18A#F93BFF000E
(1790244543.966721) can0 18A#F93BFF000E
(1790244543.976254) can0 38A#000005
(1790244543.976641) can0 28A#D8FDDBFF00000000
(1790244543.976913) can0 18A#F93BFF000E
(1790244543.985903) can0 18A#F93BFF000E
(1790244543.995985) can0 28A#DDFDDCFF00000000
(1790244543.996503) can0 18A#F93BFF000E
(1790244544.006858) can0 18A#F93BFF000E
(1790244544.015836) can0 28A#DDFDDFFF00000000
(1790244544.016498) can0 18A#F93BFF000E
(1790244544.025751) can0 38A#000005
(1790244544.026438) can0 18A#F93BFF000E
(1790244544.036059) can0 28A#DDFDE4FF00000000
(1790244544.036913) can0 18A#F93BFF000E
(1790244544.045499) can0 18A#F93BFF000E
(1790244544.056056) can0 28A#DDFDE8FF00000000
(1790244544.056778) can0 18A#F93BFF000E
(1790244544.065637) can0 18A#F93BFF000E
(1790244544.075224) can0 70A#05
(1790244544.075743) can0 38A#000005
(1790244544.076200) can0 28A#E2FDEBFF00000000
(1790244544.085227) can0 18A#F93BFF000E
(1790244544.095369) can0 28A#E2FDEBFF00000000
(1790244544.095833) can0 18A#F93BFF000E
(1790244544.105188) can0 18A#FA3BFF000E
(1790244544.114884) can0 28A#E2FDECFF00000000
(1790244544.115409) can0 18A#F93BFF000E
(1790244544.125114) can0 38A#000005
(1790244544.125591) can0 18A#F93BFF000E
(1790244544.134693) can0 28A#E2FDEBFF00000000
(1790244544.135151) can0 18A#F93BFF000E
(1790244544.144771) can0 18A#F93BFF000E
(1790244544.155199) can0 28A#E2FDEBFF00000000
(1790244544.155974) can0 18A#FA3BFF000E
(1790244544.164467) can0 18A#FA3BFF000E
(1790244544.174597) can0 38A#000005
(1790244544.175920) can0 28A#E2FDECFF00000000
(1790244544.176650) can0 18A#F93BFF000E
(1790244544.184715) can0 18A#F93BFF000E
(1790244544.194322) can0 28A#E2FDEBFF00000000
(1790244544.194812) can0 18A#FA3BFF000E
(1790244544.204338) can0 18A#F93BFF000E
(1790244544.214412) can0 28A#E2FDECFF00000000
(1790244544.214763) can0 18A#F93BFF000E
(1790244544.223968) can0 38A#000005
(1790244544.224477) can0 18A#FA3BFF000E
(1790244544.234019) can0 28A#DDFDEBFF00000000
(1790244544.234612) can0 18A#F93BFF000E
(1790244544.244230) can0 18A#F93BFF000E
(1790244544.254051) can0 28A#E2FDECFF00000000
(1790244544.254876) can0 18A#FA3BFF000E
(1790244544.263739) can0 18A#F93BFF000E
(1790244544.273915) can0 38A#000005
(1790244544.274457) can0 28A#E2FDECFF00000000
(1790244544.274855) can0 18A#FA3BFF000E
(1790244544.283427) can0 18A#FA3BFF000E
(1790244544.293504) can0 28A#E2FDECFF00000000
(1790244544.293980) can0 18A#FA3BFE000E
(1790244544.303732) can0 18A#FA3BFE000E
(1790244544.313390) can0 28A#E2FDF0FF00000000
(1790244544.314037) can0 18A#FA3BFE000E
(1790244544.323186) can0 38A#000005
(1790244544.323762) can0 18A#FA3BFE000E
(1790244544.333456) can0 28A#E2FDF5FF00000000
(1790244544.333861) can0 18A#FA3BFE000E
(1790244544.343205) can0 18A#FA3BFE000E
(1790244544.353398) can0 28A#E2FDF9FF00000000
(1790244544.354188) can0 18A#FA3BFD000E
(1790244544.363340) can0 18A#FA3BFC000E
(1790244544.372858) can0 38A#000005
(1790244544.373532) can0 28A#E8FDFDFF00000000
(1790244544.374068) can0 18A#FA3BFC000E
(1790244544.382634) can0 18A#FA3BFC000E
(1790244544.392958) can0 28A#E8FDFDFF00000000
(1790244544.393371) can0 18A#FA3BFC000E
(1790244544.402591) can0 18A#FA3BFC000E
(1790244544.412488) can0 28A#E8FDFDFF00000000
(1790244544.413023) can0 18A#FA3BFC000E
(1790244544.422707) can0 38A#000005
(1790244544.423239) can0 18A#FA3BFC000E
(1790244544.432385) can0 28A#E8FDFDFF00000000
(1790244544.432890) can0 18A#FA3BFC000E
(1790244544.442225) can0 18A#FA3BFC000E
(1790244544.452561) can0 28A#E8FDFDFF00000000
(1790244544.452988) can0 18A#FA3BFC000E
(1790244544.462018) can0 18A#FA3BFC000E
(1790244544.471938) can0 38A#000005
(1790244544.472567) can0 28A#E8FDFDFF00000000
(1790244544.472903) can0 18A#FA3BFC000E
(1790244544.482172) can0 18A#FA3BFC000E
(1790244544.491920) can0 28A#E8FDFDFF00000000
(1790244544.492431) can0 18A#FA3BFC000E
(1790244544.502039) can0 18A#FA3BFC000E
(1790244544.512104) can0 28A#E8FDFDFF00000000
(1790244544.512870) can0 18A#FA3BFC000E
(1790244544.521537) can0 38A#000005
(1790244544.522036) can0 18A#FA3BFC000E
(1790244544.531404) can0 28A#E8FDFDFF00000000
(1790244544.531747) can0 18A#FA3BFC000E
(1790244544.541722) can0 18A#FA3BFC000E
(1790244544.551360) can0 28A#E8FDFEFF00000000
(1790244544.551935) can0 18A#FA3BFC000E
(1790244544.561132) can0 18A#FA3BFC000E
(1790244544.571497) can0 38A#000005
(1790244544.571997) can0 28A#E2FD010000000000
(1790244544.572329) can0 18A#FB3BFB000E
(1790244544.581008) can0 18A#FB3BFB000E
(1790244544.591101) can0 28A#E2FD050000000000
(1790244544.591738) can0 18A#FB3BFB000E
(1790244544.601605) can0 18A#FB3BFA000E
(1790244544.610840) can0 28A#E2FD090000000000
(1790244544.611259) can0 18A#FB3BFA000E
(1790244544.620788) can0 38A#000005
(1790244544.621494) can0 18A#FB3BFA000E
(1790244544.631296) can0 28A#E2FD0E0000000000
(1790244544.632202) can0 18A#FB3BFA000E
(1790244544.640534) can0 18A#FB3BFA000E
(1790244544.650595) can0 28A#E2FD0E0000000000
(1790244544.651309) can0 18A#FB3BFA000E
(1790244544.660792) can0 18A#FB3BFA000E
(1790244544.670409) can0 38A#000005
(1790244544.671103) can0 28A#E2FD0E0000000000
(1790244544.671664) can0 18A#FB3BFA000E
(1790244544.680275) can0 18A#FB3BFA000E
(1790244544.690651) can0 28A#E2FD0E0000000000
(1790244544.691226) can0 18A#FB3BFA000E
(1790244544.700377) can0 18A#FB3BFA000E
(1790244544.710126) can0 28A#E2FD0E0000000000
(1790244544.710742) can0 18A#FB3BFA000E
(1790244544.720359) can0 38A#000005
(1790244544.720980) can0 18A#FB3BFA000E
(1790244544.730162) can0 28A#E2FD0E0000000000
(1790244544.730778) can0 18A#FB3BFA000E
(1790244544.739841) can0 18A#FB3BFA000E
(1790244544.751099) can0 28A#E2FD0E0000000000
(1790244544.752254) can0 18A#FB3BFA000E
(1790244544.759656) can0 18A#FB3BFA000E
(1790244544.769596) can0 38A#000005
(1790244544.770298) can0 28A#E2FD0E0000000000
(1790244544.770831) can0 18A#FB3BFA000E
(1790244544.779732) can0 18A#FB3BFA000E
(1790244544.789408) can0 28A#E2FD0E0000000000
(1790244544.789966) can0 18A#FB3BFA000E
(1790244544.799507) can0 18A#FB3BFA000E
(1790244544.809559) can0 28A#E2FD0E0000000000
(1790244544.809995) can0 18A#FB3BFA000E
(1790244544.819174) can0 38A#000005
(1790244544.819732) can0 18A#FB3BFA000E
(1790244544.829089) can0 28A#E2FD130000000000
(1790244544.829701) can0 18A#FC3BF9000E
(1790244544.839329) can0 18A#FC3BF9000E
(1790244544.849645) can0 28A#E2FD160000000000
(1790244544.850339) can0 18A#FC3BF9000E
(1790244544.858766) can0 18A#FD3BF8000E
(1790244544.869126) can0 38A#000005
(1790244544.869770) can0 28A#E2FD1B0000000000
(1790244544.870188) can0 18A#FD3BF7000E
(1790244544.878828) can0 18A#FD3BF7000E
(1790244544.888668) can0 28A#E2FD1F0000000000
(1790244544.889376) can0 18A#FD3BF6000E
(1790244544.899114) can0 18A#FD3BF6000E
(1790244544.908513) can0 28A#E2FD1F0000000000
(1790244544.909507) can0 18A#FD3BF6000E
(1790244544.918290) can0 38A#000005
(1790244544.918926) can0 18A#FD3BF6000E
(1790244544.928613) can0 28A#E2FD1F0000000000
(1790244544.929190) can0 18A#FD3BF6000E
(1790244544.938197) can0 18A#FD3BF6000E
(1790244544.948434) can0 28A#E2FD1F0000000000
(1790244544.949116) can0 18A#FD3BF6000E
(1790244544.958313) can0 18A#FD3BF6000E
(1790244544.967841) can0 38A#000005
(1790244544.968337) can0 28A#E2FD1F0000000000
(1790244544.968709) can0 18A#FD3BF6000E
(1790244544.979397) can0 18A#FD3BF6000E
(1790244544.988119) can0 28A#E2FD1F0000000000
(1790244544.988523) can0 18A#FD3BF6000E
(1790244544.998261) can0 18A#FD3BF6000E
(1790244545.007636) can0 28A#E2FD1F0000000000
(1790244545.008142) can0 18A#FD3BF6000E
(1790244545.017877) can0 38A#000005
(1790244545.018669) can0 18A#FD3BF6000E
(1790244545.027506) can0 28A#E2FD1F0000000000
(1790244545.028204) can0 18A#FD3BF6000E
(1790244545.037410) can0 18A#FD3BF6000E
(1790244545.047662) can0 28A#E2FD1F0000000000
(1790244545.048159) can0 18A#FD3BF6000E
(1790244545.057086) can0 18A#FD3BF6000E
(1790244545.067028) can0 70A#05
(1790244545.067401) can0 38A#000005
(1790244545.067726) can0 28A#E2FD1F0000000000
(1790244545.077253) can0 18A#FD3BF6000E
(1790244545.086999) can0 28A#E2FD230000000000
(1790244545.087510) can0 18A#FD3BF5000E
(1790244545.097238) can0 18A#FD3BF5000E
(1790244545.107125) can0 28A#E2FD280000000000
(1790244545.107703) can0 18A#FD3BF5000E
(1790244545.122480) can0 38A#000005
(1790244545.123090) can0 18A#FD3BF5000E
(1790244545.126559) can0 28A#E2FD2B0000000000
(1790244545.126877) can0 18A#FE3BF5000E
(1790244545.136894) can0 18A#FE3BF4000E
(1790244545.146569) can0 28A#E2FD2E0000000000
(1790244545.147022) can0 18A#FE3BF4000E
(1790244545.156222) can0 18A#FE3BF4000E
(1790244545.166447) can0 38A#000005
(1790244545.166854) can0 28A#E2FD2E0000000000
(1790244545.167183) can0 18A#FE3BF4000E
(1790244545.176067) can0 18A#FE3BF4000E
(1790244545.186181) can0 28A#E2FD2E0000000000
(1790244545.186696) can0 18A#FE3BF4000E
(1790244545.196403) can0 18A#FE3BF4000E
(1790244545.205998) can0 28A#E2FD2E0000000000
(1790244545.206445) can0 18A#FE3BF4000E
(1790244545.215802) can0 38A#000005
(1790244545.216253) can0 18A#FE3BF4000E
(1790244545.226149) can0 28A#E2FD2E0000000000
(1790244545.226656) can0 18A#FE3BF4000E
(1790244545.235760) can0 18A#FE3BF4000E
(1790244545.246815) can0 28A#E2FD2E0000000000
(1790244545.247571) can0 18A#FE3BF4000E
(1790244545.255893) can0 18A#FE3BF4000E
(1790244545.265393) can0 38A#000005
(1790244545.265907) can0 28A#E2FD2E0000000000
(1790244545.266275) can0 18A#FE3BF4000E
(1790244545.275302) can0 18A#FE3BF4000E
(1790244545.285701) can0 28A#E2FD2E0000000000
(1790244545.286311) can0 18A#FE3BF4000E
(1790244545.296055) can0 18A#FE3BF4000E
(1790244545.305098) can0 28A#E2FD2E0000000000
(1790244545.305669) can0 18A#FE3BF4000E
(1790244545.315368) can0 38A#000005
(1790244545.315944) can0 18A#FE3BF4000E
(1790244545.324947) can0 28A#E2FD2E0000000000
(1790244545.325552) can0 18A#FE3BF4000E
(1790244545.334781) can0 18A#FE3BF4000E
(1790244545.345372) can0 28A#E2FD2E0000000000
(1790244545.346293) can0 18A#FE3BF4000E
(1790244545.354587) can0 18A#FE3BF4000E
(1790244545.364623) can0 38A#000005
(1790244545.365110) can0 28A#E2FD300000000000
(1790244545.365481) can0 18A#FE3BF4000E
(1790244545.374720) can0 18A#FE3BF3000E
(1790244545.384478) can0 28A#E2FD340000000000
(1790244545.384875) can0 18A#FE3BF3000E
(1790244545.394553) can0 18A#FE3BF2000E
(1790244545.404625) can0 28A#E2FD370000000000
(1790244545.405146) can0 18A#FE3BF2000E
(1790244545.414180) can0 38A#000005
(1790244545.414629) can0 18A#FE3BF2000E
(1790244545.424219) can0 28A#E2FD3A0000000000
(1790244545.424773) can0 18A#FE3BF2000E
(1790244545.434375) can0 18A#FE3BF2000E
(1790244545.444219) can0 28A#E2FD3C0000000000
(1790244545.444706) can0 18A#FE3BF2000E
(1790244545.453721) can0 18A#FE3BF2FF0E
(1790244545.463964) can0 38A#000005
(1790244545.464404) can0 28A#E2FD3C0000000000
(1790244545.464766) can0 18A#FE3BF2FF0E
(1790244545.473588) can0 18A#FE3BF2FF0E
(1790244545.483627) can0 28A#E2FD3C0000000000
(1790244545.484110) can0 18A#FE3BF2FF0E
(1790244545.493783) can0 18A#FE3BF2FF0E
(1790244545.503381) can0 28A#E2FD3C0000000000
(1790244545.503715) can0 18A#FE3BF2FF0E
(1790244545.513278) can0 38A#000005
(1790244545.513702) can0 18A#FE3BF2FF0E
(1790244545.523599) can0 28A#E2FD3C0000000000
(1790244545.524088) can0 18A#FE3BF2FF0E
(1790244545.533253) can0 18A#FE3BF2FF0E
(1790244545.544499) can0 28A#E2FD3C0000000000
(1790244545.545425) can0 18A#FE3BF2FF0E
(1790244545.553369) can0 18A#FE3BF2FF0E
(1790244545.562944) can0 38A#000005
(1790244545.563519) can0 28A#E2FD3C0000000000
(1790244545.563931) can0 18A#FE3BF2FF0E
(1790244545.572850) can0 18A#FE3BF2FF0E
(1790244545.583165) can0 28A#E2FD3C0000000000
(1790244545.583730) can0 18A#FE3BF2FF0E
(1790244545.592952) can0 18A#FE3BF2FF0E
(1790244545.602606) can0 28A#E2FD3C0000000000
(1790244545.602978) can0 18A#FE3BF2FF0E
(1790244545.612805) can0 38A#000005
(1790244545.613442) can0 18A#FE3BF2FF0E
(1790244545.622443) can0 28A#E2FD3D0000000000
(1790244545.622965) can0 18A#FE3BF2FF0E
(1790244545.632479) can0 18A#FF3BF1FE0E
(1790244545.642858) can0 28A#E2FD410000000000
(1790244545.643712) can0 18A#FF3BF1FE0E
(1790244545.652201) can0 18A#FF3BF0FD0E
(1790244545.662090) can0 38A#000005
(1790244545.662613) can0 28A#DDFD430000000000
(1790244545.663022) can0 18A#FF3BF0FC0E
(1790244545.672333) can0 18A#FF3BF0FC0E
(1790244545.681993) can0 28A#DDFD460000000000
(1790244545.682441) can0 18A#FF3BF0FB0E
(1790244545.691972) can0 18A#FF3BF0FB0E
(1790244545.702202) can0 28A#DDFD470000000000
(1790244545.702788) can0 18A#FF3BF0FB0E
(1790244545.711659) can0 38A#000005
(1790244545.712098) can0 18A#FF3BF0FB0E
(1790244545.721628) can0 28A#DDFD470000000000
(1790244545.722028) can0 18A#FF3BF0FB0E
(1790244545.731834) can0 18A#FF3BF0FB0E
(1790244545.741592) can0 28A#E2FD470000000000
(1790244545.742167) can0 18A#FF3BF0FB0E
(1790244545.751243) can0 18A#FF3BF0FB0E
(1790244545.761566) can0 38A#000005
(1790244545.762167) can0 28A#DDFD470000000000
(1790244545.764403) can0 18A#FF3BF0FB0E
(1790244545.771099) can0 18A#FF3BF0FB0E
(1790244545.781238) can0 28A#DDFD470000000000
(1790244545.781862) can0 18A#FF3BF0FB0E
(1790244545.794036) can0 18A#FF3BF0FB0E
(1790244545.801107) can0 28A#DDFD470000000000
(1790244545.802918) can0 18A#FF3BF0FB0E
(1790244545.811023) can0 38A#000005
(1790244545.812428) can0 18A#FF3BF0FB0E
(1790244545.821301) can0 28A#DDFD470000000000
(1790244545.823342) can0 18A#FF3BF0FB0E
(1790244545.830821) can0 18A#FF3BF0FB0E
(1790244545.840714) can0 28A#DDFD470000000000
(1790244545.841762) can0 18A#FF3BF0FB0E
(1790244545.850855) can0 18A#FF3BF0FB0E
(1790244545.861108) can0 38A#000005
(1790244545.862973) can0 28A#DDFD470000000000
(1790244545.863820) can0 18A#FF3BF0FB0E
(1790244545.871275) can0 18A#FF3BF0FB0E
(1790244545.880717) can0 28A#DDFD490000000000
(1790244545.881297) can0 18A#FF3BF0FA0E
(1790244545.890217) can0 18A#FF3BF0FA0E
(1790244545.900161) can0 28A#DDFD4B0000000000
(1790244545.900697) can0 18A#003BEFF90E
(1790244545.910524) can0 38A#000005
(1790244545.911222) can0 18A#003BEFF90E
(1790244545.920097) can0 28A#DDFD4D0000000000
(1790244545.920605) can0 18A#003BEFF80E
(1790244545.930058) can0 18A#003BEFF80E
(1790244545.940206) can0 28A#DDFD500000000000
(1790244545.940874) can0 18A#003BEEF70E
(1790244545.949621) can0 18A#003BEEF70E
(1790244545.959541) can0 38A#000005
(1790244545.960041) can0 28A#DDFD500000000000
(1790244545.960434) can0 18A#003BEEF60E
(1790244545.969734) can0 18A#003BEEF60E
(1790244545.979494) can0 28A#DDFD500000000000
(1790244545.979938) can0 18A#003BEEF60E
(1790244545.989522) can0 18A#003BEEF60E
(1790244545.999794) can0 28A#DDFD500000000000
(1790244546.002968) can0 18A#003BEEF60E
(1790244546.009150) can0 38A#000005
(1790244546.009582) can0 18A#003BEEF60E
(1790244546.019094) can0 28A#DDFD500000000000
(1790244546.019487) can0 18A#003BEEF60E
(1790244546.029341) can0 18A#003BEEF60E
(1790244546.039284) can0 28A#DDFD500000000000
(1790244546.040015) can0 18A#003BEEF60E
(1790244546.048996) can0 18A#003BEEF60E
(1790244546.059099) can0 70A#05
(1790244546.059660) can0 38A#000005
(1790244546.060168) can0 28A#DDFD500000000000
(1790244546.068665) can0 18A#003BEEF60E
(1790244546.078717) can0 28A#DDFD500000000000
(1790244546.079756) can0 18A#003BEEF60E
(1790244546.088859) can0 18A#003BEEF60E
(1790244546.098463) can0 28A#DDFD500000000000
(1790244546.098966) can0 18A#003BEEF60E
(1790244546.108420) can0 38A#000005
(1790244546.109090) can0 18A#003BEEF60E
(1790244546.118560) can0 28A#DDFD500000000000
(1790244546.119000) can0 18A#003BEEF60E
(1790244546.128193) can0 18A#003BEEF60E
(1790244546.138919) can0 28A#DDFD510000000000
(1790244546.139616) can0 18A#003BEEF60E
(1790244546.148389) can0 18A#003BEEF60E
(1790244546.157960) can0 38A#000005
(1790244546.158519) can0 28A#0000000000000000
(1790244546.158936) can0 18A#003BEEF606
(1790244546.167761) can0 18A#003BEEF506
(1790244546.178142) can0 28A#0000000000000000
(1790244546.178557) can0 18A#003BEEF506
(1790244546.187892) can0 18A#003BEEF406
(1790244546.197625) can0 28A#0000000000000000
(1790244546.197980) can0 18A#003BEEF406
(1790244546.207831) can0 38A#000005
(1790244546.208270) can0 18A#003AEDF406
(1790244546.217411) can0 28A#0000000000000000
(1790244546.217866) can0 18A#003AEDF306
(1790244546.227257) can0 18A#003AEDF306
(1790244546.237995) can0 28A#0000000000000000
(1790244546.238860) can0 18A#003AEDF306
(1790244546.247106) can0 18A#003AEDF306
(1790244546.257125) can0 38A#000005
(1790244546.257878) can0 28A#0000000000000000
(1790244546.258396) can0 18A#003AEDF306
(1790244546.267472) can0 18A#003AEDF306
(1790244546.276980) can0 28A#0000000000000000
(1790244546.277470) can0 18A#003AEDF306
(1790244546.286996) can0 18A#003AEDF306
(1790244546.297085) can0 28A#0000000000000000
(1790244546.297520) can0 18A#003AEDF306
(1790244546.306615) can0 38A#000005
(1790244546.307141) can0 18A#003AEDF306
(1790244546.316621) can0 28A#0000000000000000
(1790244546.317166) can0 18A#003AEDF306
(1790244546.326917) can0 18A#003AEDF306
(1790244546.336856) can0 28A#0000000000000000
(1790244546.338357) can0 18A#003AEDF306
(1790244546.346449) can0 18A#003AEDF306
(1790244546.356550) can0 38A#000005
(1790244546.357092) can0 28A#0000000000000000
(1790244546.357567) can0 18A#003AECF306
(1790244546.366128) can0 18A#003AECF306
(1790244546.376124) can0 28A#0000000000000000
(1790244546.376602) can0 18A#003AECF306
(1790244546.386656) can0 18A#003AECF306
(1790244546.395949) can0 28A#0000000000000000
(1790244546.396343) can0 18A#003AECF306
(1790244546.405735) can0 38A#000005
(1790244546.406202) can0 18A#003AECF306
(1790244546.416103) can0 28A#0000000000000000
(1790244546.416647) can0 18A#003AEDF306
(1790244546.425722) can0 18A#003AEDF306
(1790244546.435874) can0 28A#0000000000000000
(1790244546.436641) can0 18A#003AEDF306
(1790244546.445806) can0 18A#003AECF206
(1790244546.455429) can0 38A#000005
(1790244546.455963) can0 28A#0000000000000000
(1790244546.456344) can0 18A#003AECF206
(1790244546.465399) can0 18A#003AECF106
(1790244546.476438) can0 28A#0000000000000000
(1790244546.477416) can0 18A#003AECF106
(1790244546.485482) can0 18A#003AEBF106
(1790244546.495306) can0 28A#0000000000000000
(1790244546.495998) can0 18A#003AEBF006
(1790244546.505443) can0 38A#000005
(1790244546.506332) can0 18A#003AEBF006
(1790244546.514956) can0 28A#0000000000000000
(1790244546.515547) can0 18A#003AEBF006
(1790244546.524739) can0 18A#003AEBF006
(1790244546.535129) can0 28A#0000000000000000
(1790244546.535692) can0 18A#003AEBF006
(1790244546.544627) can0 18A#003AEBF006
(1790244546.554548) can0 38A#000005
(1790244546.555245) can0 28A#0000000000000000
(1790244546.555857) can0 18A#003AEBF006
(1790244546.564784) can0 18A#003AEBF006
(1790244546.574556) can0 28A#0000000000000000
(1790244546.575376) can0 18A#003AEBF006
(1790244546.584442) can0 18A#003AEBF006
(1790244546.594804) can0 28A#0000000000000000
(1790244546.595595) can0 18A#003AEBF006
(1790244546.604055) can0 38A#000005
(1790244546.604480) can0 18A#003AEBF006
(1790244546.614017) can0 28A#0000000000000000
(1790244546.614440) can0 18A#003AEBF006
(1790244546.624445) can0 18A#003AEBF006
(1790244546.634167) can0 28A#0000000000000000
(1790244546.635210) can0 18A#003AEBF006
(1790244546.643832) can0 18A#003AEBF006
(1790244546.654046) can0 38A#000005
(1790244546.654635) can0 28A#0000000000000000
(1790244546.655155) can0 18A#003AEBF006
(1790244546.663670) can0 18A#003AEBF006
(1790244546.673666) can0 28A#0000000000000000
(1790244546.674225) can0 18A#003AEBF006
(1790244546.684044) can0 18A#003AEBF006
(1790244546.693463) can0 28A#0000000000000000
(1790244546.694024) can0 18A#003AEBEF06
(1790244546.703481) can0 38A#000005
(1790244546.704134) can0 18A#003AEBEF06
(1790244546.713544) can0 28A#0000000000000000
(1790244546.714088) can0 18A#003AEBEF06
(1790244546.723184) can0 18A#003AEBEE06
(1790244546.733639) can0 28A#0000000000000000
(1790244546.735379) can0 18A#003AEBEE06
(1790244546.743442) can0 18A#003AEBEE06
(1790244546.753099) can0 38A#000005
(1790244546.754377) can0 28A#0000000000000000
(1790244546.755105) can0 18A#003AEAEE06
(1790244546.762637) can0 18A#003AEAED06
(1790244546.773135) can0 28A#0000000000000000
(1790244546.773608) can0 18A#003AEAED06
(1790244546.782913) can0 18A#003AEAED06
(1790244546.792543) can0 28A#0000000000000000
(1790244546.792991) can0 18A#003AEAED06
(1790244546.802794) can0 38A#000005
(1790244546.803319) can0 18A#003AEAED06
(1790244546.812381) can0 28A#0000000000000000
(1790244546.812925) can0 18A#003AEAED06
(1790244546.822357) can0 18A#003AEAEC06
(1790244546.833194) can0 28A#0000000000000000
(1790244546.834244) can0 18A#003AEAEC06
(1790244546.842152) can0 18A#003AEAED06
(1790244546.852276) can0 38A#000005
(1790244546.853288) can0 28A#0000000000000000
(1790244546.854152) can0 18A#003AEAED06
(1790244546.862321) can0 18A#003AEAED06
(1790244546.872024) can0 28A#0000000000000000
(1790244546.874399) can0 18A#003AEAED06
(1790244546.881893) can0 18A#003AEAED06
(1790244546.892044) can0 28A#0000000000000000
(1790244546.892528) can0 18A#003AEAEC06
(1790244546.901612) can0 38A#000005
(1790244546.902154) can0 18A#003AEAEC06
(1790244546.911497) can0 28A#0000000000000000
(1790244546.911869) can0 18A#003AEAEC06
(1790244546.921713) can0 18A#003AEAED06
(1790244546.932246) can0 28A#0000000000000000
(1790244546.932942) can0 18A#003AEAED06
(1790244546.941201) can0 18A#003AEAED06
(1790244546.951607) can0 38A#000005
(1790244546.952593) can0 28A#0000000000000000
(1790244546.953302) can0 18A#003AEAED06
(1790244546.961113) can0 18A#003AEAEC06
(1790244546.971112) can0 28A#0000000000000000
(1790244546.971612) can0 18A#003AEAEC06
(1790244546.981419) can0 18A#003AEAEC06
(1790244546.990852) can0 28A#0000000000000000
(1790244546.991256) can0 18A#003AEAEB06
(1790244547.000808) can0 38A#000005
(1790244547.001945) can0 18A#003AEAEB06
(1790244547.012350) can0 28A#0000000000000000
(1790244547.012825) can0 18A#003AEAEB06
(1790244547.020496) can0 18A#003AEAEB06
(1790244547.031037) can0 28A#0000000000000000
(1790244547.031793) can0 18A#003AEAEA06
(1790244547.040649) can0 18A#003AEAEA06
(1790244547.050227) can0 70A#05
(1790244547.050602) can0 38A#000005
(1790244547.050962) can0 28A#0000000000000000
(1790244547.060152) can0 18A#003AEAEA06
(1790244547.070516) can0 28A#0000000000000000
(1790244547.070984) can0 18A#003AEAEA06
(1790244547.080200) can0 18A#003AEAEA06
(1790244547.090039) can0 28A#0000000000000000
(1790244547.090555) can0 18A#003AEAEA06
(1790244547.100199) can0 38A#000005
(1790244547.100774) can0 18A#003AEAEA06
(1790244547.109833) can0 28A#0000000000000000
(1790244547.110402) can0 18A#003AEAEA06
(1790244547.119758) can0 18A#003AEAEA06
(1790244547.130358) can0 28A#0000000000000000
(1790244547.131552) can0 18A#003AEAEA06
(1790244547.139605) can0 18A#003AEAEA06
(1790244547.149486) can0 38A#000005
(1790244547.150158) can0 28A#0000000000000000
(1790244547.150575) can0 18A#003AEAEA06
(1790244547.159709) can0 18A#003AEAEA06
(1790244547.169337) can0 28A#0000000000000000
(1790244547.169772) can0 18A#003AEAEA06
(1790244547.179519) can0 18A#003AEAEA06
(1790244547.189503) can0 28A#0000000000000000
(1790244547.189922) can0 18A#003AEAEA06
(1790244547.199053) can0 38A#000005
(1790244547.199504) can0 18A#003AEAEA06
(1790244547.208977) can0 28A#0000000000000000
(1790244547.209390) can0 18A#003AEAEA06
(1790244547.219231) can0 18A#003AEAEA06
(1790244547.229203) can0 28A#0000000000000000
(1790244547.229755) can0 18A#003AEAEA06
(1790244547.238628) can0 18A#003AEAEA06
(1790244547.248908) can0 38A#000005
(1790244547.249400) can0 28A#0000000000000000
(1790244547.249750) can0 18A#0039EAE906
(1790244547.258416) can0 18A#0039EAE906
(1790244547.269481) can0 28A#0000000000000000
(1790244547.270461) can0 18A#0039EAE906
(1790244547.279279) can0 18A#0039EAE806
(1790244547.288310) can0 28A#0000000000000000
(1790244547.288875) can0 18A#0039EAE806
(1790244547.298194) can0 38A#000005
(1790244547.298783) can0 18A#0039EAE806
(1790244547.308427) can0 28A#0000000000000000
(1790244547.308870) can0 18A#0039EAE806
(1790244547.317971) can0 18A#0039EAE806
(1790244547.328284) can0 28A#0000000000000000
(1790244547.329427) can0 18A#0039EAE806
(1790244547.338171) can0 18A#0039EAE806
(1790244547.347792) can0 38A#000005
(1790244547.348459) can0 28A#0000000000000000
(1790244547.348984) can0 18A#0039E9E806
(1790244547.357653) can0 18A#0039E9E806
(1790244547.368013) can0 28A#0000000000000000
(1790244547.368659) can0 18A#0039E9E806
(1790244547.377836) can0 18A#0039E9E806
(1790244547.387444) can0 28A#0000000000000000
(1790244547.387953) can0 18A#0039E9E806
(1790244547.397689) can0 38A#000005
(1790244547.398283) can0 18A#0039E9E806
(1790244547.407345) can0 28A#0000000000000000
(1790244547.407966) can0 18A#0039E9E806
(1790244547.417193) can0 18A#0039E9E806
(1790244547.427692) can0 28A#0000000000000000
(1790244547.428701) can0 18A#0039E9E806
(1790244547.436929) can0 18A#0039E9E806
(1790244547.446981) can0 38A#000005
(1790244547.447593) can0 28A#0000000000000000
(1790244547.448050) can0 18A#0039E9E806
(1790244547.457105) can0 18A#0039E9E806
(1790244547.466688) can0 28A#0000000000000000
(1790244547.467089) can0 18A#0039E9E806
(1790244547.477042) can0 18A#0039E9E806
(1790244547.486933) can0 28A#0000000000000000
(1790244547.487512) can0 18A#0039E9E806
(1790244547.496462) can0 38A#000005
(1790244547.497040) can0 18A#0039E9E806
(1790244547.506471) can0 28A#0000000000000000
(1790244547.507194) can0 18A#0039E9E806
(1790244547.516679) can0 18A#0039EAE706
(1790244547.526855) can0 28A#0000000000000000
(1790244547.527883) can0 18A#0039EAE706
(1790244547.536204) can0 18A#0039EAE706
(1790244547.546577) can0 38A#000005
(1790244547.547534) can0 28A#0000000000000000
(1790244547.548171) can0 18A#0039EAE606
(1790244547.555899) can0 18A#0039EAE606
(1790244547.565854) can0 28A#0000000000000000
(1790244547.566228) can0 18A#0039EAE606
(1790244547.576073) can0 18A#0039EAE606
(1790244547.585669) can0 28A#0000000000000000
(1790244547.586018) can0 18A#0039EAE606
(1790244547.595613) can0 38A#000005
(1790244547.596131) can0 18A#0039EAE606
(1790244547.605832) can0 28A#0000000000000000
(1790244547.606175) can0 18A#0039EAE606
(1790244547.615441) can0 18A#0039EAE606
(1790244547.625761) can0 28A#0000000000000000
(1790244547.626354) can0 18A#0039EAE606
(1790244547.635576) can0 18A#0039EAE606
(1790244547.645231) can0 38A#000005
(1790244547.645715) can0 28A#0000000000000000
(1790244547.646077) can0 18A#0039EAE606
(1790244547.655088) can0 18A#0039EAE606
(1790244547.665551) can0 28A#0000000000000000
(1790244547.666168) can0 18A#0039EAE606
(1790244547.675177) can0 18A#0039EAE606
(1790244547.684945) can0 28A#0000000000000000
(1790244547.685601) can0 18A#0039EAE606
(1790244547.695266) can0 38A#000005
(1790244547.699226) can0 18A#0039EAE606
(1790244547.704680) can0 28A#0000000000000000
(1790244547.705183) can0 18A#0039EAE606
(1790244547.714649) can0 18A#0039EAE606
(1790244547.725268) can0 28A#0000000000000000
(1790244547.725981) can0 18A#0039EAE606
(1790244547.734398) can0 18A#0039EAE606
(1790244547.744365) can0 38A#000005
(1790244547.744887) can0 28A#0000000000000000
(1790244547.745286) can0 18A#0039EAE606
(1790244547.754498) can0 18A#0039EAE506
(1790244547.764199) can0 28A#0000000000000000
(1790244547.764678) can0 18A#0039EAE506
(1790244547.774397) can0 18A#0039EAE506
(1790244547.784412) can0 28A#0000000000000000
(1790244547.784981) can0 18A#0039EAE506
(1790244547.793936) can0 38A#000005
(1790244547.794482) can0 18A#0039EAE406
(1790244547.803859) can0 28A#0000000000000000
(1790244547.804481) can0 18A#0039EAE406
(1790244547.814137) can0 18A#0039E9E406
(1790244547.823964) can0 28A#0000000000000000
(1790244547.825174) can0 18A#0039E9E406
(1790244547.833510) can0 18A#0039E9E306
(1790244547.843757) can0 38A#000005
(1790244547.844297) can0 28A#0000000000000000
(1790244547.844712) can0 18A#0039E9E306
(1790244547.853269) can0 18A#0039E9E306
(1790244547.863364) can0 28A#0000000000000000
(1790244547.863845) can0 18A#0039E9E306
(1790244547.874370) can0 18A#0039E9E306
(1790244547.883230) can0 28A#0000000000000000
(1790244547.883828) can0 18A#0039E9E306
(1790244547.893130) can0 38A#000005
(1790244547.894104) can0 18A#0039E9E306
(1790244547.903408) can0 28A#0000000000000000
(1790244547.904021) can0 18A#0039E9E306
(1790244547.913074) can0 18A#0039E9E306
(1790244547.923353) can0 28A#0000000000000000
(1790244547.924545) can0 18A#0039E9E306
(1790244547.933186) can0 18A#0039E9E406
(1790244547.942794) can0 38A#000005
(1790244547.943719) can0 28A#0000000000000000
(1790244547.944445) can0 18A#0039E9E306
(1790244547.952775) can0 18A#0039E9E306
(1790244547.963075) can0 28A#0000000000000000
(1790244547.963785) can0 18A#0039E9E306
(1790244547.972516) can0 18A#0039E9E306
(1790244547.982384) can0 28A#0000000000000000
(1790244547.982925) can0 18A#0039E9E306
(1790244547.992550) can0 38A#000005
(1790244547.993211) can0 18A#0039E9E306
(1790244548.003166) can0 28A#0000000000000000
(1790244548.003902) can0 18A#0039E9E306
(1790244548.012145) can0 18A#0039E9E306
(1790244548.022559) can0 28A#0000000000000000
(1790244548.023394) can0 18A#0039E9E306
(1790244548.032116) can0 18A#0039E9E306
(1790244548.041669) can0 70A#05
(1790244548.042036) can0 38A#000005
(1790244548.042352) can0 28A#0000000000000000
(1790244548.051989) can0 18A#0038EAE206
(1790244548.061724) can0 28A#0000000000000000
(1790244548.062323) can0 18A#0038EAE206
(1790244548.071995) can0 18A#0038EAE206
(1790244548.081812) can0 28A#0000000000000000
(1790244548.082303) can0 18A#0038EAE106
(1790244548.091185) can0 38A#000005
(1790244548.091579) can0 18A#0038EAE106
(1790244548.101196) can0 28A#0000000000000000
(1790244548.101516) can0 18A#0038EAE106
(1790244548.111446) can0 18A#0038EAE106
(1790244548.122002) can0 28A#0000000000000000
(1790244548.122647) can0 18A#0038EAE106
(1790244548.130935) can0 18A#0038EAE106
(1790244548.141294) can0 38A#000005
(1790244548.142050) can0 28A#0000000000000000
(1790244548.142613) can0 18A#0038EAE106
(1790244548.150779) can0 18A#0038EAE106
(1790244548.160820) can0 28A#0000000000000000
(1790244548.161273) can0 18A#0038EAE106
(1790244548.171627) can0 18A#0038EAE106
(1790244548.180688) can0 28A#0000000000000000
(1790244548.181370) can0 18A#0038EAE106
(1790244548.190630) can0 38A#000005
(1790244548.191561) can0 18A#0038EAE106
(1790244548.200686) can0 28A#0000000000000000
(1790244548.201074) can0 18A#0038EAE106
(1790244548.210583) can0 18A#0038EAE106
(1790244548.220639) can0 28A#0000000000000000
(1790244548.221510) can0 18A#0038EAE106
(1790244548.230383) can0 18A#0038EAE106
(1790244548.240069) can0 38A#000005
(1790244548.240617) can0 28A#0000000000000000
(1790244548.241038) can0 18A#0038EAE106
(1790244548.249869) can0 18A#0038EAE106
(1790244548.260273) can0 28A#0000000000000000
(1790244548.260777) can0 18A#0038EAE106
(1790244548.270058) can0 18A#0038EAE106
(1790244548.279738) can0 28A#0000000000000000
(1790244548.280158) can0 18A#0038EAE106
(1790244548.289901) can0 38A#000005
(1790244548.290394) can0 18A#0038EAE006
(1790244548.299520) can0 28A#0000000000000000
(1790244548.299893) can0 18A#0038EAE006
(1790244548.309441) can0 18A#0038EAE006
(1790244548.319895) can0 28A#0000000000000000
(1790244548.320908) can0 18A#0038EAE006
(1790244548.329299) can0 18A#0038EAE006
(1790244548.339131) can0 38A#000005
(1790244548.339722) can0 28A#0000000000000000
(1790244548.340095) can0 18A#0038EAE006
(1790244548.349311) can0 18A#0038EADF06
(1790244548.358984) can0 28A#0000000000000000
(1790244548.359409) can0 18A#0038EADF06
(1790244548.369008) can0 18A#0038EAE006
(1790244548.379158) can0 28A#0000000000000000
(1790244548.379531) can0 18A#0038EAE006
(1790244548.388673) can0 38A#000005
(1790244548.389136) can0 18A#0038EAE006
(1790244548.398699) can0 28A#0000000000000000
(1790244548.399161) can0 18A#0038EAE006
(1790244548.408867) can0 18A#0038EADF06
(1790244548.420863) can0 28A#0000000000000000
(1790244548.421582) can0 18A#0038EADF06
(1790244548.428362) can0 18A#0038EAE006
(1790244548.438842) can0 38A#000005
(1790244548.439525) can0 28A#0000000000000000
(1790244548.440054) can0 18A#0038EAE006
(1790244548.448161) can0 18A#0038EAE006
(1790244548.458227) can0 28A#0000000000000000
(1790244548.458876) can0 18A#0038EAE006
(1790244548.468735) can0 18A#0038EADF06
(1790244548.478134) can0 28A#0000000000000000
(1790244548.478967) can0 18A#0038EADF06
(1790244548.487918) can0 38A#000005
(1790244548.488620) can0 18A#0038EADF06
(1790244548.498106) can0 28A#0000000000000000
(1790244548.498444) can0 18A#0038EAE006
(1790244548.507716) can0 18A#0038EAE006
(1790244548.517873) can0 28A#0000000000000000
(1790244548.518837) can0 18A#0038EAE006
(1790244548.527776) can0 18A#0038EAE006
(1790244548.537513) can0 38A#000005
(1790244548.538211) can0 28A#0000000000000000
(1790244548.538790) can0 18A#0038EAE006
(1790244548.547246) can0 18A#0038EAE006
(1790244548.557613) can0 28A#0000000000000000
(1790244548.558053) can0 18A#0038EADF06
(1790244548.567672) can0 18A#0038EADF06
(1790244548.577145) can0 28A#0000000000000000
(1790244548.577676) can0 18A#0038EADF06
(1790244548.587355) can0 38A#000005
(1790244548.588007) can0 18A#0038EADE06
(1790244548.596983) can0 28A#0000000000000000
(1790244548.597817) can0 18A#0038EADE06
(1790244548.606836) can0 18A#FF38EBDE06
(1790244548.617257) can0 28A#0000000000000000
(1790244548.617807) can0 18A#FF38EBDE06
(1790244548.626539) can0 18A#FF37EBDE06
(1790244548.636446) can0 38A#000005
(1790244548.636860) can0 28A#0000000000000000
(1790244548.637159) can0 18A#FF37EBDD06
(1790244548.646719) can0 18A#FF37EBDD06
(1790244548.656373) can0 28A#0000000000000000
(1790244548.656803) can0 18A#FF37EBDD06
(1790244548.666662) can0 18A#FF37EBDD06
(1790244548.676587) can0 28A#0000000000000000
(1790244548.677138) can0 18A#FF37EBDD06
(1790244548.686148) can0 38A#000005
(1790244548.686734) can0 18A#FF37EBDD06
(1790244548.696058) can0 28A#0000000000000000
(1790244548.696591) can0 18A#FF37EBDD06
(1790244548.706362) can0 18A#FF37EBDD06
(1790244548.717509) can0 28A#0000000000000000
(1790244548.718607) can0 18A#FF37EBDD06
(1790244548.732060) can0 18A#FF37EBDD06
(1790244548.735945) can0 38A#000005
(1790244548.736356) can0 28A#0000000000000000
(1790244548.736727) can0 18A#FF37EBDD06
(1790244548.745581) can0 18A#FF37EBDD06
(1790244548.755773) can0 28A#0000000000000000
(1790244548.756326) can0 18A#FF37EBDD06
(1790244548.765884) can0 18A#FF37EBDD06
(1790244548.775438) can0 28A#0000000000000000
(1790244548.775995) can0 18A#FF37EBDD06
(1790244548.785163) can0 38A#000005
(1790244548.785578) can0 18A#FF37EBDD06
(1790244548.795481) can0 28A#0000000000000000
(1790244548.795875) can0 18A#FF37EBDD06
(1790244548.805180) can0 18A#FF37EBDD06
(1790244548.815501) can0 28A#0000000000000000
(1790244548.816374) can0 18A#FF37EBDD06
(1790244548.825263) can0 18A#FF37EBDD06
(1790244548.834956) can0 38A#000005
(1790244548.835801) can0 28A#0000000000000000
(1790244548.836544) can0 18A#FF37EBDD06
(1790244548.844717) can0 18A#FF37EBDC06
(1790244548.855078) can0 28A#0000000000000000
(1790244548.855607) can0 18A#FF37EBDC06
(1790244548.864855) can0 18A#FF37EBDC06
(1790244548.876432) can0 28A#0000000000000000
(1790244548.878387) can0 18A#FF37EBDC06
(1790244548.884695) can0 38A#000005
(1790244548.885144) can0 18A#FF37EBDB06
(1790244548.894280) can0 28A#0000000000000000
(1790244548.894735) can0 18A#FE37ECDB06
(1790244548.904176) can0 18A#FF37ECDB06
(1790244548.914830) can0 28A#0000000000000000
(1790244548.915613) can0 18A#FF37ECDB06
(1790244548.923994) can0 18A#FF37ECDB06
(1790244548.934000) can0 38A#000005
(1790244548.934619) can0 28A#0000000000000000
(1790244548.935031) can0 18A#FF37EBDB06
(1790244548.944188) can0 18A#FF37EBDB06
(1790244548.953887) can0 28A#0000000000000000
(1790244548.954390) can0 18A#FF37EBDB06
(1790244548.963871) can0 18A#FF37EBDB06
(1790244548.973977) can0 28A#0000000000000000
(1790244548.974821) can0 18A#FF37EBDB06
(1790244548.983535) can0 38A#000005
(1790244548.984139) can0 18A#FF37EBDB06
(1790244548.993484) can0 28A#0000000000000000
(1790244548.994054) can0 18A#FF37EBDB06
(1790244549.003728) can0 18A#FF37EBDB06
(1790244549.013616) can0 28A#0000000000000000
(1790244549.014657) can0 18A#FF37EBDB06
(1790244549.023139) can0 18A#FF37EBDB06
(1790244549.033350) can0 70A#05
(1790244549.033750) can0 38A#000005
(1790244549.034128) can0 28A#0000000000000000
(1790244549.043175) can0 18A#FF37EBDB06
(1790244549.052940) can0 28A#0000000000000000
(1790244549.053397) can0 18A#FF37EBDB06
(1790244549.063217) can0 18A#FF37EBDB06
(1790244549.072805) can0 28A#0000000000000000
(1790244549.073278) can0 18A#FF37EBDB06
(1790244549.082678) can0 38A#000005
(1790244549.083201) can0 18A#FE37ECDB06
(1790244549.092936) can0 28A#0000000000000000
(1790244549.093411) can0 18A#FE37ECDB06
(1790244549.102608) can0 18A#FE37ECDA06
(1790244549.113036) can0 28A#0000000000000000
(1790244549.114474) can0 18A#FE37ECDA06
(1790244549.122710) can0 18A#FE37ECDA06
(1790244549.132389) can0 38A#000005
(1790244549.133079) can0 28A#0000000000000000
(1790244549.133712) can0 18A#FE37ECDA06
(1790244549.142128) can0 18A#FE37ECDA06
(1790244549.152442) can0 28A#0000000000000000
(1790244549.152863) can0 18A#FE36ECDA06
(1790244549.162104) can0 18A#FE36ECDA06
(1790244549.171934) can0 28A#0000000000000000
(1790244549.172370) can0 18A#FE36ECDA06
(1790244549.182132) can0 38A#000005
(1790244549.182578) can0 18A#FE36ECDA06
(1790244549.191845) can0 28A#0000000000000000
(1790244549.192771) can0 18A#FE36ECDA06
(1790244549.201691) can0 18A#FE36ECDA06
(1790244549.212144) can0 28A#0000000000000000
(1790244549.212628) can0 18A#FE36ECDA06
(1790244549.221471) can0 18A#FE36ECDA06
(1790244549.231479) can0 38A#000005
(1790244549.232076) can0 28A#0000000000000000
(1790244549.232508) can0 18A#FE36ECDA06
(1790244549.241883) can0 18A#FE36ECDA06
(1790244549.251443) can0 28A#0000000000000000
(1790244549.251992) can0 18A#FE36ECDA06
(1790244549.262436) can0 18A#FE36ECDA06
(1790244549.271618) can0 28A#0000000000000000
(1790244549.272197) can0 18A#FE36ECDA06
(1790244549.281100) can0 38A#000005
(1790244549.281552) can0 18A#FE36ECDA06
(1790244549.291040) can0 28A#0000000000000000
(1790244549.291580) can0 18A#FE36ECDA06
(1790244549.301221) can0 18A#FE36ECDA06
(1790244549.311086) can0 28A#0000000000000000
(1790244549.312323) can0 18A#FE36ECDA06
(1790244549.320738) can0 18A#FE36ECDA06
(1790244549.331187) can0 38A#000005
(1790244549.331990) can0 28A#0000000000000000
(1790244549.332694) can0 18A#FE36ECD906
(1790244549.340496) can0 18A#FE36ECD906
(1790244549.350552) can0 28A#0000000000000000
(1790244549.350947) can0 18A#FE36ECD906
(1790244549.360906) can0 18A#FE36ECD906
(1790244549.370383) can0 28A#0000000000000000
(1790244549.370743) can0 18A#FE36ECD806
(1790244549.380245) can0 38A#000005
(1790244549.380631) can0 18A#FE36EDD806
(1790244549.390485) can0 28A#0000000000000000
(1790244549.390781) can0 18A#FE36EDD806
(1790244549.400110) can0 18A#FE36EDD806
(1790244549.410578) can0 28A#0000000000000000
(1790244549.411118) can0 18A#FE36EDD806
(1790244549.420200) can0 18A#FE36EDD806
(1790244549.429854) can0 38A#000005
(1790244549.430314) can0 28A#0000000000000000
(1790244549.430667) can0 18A#FE36EED706
(1790244549.439759) can0 18A#FE36EED706
(1790244549.450166) can0 28A#0000000000000000
(1790244549.450625) can0 18A#FE36EED706
(1790244549.459667) can0 18A#FE36EED706
(1790244549.469628) can0 28A#0000000000000000
(1790244549.470086) can0 18A#FE36EED706
(1790244549.479853) can0 38A#000005
(1790244549.480419) can0 18A#FE36EED706
(1790244549.489435) can0 28A#0000000000000000
(1790244549.489798) can0 18A#FE36EED706
(1790244549.499332) can0 18A#FE36EED706
(1790244549.510324) can0 28A#0000000000000000
(1790244549.511039) can0 18A#FE36EED706
(1790244549.519192) can0 18A#FE36EED706
(1790244549.529159) can0 38A#000005
(1790244549.529736) can0 28A#0000000000000000
(1790244549.530132) can0 18A#FE36EED706
(1790244549.539259) can0 18A#FE36EED706
(1790244549.549073) can0 28A#0000000000000000
(1790244549.549619) can0 18A#FE36EED706
(1790244549.559096) can0 18A#FE36EED706
(1790244549.569283) can0 28A#0000000000000000
(1790244549.572747) can0 18A#FE36EED706
(1790244549.578678) can0 38A#000005
(1790244549.579245) can0 18A#FE36EED706
(1790244549.588698) can0 28A#0000000000000000
(1790244549.589295) can0 18A#FE36EED706
(1790244549.599010) can0 18A#FE36EED706
(1790244549.608588) can0 28A#0000000000000000
(1790244549.609462) can0 18A#FE36EED706
(1790244549.618335) can0 18A#FE36EED706
(1790244549.628704) can0 38A#000005
(1790244549.629462) can0 28A#0000000000000000
(1790244549.630265) can0 18A#FE36EED706
(1790244549.638205) can0 18A#FE36EED706
(1790244549.648300) can0 28A#0000000000000000
(1790244549.648927) can0 18A#FE36EED706
(1790244549.658489) can0 18A#FE36EED706
(1790244549.668004) can0 28A#0000000000000000
(1790244549.668372) can0 18A#FE36EED606
(1790244549.677884) can0 38A#000005
(1790244549.678346) can0 18A#FE35EED606
(1790244549.688125) can0 28A#0000000000000000
(1790244549.688491) can0 18A#FD35EED606
(1790244549.697686) can0 18A#FD35EED606
(1790244549.707728) can0 28A#0000000000000000
(1790244549.708364) can0 18A#FD35EED606
(1790244549.717814) can0 18A#FE35EED606
(1790244549.727461) can0 38A#000005
(1790244549.727989) can0 28A#0000000000000000
(1790244549.728333) can0 18A#FE35EED606
(1790244549.737365) can0 18A#FD35EED606
(1790244549.747753) can0 28A#0000000000000000
(1790244549.748274) can0 18A#FD35EED606
(1790244549.757443) can0 18A#FD35EED606
(1790244549.767187) can0 28A#0000000000000000
(1790244549.767616) can0 18A#FD35EFD606
(1790244549.777397) can0 38A#000005
(1790244549.777837) can0 18A#FD35EED606
(1790244549.787037) can0 28A#0000000000000000
(1790244549.787510) can0 18A#FD35EED606
(1790244549.796987) can0 18A#FD35EED606
(1790244549.807502) can0 28A#0000000000000000
(1790244549.808247) can0 18A#FD35EFD606
(1790244549.816764) can0 18A#FD35EFD606
(1790244549.826767) can0 38A#000005
(1790244549.827472) can0 28A#0000000000000000
(1790244549.828012) can0 18A#FE35EED606
(1790244549.836938) can0 18A#FD35EED606
(1790244549.846577) can0 28A#0000000000000000
(1790244549.847102) can0 18A#FE35EED606
(1790244549.856816) can0 18A#FD35EED606
(1790244549.866876) can0 28A#0000000000000000
(1790244549.867634) can0 18A#FD35EED606
(1790244549.876409) can0 38A#000005
(1790244549.877193) can0 18A#FD35EED606
(1790244549.886226) can0 28A#0000000000000000
(1790244549.886638) can0 18A#FD35EFD606
(1790244549.896594) can0 18A#FD35EFD506
(1790244549.906433) can0 28A#0000000000000000
(1790244549.908369) can0 18A#FD35EFD506
(1790244549.916084) can0 18A#FD35EFD506
(1790244549.926412) can0 38A#000005
(1790244549.927341) can0 28A#0000000000000000
(1790244549.928333) can0 18A#FD35EFD506
(1790244549.935882) can0 18A#FD35EFD406
(1790244549.945955) can0 28A#0000000000000000
(1790244549.946577) can0 18A#FD35EFD406
(1790244549.956019) can0 18A#FD35EFD406
(1790244549.965563) can0 28A#0000000000000000
(1790244549.965964) can0 18A#FD35EFD406
(1790244549.975568) can0 38A#000005
(1790244549.976161) can0 18A#FD35EFD406
(1790244549.985824) can0 28A#0000000000000000
(1790244549.986263) can0 18A#FD35EFD406
(1790244549.995371) can0 18A#FD35EFD406
(1790244550.005610) can0 28A#0000000000000000
(1790244550.006532) can0 18A#FD35EFD406
(1790244550.015466) can0 18A#FD35EFD406
(1790244550.025347) can0 70A#05
(1790244550.027239) can0 38A#000005
(1790244550.029178) can0 28A#0000000000000000
(1790244550.035045) can0 18A#FD35EFD406
(1790244550.046577) can0 28A#0000000000000000
(1790244550.048439) can0 18A#FD35EFD406
(1790244550.054964) can0 18A#FD35EFD406
(1790244550.065003) can0 28A#0000000000000000
(1790244550.068366) can0 18A#FD35EFD406
(1790244550.078503) can0 38A#000005
(1790244550.080393) can0 18A#FD35EFD406
(1790244550.084985) can0 28A#0000000000000000
(1790244550.086700) can0 18A#FD35EFD406
(1790244550.094663) can0 18A#FD35EFD406
(1790244550.105183) can0 28A#0000000000000000
(1790244550.106714) can0 18A#FD35EFD406
(1790244550.115181) can0 18A#FD35EFD406
(1790244550.124240) can0 38A#000005
(1790244550.124696) can0 28A#0000000000000000
(1790244550.125098) can0 18A#FD35EFD406
(1790244550.134515) can0 18A#FD35EFD406
(1790244550.144220) can0 28A#0000000000000000
(1790244550.144765) can0 18A#FD35EFD406
(1790244550.154297) can0 18A#FD35EFD406
(1790244550.164437) can0 28A#0000000000000000
(1790244550.165104) can0 18A#FD35EFD406
(1790244550.173834) can0 38A#000005
(1790244550.174239) can0 18A#FD34EFD306
(1790244550.183810) can0 28A#0000000000000000
(1790244550.184160) can0 18A#FD34F0D306
(1790244550.194151) can0 18A#FD34F0D306
(1790244550.203910) can0 28A#0000000000000000
(1790244550.204531) can0 18A#FD34F0D306
(1790244550.213529) can0 18A#FC34F0D306
(1790244550.223759) can0 38A#000005
(1790244550.224164) can0 28A#0000000000000000
(1790244550.224485) can0 18A#FC34F1D306
(1790244550.233310) can0 18A#FC34F1D306
(1790244550.243310) can0 28A#0000000000000000
(1790244550.243711) can0 18A#FC34F1D306
(1790244550.254113) can0 18A#FC34F1D306
(1790244550.263266) can0 28A#0000000000000000
(1790244550.263803) can0 18A#FC34F1D306
(1790244550.273104) can0 38A#000005
(1790244550.273794) can0 18A#FC34F1D306
(1790244550.283366) can0 28A#0000000000000000
(1790244550.283716) can0 18A#FC34F1D306
(1790244550.292968) can0 18A#FC34F1D306
(1790244550.303079) can0 28A#0000000000000000
(1790244550.303946) can0 18A#FC34F1D306
(1790244550.313150) can0 18A#FC34F1D306
(1790244550.322778) can0 38A#000005
(1790244550.323505) can0 28A#0000000000000000
(1790244550.324083) can0 18A#FC34F1D306
(1790244550.332629) can0 18A#FC34F1D306
(1790244550.343006) can0 28A#0000000000000000
(1790244550.343614) can0 18A#FC34F1D306
(1790244550.352629) can0 18A#FC34F1D306
(1790244550.362447) can0 28A#0000000000000000
(1790244550.363027) can0 18A#FC34F1D306
(1790244550.372635) can0 38A#000005
(1790244550.373111) can0 18A#FC34F1D306
(1790244550.382206) can0 28A#0000000000000000
(1790244550.382647) can0 18A#FC34F1D306
(1790244550.392185) can0 18A#FC34F1D306
(1790244550.402831) can0 28A#0000000000000000
(1790244550.403820) can0 18A#FC34F1D206
(1790244550.411946) can0 18A#FC34F1D206
(1790244550.421984) can0 38A#000005
(1790244550.422670) can0 28A#0000000000000000
(1790244550.423194) can0 18A#FC33F1D206
(1790244550.432255) can0 18A#FC33F1D206
(1790244550.441878) can0 28A#0000000000000000
(1790244550.442482) can0 18A#FC33F1D206
(1790244550.452334) can0 18A#FC33F1D206
(1790244550.461900) can0 28A#0000000000000000
(1790244550.462248) can0 18A#FC32F1D206
(1790244550.471473) can0 38A#000005
(1790244550.471973) can0 18A#FC33F2D206
(1790244550.481368) can0 28A#0000000000000000
(1790244550.481686) can0 18A#FC32F2D206
(1790244550.491636) can0 18A#FC33F2D306
(1790244550.501436) can0 28A#0000000000000000
(1790244550.502525) can0 18A#FC33F1D306
(1790244550.511162) can0 18A#FC33F2D306
(1790244550.521443) can0 38A#000005
(1790244550.522031) can0 28A#0000000000000000
(1790244550.522461) can0 18A#FC33F2D306
(1790244550.530941) can0 18A#FC33F2D306
(1790244550.541075) can0 28A#0000000000000000
(1790244550.541601) can0 18A#FC33F2D306
(1790244550.551891) can0 18A#FC33F2D306
(1790244550.560856) can0 28A#0000000000000000
(1790244550.561483) can0 18A#FC33F2D306
(1790244550.570815) can0 38A#000005
(1790244550.571645) can0 18A#FC33F1D306
(1790244550.581002) can0 28A#0000000000000000
(1790244550.581592) can0 18A#FC32F2D206
(1790244550.590556) can0 18A#FC33F2D206
(1790244550.600721) can0 28A#0000000000000000
(1790244550.602044) can0 18A#FC33F2D306
(1790244550.610712) can0 18A#FC33F2D306
(1790244550.620334) can0 38A#000005
(1790244550.620885) can0 28A#0000000000000000
(1790244550.621303) can0 18A#FC33F2D306
(1790244550.630139) can0 18A#FC33F2D306
(1790244550.640715) can0 28A#0000000000000000
(1790244550.643098) can0 18A#FC33F2D306
(1790244550.650321) can0 18A#FC33F2D306
(1790244550.659956) can0 28A#0000000000000000
(1790244550.660300) can0 18A#FC33F2D306
(1790244550.670186) can0 38A#000005
(1790244550.670704) can0 18A#FC33F2D306
(1790244550.679828) can0 28A#0000000000000000
(1790244550.680323) can0 18A#FC32F2D206
(1790244550.689778) can0 18A#FC32F2D306
(1790244550.700428) can0 28A#0000000000000000
(1790244550.700983) can0 18A#FC32F2D306
(1790244550.709480) can0 18A#FC32F2D306
(1790244550.719485) can0 38A#000005
(1790244550.719877) can0 28A#0000000000000000
(1790244550.720195) can0 18A#FC32F2D306
(1790244550.729697) can0 18A#FC31F3D306
(1790244550.739362) can0 28A#0000000000000000
(1790244550.739831) can0 18A#FC31F3D306
(1790244550.749340) can0 18A#FC31F3D306
(1790244550.759529) can0 28A#0000000000000000
(1790244550.759914) can0 18A#FC31F3D306
(1790244550.768994) can0 38A#000005
(1790244550.769411) can0 18A#FC31F3D306
(1790244550.778945) can0 28A#0000000000000000
(1790244550.779298) can0 18A#FC31F3D306
(1790244550.789181) can0 18A#FC31F3D306
(1790244550.799035) can0 28A#0000000000000000
(1790244550.799655) can0 18A#FC31F3D306
(1790244550.808722) can0 18A#FC31F3D306
(1790244550.819009) can0 38A#000005
(1790244550.819592) can0 28A#0000000000000000
(1790244550.819979) can0 18A#FC31F3D306
(1790244550.828592) can0 18A#FC31F3D306
(1790244550.838591) can0 28A#0000000000000000
(1790244550.839066) can0 18A#FC31F3D306
(1790244550.849580) can0 18A#FC31F3D306
(1790244550.858371) can0 28A#0000000000000000
(1790244550.858788) can0 18A#FC31F3D306
(1790244550.868193) can0 38A#000005
(1790244550.868608) can0 18A#FC31F3D306
(1790244550.878529) can0 28A#0000000000000000
(1790244550.878832) can0 18A#FC31F3D306
(1790244550.888100) can0 18A#FC31F3D306
(1790244550.898258) can0 28A#0000000000000000
(1790244550.899156) can0 18A#FC31F3D306
(1790244550.908198) can0 18A#FC31F3D306
(1790244550.917891) can0 38A#000005
(1790244550.918508) can0 28A#0000000000000000
(1790244550.918931) can0 18A#FC31F3D306
(1790244550.927716) can0 18A#FC31F3D306
(1790244550.938155) can0 28A#0000000000000000
(1790244550.938573) can0 18A#FC31F3D306
(1790244550.947995) can0 18A#FC31F3D306
(1790244550.957574) can0 28A#0000000000000000
(1790244550.957927) can0 18A#FC30F3D306
(1790244550.967789) can0 38A#000005
(1790244550.968348) can0 18A#FC30F3D306
(1790244550.977460) can0 28A#0000000000000000
(1790244550.977972) can0 18A#FC30F3D306
(1790244550.987375) can0 18A#FB30F4D306
(1790244550.997842) can0 28A#0000000000000000
(1790244550.998848) can0 18A#FB2FF4D306
(1790244551.007340) can0 18A#FB2FF4D306
(1790244551.016945) can0 70A#05
(1790244551.017322) can0 38A#000005
(1790244551.017612) can0 28A#0000000000000000
(1790244551.027222) can0 18A#FB2FF4D306
(1790244551.036879) can0 28A#0000000000000000
(1790244551.037313) can0 18A#FB2FF4D306
(1790244551.047019) can0 18A#FB2FF4D306
(1790244551.057300) can0 28A#0000000000000000
(1790244551.057988) can0 18A#FB2FF4D306
(1790244551.066781) can0 38A#000005
(1790244551.067460) can0 18A#FB2FF4D306
(1790244551.076612) can0 28A#0000000000000000
(1790244551.077025) can0 18A#FB2FF4D306
(1790244551.086826) can0 18A#FB2FF4D306
(1790244551.096608) can0 28A#0000000000000000
(1790244551.097658) can0 18A#FB2FF4D306
(1790244551.106300) can0 18A#FB2FF4D306
(1790244551.116653) can0 38A#000005
(1790244551.117282) can0 28A#0000000000000000
(1790244551.117704) can0 18A#FB2FF4D306
(1790244551.126090) can0 18A#FB2FF4D306
(1790244551.136126) can0 28A#0000000000000000
(1790244551.136513) can0 18A#FB2FF4D306
(1790244551.146760) can0 18A#FB2FF4D306
(1790244551.155962) can0 28A#0000000000000000
(1790244551.156458) can0 18A#FB2FF4D306
(1790244551.165811) can0 38A#000005
(1790244551.166330) can0 18A#FB2FF4D306
(1790244551.176090) can0 28A#0000000000000000
(1790244551.176632) can0 18A#FB2FF4D306
(1790244551.185766) can0 18A#FB2FF4D306
(1790244551.195749) can0 28A#0000000000000000
(1790244551.196756) can0 18A#FB2FF4D306
(1790244551.205802) can0 18A#FB2FF4D306
(1790244551.215433) can0 38A#000005
(1790244551.215976) can0 28A#0000000000000000
(1790244551.216331) can0 18A#FB2FF4D306
(1790244551.225494) can0 18A#FB2EF4D306
(1790244551.235664) can0 28A#0000000000000000
(1790244551.236059) can0 18A#FB2EF5D306
(1790244551.245195) can0 18A#FB2EF5D306
(1790244551.255158) can0 28A#0000000000000000
(1790244551.255584) can0 18A#FB2DF5D306
(1790244551.265367) can0 38A#000005
(1790244551.265815) can0 18A#FB2EF5D306
(1790244551.274923) can0 28A#0000000000000000
(1790244551.275232) can0 18A#FB2EF5D306
(1790244551.284839) can0 18A#FB2EF5D306
(1790244551.295270) can0 28A#0000000000000000
(1790244551.296359) can0 18A#FB2EF5D306
(1790244551.306415) can0 18A#FB2EF5D306
(1790244551.314664) can0 38A#000005
(1790244551.315231) can0 28A#0000000000000000
(1790244551.315630) can0 18A#FB2EF5D306
(1790244551.324919) can0 18A#FB2EF5D306
(1790244551.334605) can0 28A#0000000000000000
(1790244551.335163) can0 18A#FB2EF5D306
(1790244551.344469) can0 18A#FB2EF5D306
(1790244551.354740) can0 28A#0000000000000000
(1790244551.355225) can0 18A#FB2EF5D306
(1790244551.364476) can0 38A#000005
(1790244551.365154) can0 18A#FB2EF5D306
(1790244551.374216) can0 28A#0000000000000000
(1790244551.374822) can0 18A#FB2EF5D306
(1790244551.384420) can0 18A#FB2EF5D306
(1790244551.394146) can0 28A#0000000000000000
(1790244551.395546) can0 18A#FB2EF5D306
(1790244551.403900) can0 18A#FB2EF5D306
(1790244551.414201) can0 38A#000005
(1790244551.414822) can0 28A#0000000000000000
(1790244551.415300) can0 18A#FB2EF5D306
(1790244551.423709) can0 18A#FB2EF5D306
(1790244551.433721) can0 28A#0000000000000000
(1790244551.434265) can0 18A#FB2EF5D306
(1790244551.444069) can0 18A#FB2EF5D306
(1790244551.453546) can0 28A#0000000000000000
(1790244551.454090) can0 18A#FB2EF5D306
(1790244551.463512) can0 38A#000005
(1790244551.464054) can0 18A#FB2DF5D306
(1790244551.473755) can0 28A#0000000000000000
(1790244551.474355) can0 18A#FB2DF5D306
(1790244551.483276) can0 18A#FB2DF5D306
(1790244551.493495) can0 28A#0000000000000000
(1790244551.495355) can0 18A#FB2CF5D306
(1790244551.503531) can0 18A#FB2CF5D306
(1790244551.513220) can0 38A#000005
(1790244551.514035) can0 28A#0000000000000000
(1790244551.514635) can0 18A#FB2CF5D306
(1790244551.522917) can0 18A#FB2CF5D306
(1790244551.533224) can0 28A#0000000000000000
(1790244551.533755) can0 18A#FB2CF6D306
(1790244551.542957) can0 18A#FB2CF6D306
(1790244551.552722) can0 28A#0000000000000000
(1790244551.553382) can0 18A#FB2CF6D306
(1790244551.563023) can0 38A#000005
(1790244551.563689) can0 18A#FB2CF6D306
(1790244551.572555) can0 28A#0000000000000000
(1790244551.572973) can0 18A#FB2CF6D306
(1790244551.582394) can0 18A#FB2CF6D306
(1790244551.592957) can0 28A#0000000000000000
(1790244551.593899) can0 18A#FB2CF6D306
(1790244551.602206) can0 18A#FB2CF6D306
(1790244551.612239) can0 38A#000005
(1790244551.612877) can0 28A#0000000000000000
(1790244551.613341) can0 18A#FB2CF6D306
(1790244551.622443) can0 18A#FB2CF6D306
(1790244551.632169) can0 28A#0000000000000000
(1790244551.632653) can0 18A#FB2CF6D306
(1790244551.641959) can0 18A#FB2CF6D306
(1790244551.652260) can0 28A#0000000000000000
(1790244551.652670) can0 18A#FB2CF5D306
(1790244551.661925) can0 38A#000005
(1790244551.662928) can0 18A#FB2CF6D306
(1790244551.671854) can0 28A#0000000000000000
(1790244551.672330) can0 18A#FB2CF5D306
(1790244551.682019) can0 18A#FB2CF6D306
(1790244551.691634) can0 28A#0000000000000000
(1790244551.692220) can0 18A#FB2CF6D306
(1790244551.701550) can0 18A#FB2CF6D306
(1790244551.711790) can0 38A#000005
(1790244551.712381) can0 28A#0000000000000000
(1790244551.712869) can0 18A#FB2CF6D306
(1790244551.721276) can0 18A#FB2CF6D306
(1790244551.731330) can0 28A#0000000000000000
(1790244551.731833) can0 18A#FB2CF6D306
(1790244551.741528) can0 18A#FB2CF6D306
(1790244551.751128) can0 28A#0000000000000000
(1790244551.751667) can0 18A#FB2CF6D306
(1790244551.760967) can0 38A#000005
(1790244551.761465) can0 18A#FB2CF7D306
(1790244551.771248) can0 28A#0000000000000000
(1790244551.771613) can0 18A#FA2BF7D306
(1790244551.780859) can0 18A#FA2BF7D306
(1790244551.791015) can0 28A#0000000000000000
(1790244551.792134) can0 18A#FA2BF7D306
(1790244551.801140) can0 18A#FA2BF7D306
(1790244551.810657) can0 38A#000005
(1790244551.818189) can0 28A#0000000000000000
(1790244551.818642) can0 18A#FA2BF7D306
(1790244551.820415) can0 18A#FA2BF7D306
(1790244551.830959) can0 28A#0000000000000000
(1790244551.833785) can0 18A#FA2AF7D306
(1790244551.840425) can0 18A#FA2AF7D306
(1790244551.851484) can0 28A#0000000000000000
(1790244551.853264) can0 18A#FA2BF7D306
(1790244551.860742) can0 38A#000005
(1790244551.862570) can0 18A#FA2BF7D306
(1790244551.872060) can0 28A#0000000000000000
(1790244551.873444) can0 18A#FA2AF7D306
(1790244551.880711) can0 18A#FA2BF7D306
(1790244551.890558) can0 28A#0000000000000000
(1790244551.891831) can0 18A#FA2BF7D306
(1790244551.901461) can0 18A#FA2BF7D306
(1790244551.910354) can0 38A#000005
(1790244551.912203) can0 28A#0000000000000000
(1790244551.913437) can0 18A#FA2BF7D306
(1790244551.920852) can0 18A#FA2BF7D306
(1790244551.930893) can0 28A#0000000000000000
(1790244551.932689) can0 18A#FA2BF7D306
(1790244551.939757) can0 18A#FA2BF7D306
(1790244551.951427) can0 28A#0000000000000000
(1790244551.952030) can0 18A#FA2BF7D306
(1790244551.959946) can0 38A#000005
(1790244551.962314) can0 18A#FA2BF7D306
(1790244551.970729) can0 28A#0000000000000000
(1790244551.972851) can0 18A#FA2BF7D306
